date Mon Mar 23 12:12:27.256 pm 2020
base hex  timestamps absolute
internal events logged
// version 11.0.0
   0.044358 CAN 1 Status:chip status error active
   0.044358 CAN 2 Status:chip status error active
   1.044358 CAN 1 Status:chip status error active
   1.044358 CAN 2 Status:chip status error active
   2.044358 CAN 1 Status:chip status error active
   2.044358 CAN 2 Status:chip status error active
   2.699961 2  400             TxRq d 8 0C 02 A0 04 04 04 00 00  Length = 0 BitCount = 0 ID = 1024
   2.701069 CAN 2 Status:chip status error active  - TxErr: 8 RxErr: 0
   2.701071 2  ErrorFrame	Flags = 0xfffe	CodeExt = 0x31d9	Code = 0xc7	ID = 0x400	DLC = 8	Position = 99	Length = 1110015	Data = 0xc  0x2  0xa0  0x4  0x4  0x4  0  0
   2.702349 CAN 2 Status:chip status error active  - TxErr: 16 RxErr: 0
   2.702351 2  ErrorFrame	Flags = 0xfffe	CodeExt = 0x31d9	Code = 0xc7	ID = 0x400	DLC = 8	Position = 99	Length = 1110015	Data = 0xc  0x2  0xa0  0x4  0x4  0x4  0  0
   2.703629 CAN 2 Status:chip status error active  - TxErr: 24 RxErr: 0
   2.703631 2  ErrorFrame	Flags = 0xfffe	CodeExt = 0x31d9	Code = 0xc7	ID = 0x400	DLC = 8	Position = 99	Length = 1110015	Data = 0xc  0x2  0xa0  0x4  0x4  0x4  0  0
   2.704909 CAN 2 Status:chip status error active  - TxErr: 32 RxErr: 0
   2.704911 2  ErrorFrame	Flags = 0xfffe	CodeExt = 0x31d9	Code = 0xc7	ID = 0x400	DLC = 8	Position = 99	Length = 1110015	Data = 0xc  0x2  0xa0  0x4  0x4  0x4  0  0
   2.706189 CAN 2 Status:chip status error active  - TxErr: 40 RxErr: 0
   2.706191 2  ErrorFrame	Flags = 0xfffe	CodeExt = 0x31d9	Code = 0xc7	ID = 0x400	DLC = 8	Position = 99	Length = 1110015	Data = 0xc  0x2  0xa0  0x4  0x4  0x4  0  0
   2.707469 CAN 2 Status:chip status error active  - TxErr: 48 RxErr: 0
   2.707471 2  ErrorFrame	Flags = 0xfffe	CodeExt = 0x31d9	Code = 0xc7	ID = 0x400	DLC = 8	Position = 99	Length = 1110015	Data = 0xc  0x2  0xa0  0x4  0x4  0x4  0  0
   2.708749 CAN 2 Status:chip status error active  - TxErr: 56 RxErr: 0
   2.708751 2  ErrorFrame	Flags = 0xfffe	CodeExt = 0x31d9	Code = 0xc7	ID = 0x400	DLC = 8	Position = 99	Length = 1110015	Data = 0xc  0x2  0xa0  0x4  0x4  0x4  0  0
   2.710109 CAN 2 Status:chip status error active  - TxErr: 55 RxErr: 0
   2.710111 2  400             Tx   d 8 0C 02 A0 04 04 04 00 00  Length = 1190015 BitCount = 122 ID = 1024
   2.716868 2  ErrorFrame	Flags = 0xfffe	CodeExt = 0x20aa	Code = 0x82	ID = 0x381	DLC = 6	Position = 45	Length = 509375	Data = 0  0  0x7  0  0x4  0x4
   2.716876 CAN 2 Status:chip status error active  - TxErr: 55 RxErr: 1
   2.717996 CAN 2 Status:chip status error active  - TxErr: 55 RxErr: 0
   2.718068 2  381             Rx   d 6 00 00 00 00 00 00  Length = 1029430 BitCount = 107 ID = 897
   2.719308 2  400             Rx   d 8 00 02 01 04 00 04 00 00  Length = 1199426 BitCount = 124 ID = 1024
   2.727508 2  397             Rx   d 8 00 00 00 00 00 00 00 00  Length = 1199441 BitCount = 124 ID = 919
   2.728558 2  4B9             Rx   d 6 00 00 00 00 00 00  Length = 1009430 BitCount = 105 ID = 1209
   2.729738 2  655             Rx   d 8 75 00 F0 03 18 00 80 C0  Length = 1139430 BitCount = 118 ID = 1621
   2.737287 2  4BD             Rx   d 6 00 00 00 00 00 00  Length = 999445 BitCount = 104 ID = 1213
   2.738497 2  658             Rx   d 8 60 28 00 09 00 9C 00 00  Length = 1169426 BitCount = 121 ID = 1624
   2.747337 2  3B5             Rx   d 6 00 00 00 00 00 00  Length = 1029430 BitCount = 107 ID = 949
   2.748507 2  527             Rx   d 8 07 01 00 10 71 70 6F 08  Length = 1129430 BitCount = 117 ID = 1319
   2.749496 2  6B4             Rx   d 6 DE 01 48 02 76 66  Length = 949430 BitCount = 99 ID = 1716
   2.757486 2  470             Rx   d 8 40 00 00 00 00 00 00 17  Length = 1199426 BitCount = 124 ID = 1136
   2.767305 2  2C1             Rx   d 6 00 00 00 00 02 00  Length = 1009430 BitCount = 105 ID = 705
   2.768155 2  531             Rx   d 4 00 20 A0 80  Length = 799438 BitCount = 84 ID = 1329
   2.769305 2  651             Rx   d 8 80 02 50 AF 39 59 01 00  Length = 1109445 BitCount = 115 ID = 1617
   2.770545 2  400             Rx   d 8 00 01 01 04 00 04 00 00  Length = 1199441 BitCount = 124 ID = 1024
   2.777435 2  359             Rx   d 8 FF 89 FF 00 10 6B 80 00  Length = 1149426 BitCount = 119 ID = 857
   2.782955 2  67C             Rx   d 2 1C 42  Length = 609446 BitCount = 65 ID = 1660
   2.787704 2  35B             Rx   d 8 0F 00 00 00 20 19 0C 00  Length = 1169426 BitCount = 121 ID = 859
   2.788444 2  457             Rx   d 3 00 47 00  Length = 699453 BitCount = 74 ID = 1111
   2.797464 2  320             Rx   d 8 00 00 00 01 00 01 00 80  Length = 1189426 BitCount = 123 ID = 800
   2.798324 2  575             Rx   d 4 00 00 00 00  Length = 819434 BitCount = 86 ID = 1397
   2.799454 2  65D             Rx   d 8 81 F2 26 D0 F0 CB 16 D9  Length = 1089445 BitCount = 113 ID = 1629
   2.807483 2  367             Rx   d 8 FF 00 00 00 7F F0 01 00  Length = 1179426 BitCount = 122 ID = 871
   2.808723 2  369             Rx   d 8 3F 00 00 D0 FF 00 00 00  Length = 1189426 BitCount = 123 ID = 873
   2.809963 2  470             Rx   d 8 40 00 00 00 00 00 00 17  Length = 1199426 BitCount = 124 ID = 1136
   2.817303 2  381             Rx   d 6 00 00 00 00 00 00  Length = 1029430 BitCount = 107 ID = 897
   2.818143 2  531             Rx   d 4 00 20 B0 90  Length = 789449 BitCount = 83 ID = 1329
   2.827502 2  397             Rx   d 8 00 00 00 00 00 00 00 00  Length = 1199441 BitCount = 124 ID = 919
   2.828552 2  4B9             Rx   d 6 00 00 00 00 00 00  Length = 1009430 BitCount = 105 ID = 1209
   2.829792 2  591             Rx   d 8 00 00 08 00 00 00 00 00  Length = 1199426 BitCount = 124 ID = 1425
   2.835592 2  3E1             Rx   d 8 80 00 00 00 00 00 04 F8  Length = 1199426 BitCount = 124 ID = 993
   2.836862 2  3E3             Rx   d 8 00 00 FF 00 00 00 00 00  Length = 1209426 BitCount = 125 ID = 995
   2.837902 2  4BD             Rx   d 6 00 00 00 00 00 00  Length = 999445 BitCount = 104 ID = 1213
   2.839122 2  3E9             Rx   d 8 FE F8 DF FF 00 00 00 00  Length = 1179426 BitCount = 122 ID = 1001
   2.840322 2  658             Rx   d 8 60 28 00 09 00 9B 00 00  Length = 1159441 BitCount = 120 ID = 1624
   2.841562 2  40C             Rx   d 8 0C 02 01 04 00 04 00 00  Length = 1199426 BitCount = 124 ID = 1036
   2.842732 2  5E1             Rx   d 7 00 00 00 00 00 00 00  Length = 1109430 BitCount = 115 ID = 1505
   2.843982 2  5E8             Rx   d 8 00 00 FF FF 00 0C 00 00  Length = 1189426 BitCount = 123 ID = 1512
   2.847342 2  3B5             Rx   d 6 00 00 00 00 00 00  Length = 1029430 BitCount = 107 ID = 949
   2.848012 2  5D1             Rx   d 2 10 00  Length = 629442 BitCount = 67 ID = 1489
   2.857481 2  470             Rx   d 8 40 00 00 00 00 00 00 17  Length = 1199426 BitCount = 124 ID = 1136
   2.865061 2  621             Rx   d 8 00 01 37 00 00 3C 1B 00  Length = 1149426 BitCount = 119 ID = 1569
   2.867351 2  2C1             Rx   d 6 00 00 00 00 02 00  Length = 1009430 BitCount = 105 ID = 705
   2.868201 2  531             Rx   d 4 00 20 C0 E0  Length = 799438 BitCount = 84 ID = 1329
   2.869351 2  651             Rx   d 8 80 02 50 AF 39 59 01 00  Length = 1109445 BitCount = 115 ID = 1617
   2.877560 2  359             Rx   d 8 FF 89 FF 00 10 6B 80 00  Length = 1149426 BitCount = 119 ID = 857
   2.884560 2  40C             Rx   d 8 0C 01 01 04 00 04 00 00  Length = 1189441 BitCount = 123 ID = 1036
   2.887480 2  35B             Rx   d 8 0F 00 00 00 20 19 0C 00  Length = 1169426 BitCount = 121 ID = 859
   2.888220 2  457             Rx   d 3 00 47 00  Length = 699442 BitCount = 74 ID = 1111
   2.894121 2  436             Rx   d 8 16 02 01 04 00 00 02 00  Length = 1169426 BitCount = 121 ID = 1078
   2.903491 2  481             Rx   d 2 00 00  Length = 649442 BitCount = 69 ID = 1153
   2.904821 2  661             Rx   d 8 00 00 00 00 00 00 00 00  Length = 1199441 BitCount = 124 ID = 1633
   2.906051 2  665             Rx   d 7 00 00 00 00 00 00 00  Length = 1099430 BitCount = 114 ID = 1637
   2.906821 2  666             Rx   d 2 00 00  Length = 639442 BitCount = 68 ID = 1638
   2.908051 2  369             Rx   d 8 3F 00 00 D0 FF 00 00 00  Length = 1189426 BitCount = 123 ID = 873
   2.909291 2  470             Rx   d 8 40 00 00 00 00 00 00 17  Length = 1199441 BitCount = 124 ID = 1136
   2.910041 2  635             Rx   d 3 00 00 1B  Length = 709438 BitCount = 75 ID = 1589
   2.914241 2  60E             Rx   d 2 08 02  Length = 629442 BitCount = 67 ID = 1550
   2.917361 2  381             Rx   d 6 00 00 00 00 00 00  Length = 1029430 BitCount = 107 ID = 897
   2.918211 2  531             Rx   d 4 00 20 D0 F0  Length = 799438 BitCount = 84 ID = 1329
   2.927490 2  397             Rx   d 8 00 00 00 00 00 00 00 00  Length = 1199426 BitCount = 124 ID = 919
   2.928540 2  4B9             Rx   d 6 00 00 00 00 00 00  Length = 1009430 BitCount = 105 ID = 1209
   2.929790 2  5F5             Rx   d 8 00 10 00 00 00 00 00 00  Length = 1209426 BitCount = 125 ID = 1525
   2.931020 2  400             Rx   d 8 0C 01 01 04 00 04 00 00  Length = 1189426 BitCount = 123 ID = 1024
   2.933820 2  3E1             Rx   d 8 80 00 00 00 00 00 84 F8  Length = 1189426 BitCount = 123 ID = 993
   2.937290 2  4BD             Rx   d 6 00 00 00 00 00 00  Length = 999430 BitCount = 104 ID = 1213
   2.938490 2  658             Rx   d 8 60 28 00 09 00 9B 00 00  Length = 1159426 BitCount = 120 ID = 1624
   2.947319 2  3B5             Rx   d 6 00 00 00 00 00 00  Length = 1029430 BitCount = 107 ID = 949
   2.948499 2  527             Rx   d 8 00 01 00 10 71 70 6F 08  Length = 1139430 BitCount = 118 ID = 1319
   2.957509 2  470             Rx   d 8 40 00 00 00 00 00 00 17  Length = 1199426 BitCount = 124 ID = 1136
   2.958759 2  64F             Rx   d 8 3F 00 00 00 00 00 00 00  Length = 1209426 BitCount = 125 ID = 1615
   2.965018 2  65F             Rx   d 8 00 AA 8C 8E C0 00 00 00  Length = 1119430 BitCount = 116 ID = 1631
   2.966208 2  621             Rx   d 8 00 01 37 00 00 3C 1B 00  Length = 1149426 BitCount = 119 ID = 1569
   2.967358 2  2C1             Rx   d 6 00 00 00 00 02 00  Length = 1009430 BitCount = 105 ID = 705
   2.968208 2  531             Rx   d 4 00 20 E0 C0  Length = 799449 BitCount = 84 ID = 1329
   2.969358 2  651             Rx   d 8 80 02 50 AF 39 59 01 00  Length = 1109430 BitCount = 115 ID = 1617
   2.974108 2  40C             Rx   d 8 16 01 01 04 00 04 00 00  Length = 1189441 BitCount = 123 ID = 1036
   2.977418 2  359             Rx   d 8 FF 89 FF 00 10 6B 80 00  Length = 1149426 BitCount = 119 ID = 857
   2.987457 2  35B             Rx   d 8 0F 00 00 00 20 19 0C 00  Length = 1169426 BitCount = 121 ID = 859
   2.988197 2  457             Rx   d 3 00 47 00  Length = 699453 BitCount = 74 ID = 1111
   2.997457 2  320             Rx   d 8 00 00 00 01 00 09 00 80  Length = 1189426 BitCount = 123 ID = 800
   2.998317 2  575             Rx   d 4 00 00 00 00  Length = 819434 BitCount = 86 ID = 1397
   3.007486 2  367             Rx   d 8 FF 00 00 00 7F F0 01 00  Length = 1179426 BitCount = 122 ID = 871
   3.008726 2  369             Rx   d 8 3F 00 00 D0 FF 00 00 00  Length = 1189426 BitCount = 123 ID = 873
   3.009966 2  470             Rx   d 8 40 00 00 00 00 00 00 17  Length = 1199441 BitCount = 124 ID = 1136
   3.015186 2  629             Rx   d 8 FF 0F FF 7F F2 26 40 00  Length = 1139430 BitCount = 118 ID = 1577
   3.017296 2  381             Rx   d 6 00 00 00 00 00 00  Length = 1029430 BitCount = 107 ID = 897
   3.018155 2  531             Rx   d 4 00 20 F0 D0  Length = 809434 BitCount = 85 ID = 1329
   3.025086 2  436             Rx   d 8 00 01 01 04 00 00 02 00  Length = 1189426 BitCount = 123 ID = 1078
   3.027505 2  397             Rx   d 8 00 00 00 00 00 00 00 00  Length = 1199426 BitCount = 124 ID = 919
   3.028555 2  4B9             Rx   d 6 00 00 00 00 00 00  Length = 1009430 BitCount = 105 ID = 1209
   3.029795 2  591             Rx   d 8 00 00 08 00 00 00 00 00  Length = 1199426 BitCount = 124 ID = 1425
   3.033735 2  3E1             Rx   d 8 80 00 00 00 00 00 84 F8  Length = 1189426 BitCount = 123 ID = 993
   3.034905 2  5E1             Rx   d 7 00 00 00 00 00 00 00  Length = 1109430 BitCount = 115 ID = 1505
   3.037265 2  4BD             Rx   d 6 00 00 00 00 00 00  Length = 999430 BitCount = 104 ID = 1213
   3.038465 2  658             Rx   d 8 78 28 00 09 00 9B 00 00  Length = 1159441 BitCount = 120 ID = 1624
   3.040065 2  62B             Rx   d 8 00 10 00 40 57 00 FE 7F  Length = 1149441 BitCount = 119 ID = 1579
   3.043875 2  5E8             Rx   d 8 00 40 00 00 00 00 40 00  Length = 1209441 BitCount = 125 ID = 1512
   3.044359 CAN 1 Status:chip status error active
   3.044359 CAN 2 Status:chip status error active  - TxErr: 55 RxErr: 0
   3.047315 2  3B5             Rx   d 6 00 00 00 00 00 00  Length = 1029430 BitCount = 107 ID = 949
   3.048345 2  571             Rx   d 6 9B 1F 00 08 04 00  Length = 989445 BitCount = 103 ID = 1393
   3.049015 2  5D1             Rx   d 2 10 00  Length = 629442 BitCount = 67 ID = 1489
   3.057464 2  470             Rx   d 8 40 00 00 00 00 00 00 17  Length = 1199441 BitCount = 124 ID = 1136
   3.063724 2  5E1             Rx   d 7 80 00 00 00 00 00 00  Length = 1099430 BitCount = 114 ID = 1505
   3.065044 2  621             Rx   d 8 00 01 37 00 00 3C 1B 00  Length = 1149426 BitCount = 119 ID = 1569
   3.066204 2  62D             Rx   d 8 00 10 EE 40 EB 02 13 40  Length = 1119430 BitCount = 116 ID = 1581
   3.067354 2  2C1             Rx   d 6 00 00 00 00 02 00  Length = 1009445 BitCount = 105 ID = 705
   3.068214 2  531             Rx   d 4 00 20 00 20  Length = 809434 BitCount = 85 ID = 1329
   3.069364 2  651             Rx   d 8 80 02 50 AF 39 59 01 00  Length = 1109430 BitCount = 115 ID = 1617
   3.070594 2  400             Rx   d 8 0C 01 01 04 00 04 00 00  Length = 1189426 BitCount = 123 ID = 1024
   3.077434 2  359             Rx   d 8 FF 89 FF 00 10 6B 80 00  Length = 1149426 BitCount = 119 ID = 857
   3.087463 2  35B             Rx   d 8 0F 00 00 00 20 19 0C 00  Length = 1169426 BitCount = 121 ID = 859
   3.088203 2  457             Rx   d 3 00 47 00  Length = 699442 BitCount = 74 ID = 1111
   3.107492 2  369             Rx   d 8 3F 00 00 D0 FF 00 00 00  Length = 1189426 BitCount = 123 ID = 873
   3.108732 2  470             Rx   d 8 40 00 00 00 00 00 00 17  Length = 1199426 BitCount = 124 ID = 1136
   3.109482 2  635             Rx   d 3 00 00 1B  Length = 709438 BitCount = 75 ID = 1589
   3.114122 2  40C             Rx   d 8 16 01 01 04 00 04 00 00  Length = 1189426 BitCount = 123 ID = 1036
   3.117362 2  381             Rx   d 6 00 00 00 00 00 00  Length = 1029430 BitCount = 107 ID = 897
   3.118212 2  531             Rx   d 4 00 20 10 30  Length = 799438 BitCount = 84 ID = 1329
   3.127491 2  397             Rx   d 8 00 00 00 00 00 00 00 00  Length = 1199426 BitCount = 124 ID = 919
   3.128541 2  4B9             Rx   d 6 00 00 00 00 00 00  Length = 1009430 BitCount = 105 ID = 1209
   3.129371 2  653             Rx   d 4 81 01 41 01  Length = 789438 BitCount = 83 ID = 1619
   3.134361 2  3E1             Rx   d 8 80 00 00 00 00 00 84 F8  Length = 1189441 BitCount = 123 ID = 993
   3.137271 2  4BD             Rx   d 6 00 00 00 00 00 00  Length = 999445 BitCount = 104 ID = 1213
   3.138471 2  658             Rx   d 8 78 28 00 09 00 9B 00 00  Length = 1159441 BitCount = 120 ID = 1624
   3.140051 2  52D             Rx   d 8 FE 7F FF 0F FF 0F FF 0F  Length = 1169426 BitCount = 121 ID = 1325
   3.147311 2  3B5             Rx   d 6 00 00 00 00 00 00  Length = 1029445 BitCount = 107 ID = 949
   3.148491 2  527             Rx   d 8 00 01 00 10 71 70 6F 08  Length = 1139430 BitCount = 118 ID = 1319
   3.157500 2  470             Rx   d 8 40 00 00 00 00 00 00 17  Length = 1199426 BitCount = 124 ID = 1136
   3.158730 2  436             Rx   d 8 00 01 01 04 00 00 02 00  Length = 1189426 BitCount = 123 ID = 1078
   3.165050 2  52F             Rx   d 8 00 00 FE 1F FE 1F FE 1F  Length = 1169426 BitCount = 121 ID = 1327
   3.166220 2  65F             Rx   d 8 01 00 00 00 00 00 00 00  Length = 1129430 BitCount = 117 ID = 1631
   3.167410 2  621             Rx   d 8 00 01 37 00 00 3C 1B 00  Length = 1149426 BitCount = 119 ID = 1569
   3.168460 2  2C1             Rx   d 6 00 00 00 00 02 00  Length = 1009430 BitCount = 105 ID = 705
   3.169140 2  481             Rx   d 2 01 00  Length = 639457 BitCount = 68 ID = 1153
   3.169980 2  531             Rx   d 4 00 20 20 00  Length = 799438 BitCount = 84 ID = 1329
   3.171130 2  651             Rx   d 8 80 02 50 AF 39 59 01 00  Length = 1109430 BitCount = 115 ID = 1617
   3.177410 2  359             Rx   d 8 FF 89 FF 00 10 6B 80 00  Length = 1149426 BitCount = 119 ID = 857
   3.187450 2  35B             Rx   d 8 0F 00 00 00 20 19 0C 00  Length = 1169426 BitCount = 121 ID = 859
   3.188189 2  457             Rx   d 3 00 47 00  Length = 699442 BitCount = 74 ID = 1111
   3.189729 2  532             Rx   d 8 00 00 8D 10 34 10 25 10  Length = 1129430 BitCount = 117 ID = 1330
   3.197439 2  320             Rx   d 8 00 00 00 01 00 01 00 80  Length = 1189426 BitCount = 123 ID = 800
   3.198299 2  575             Rx   d 4 00 00 00 00  Length = 819434 BitCount = 86 ID = 1397
   3.207468 2  367             Rx   d 8 FF 00 00 00 7F F0 01 00  Length = 1179426 BitCount = 122 ID = 871
   3.208708 2  369             Rx   d 8 3F 00 00 D0 FF 00 00 00  Length = 1189426 BitCount = 123 ID = 873
   3.209948 2  470             Rx   d 8 40 00 00 00 00 00 00 17  Length = 1199426 BitCount = 124 ID = 1136
   3.211178 2  400             Rx   d 8 0C 01 01 04 00 04 00 00  Length = 1189426 BitCount = 123 ID = 1024
   3.217288 2  381             Rx   d 6 00 00 00 00 00 00  Length = 1029430 BitCount = 107 ID = 897
   3.218128 2  531             Rx   d 4 00 20 30 10  Length = 789449 BitCount = 83 ID = 1329
   3.227487 2  397             Rx   d 8 00 00 00 00 00 00 00 00  Length = 1199441 BitCount = 124 ID = 919
   3.228537 2  4B9             Rx   d 6 00 00 00 00 00 00  Length = 1009430 BitCount = 105 ID = 1209
   3.229777 2  591             Rx   d 8 00 00 08 00 00 00 00 00  Length = 1199426 BitCount = 124 ID = 1425
   3.230957 2  655             Rx   d 8 75 00 F0 03 18 00 80 C0  Length = 1139430 BitCount = 118 ID = 1621
   3.234237 2  3E1             Rx   d 8 80 00 00 00 00 00 84 F8  Length = 1189426 BitCount = 123 ID = 993
   3.235397 2  5E1             Rx   d 7 80 00 00 00 00 00 00  Length = 1099445 BitCount = 114 ID = 1505
   3.237257 2  4BD             Rx   d 6 00 00 00 00 00 00  Length = 999430 BitCount = 104 ID = 1213
   3.238457 2  658             Rx   d 8 78 28 00 09 00 9B 00 00  Length = 1159426 BitCount = 120 ID = 1624
   3.247307 2  3B5             Rx   d 6 00 00 00 00 00 00  Length = 1029430 BitCount = 107 ID = 949
   3.247977 2  5D1             Rx   d 2 10 00  Length = 629442 BitCount = 67 ID = 1489
   3.248967 2  6B4             Rx   d 6 DE 01 48 02 76 66  Length = 949445 BitCount = 99 ID = 1716
   3.254847 2  40C             Rx   d 8 16 01 01 04 00 04 00 00  Length = 1189426 BitCount = 123 ID = 1036
   3.257457 2  470             Rx   d 8 40 00 00 00 00 00 00 17  Length = 1199426 BitCount = 124 ID = 1136
   3.265026 2  621             Rx   d 8 00 01 37 00 00 3C 1B 00  Length = 1149426 BitCount = 119 ID = 1569
   3.267306 2  2C1             Rx   d 6 00 00 00 00 02 00  Length = 1009430 BitCount = 105 ID = 705
   3.268166 2  531             Rx   d 4 00 20 40 60  Length = 809434 BitCount = 85 ID = 1329
   3.269316 2  651             Rx   d 8 80 02 50 AF 39 59 01 00  Length = 1109445 BitCount = 115 ID = 1617
   3.277426 2  359             Rx   d 8 FF 89 FF 00 10 6B 80 00  Length = 1149426 BitCount = 119 ID = 857
   3.283015 2  67C             Rx   d 2 1C 42  Length = 609446 BitCount = 65 ID = 1660
   3.287455 2  35B             Rx   d 8 0F 00 00 00 20 19 0C 00  Length = 1169426 BitCount = 121 ID = 859
   3.288195 2  457             Rx   d 3 00 47 00  Length = 699442 BitCount = 74 ID = 1111
   3.298024 2  436             Rx   d 8 00 01 01 04 00 00 02 00  Length = 1189426 BitCount = 123 ID = 1078
   3.307494 2  369             Rx   d 8 3F 00 00 D0 FF 00 00 00  Length = 1189426 BitCount = 123 ID = 873
   3.308734 2  470             Rx   d 8 40 00 00 00 00 00 00 17  Length = 1199426 BitCount = 124 ID = 1136
   3.309484 2  635             Rx   d 3 00 00 1B  Length = 709438 BitCount = 75 ID = 1589
   3.317273 2  381             Rx   d 6 00 00 00 00 00 00  Length = 1029430 BitCount = 107 ID = 897
   3.318133 2  531             Rx   d 4 00 20 50 70  Length = 809434 BitCount = 85 ID = 1329
   3.327473 2  397             Rx   d 8 00 00 00 00 00 00 00 00  Length = 1199426 BitCount = 124 ID = 919
   3.328523 2  4B9             Rx   d 6 00 00 00 00 00 00  Length = 1009445 BitCount = 105 ID = 1209
   3.333753 2  3E1             Rx   d 8 80 00 00 00 00 00 84 F8  Length = 1189441 BitCount = 123 ID = 993
   3.335023 2  3E9             Rx   d 8 00 00 00 00 00 00 00 00  Length = 1209426 BitCount = 125 ID = 1001
   3.336293 2  5E8             Rx   d 8 00 40 00 00 00 00 40 00  Length = 1209426 BitCount = 125 ID = 1512
   3.337333 2  4BD             Rx   d 6 00 00 00 00 00 00  Length = 999430 BitCount = 104 ID = 1213
   3.338543 2  658             Rx   d 8 78 28 00 09 00 9A 00 00  Length = 1169426 BitCount = 121 ID = 1624
   3.347302 2  3B5             Rx   d 6 00 00 00 00 00 00  Length = 1029430 BitCount = 107 ID = 949
   3.348482 2  527             Rx   d 8 10 01 00 10 71 70 6F 08  Length = 1139430 BitCount = 118 ID = 1319
   3.349732 2  400             Rx   d 8 0C 01 01 04 00 00 00 00  Length = 1209426 BitCount = 125 ID = 1024
   3.353732 2  3E1             Rx   d 8 00 00 FF 00 00 00 84 78  Length = 1179426 BitCount = 122 ID = 993
   3.357472 2  470             Rx   d 8 40 00 00 00 00 00 00 17  Length = 1199426 BitCount = 124 ID = 1136
   3.364982 2  65F             Rx   d 8 02 00 00 00 00 00 00 00  Length = 1119441 BitCount = 116 ID = 1631
   3.366172 2  621             Rx   d 8 00 01 37 00 00 3C 1B 00  Length = 1149426 BitCount = 119 ID = 1569
   3.367331 2  2C1             Rx   d 6 00 00 00 00 02 00  Length = 1009430 BitCount = 105 ID = 705
   3.368181 2  531             Rx   d 4 00 20 60 40  Length = 799438 BitCount = 84 ID = 1329
   3.369331 2  651             Rx   d 8 80 02 50 AF 39 59 01 00  Length = 1109445 BitCount = 115 ID = 1617
   3.371161 2  67D             Rx   d 4 40 00 01 14  Length = 799438 BitCount = 84 ID = 1661
   3.377391 2  359             Rx   d 8 FF 89 FF 00 10 6B 80 00  Length = 1149426 BitCount = 119 ID = 857
   3.378931 2  66C             Rx   d 8 0C 42 03 00 31 00 03 01  Length = 1159426 BitCount = 120 ID = 1644
   3.387431 2  35B             Rx   d 8 0F 00 00 00 20 19 0C 00  Length = 1169426 BitCount = 121 ID = 859
   3.388171 2  457             Rx   d 3 00 47 00  Length = 699442 BitCount = 74 ID = 1111
   3.394021 2  40C             Rx   d 8 16 01 01 04 00 04 00 00  Length = 1189441 BitCount = 123 ID = 1036
   3.397431 2  320             Rx   d 8 00 00 00 01 00 09 00 80  Length = 1189441 BitCount = 123 ID = 800
   3.398291 2  575             Rx   d 4 00 00 00 00  Length = 819434 BitCount = 86 ID = 1397
   3.407460 2  367             Rx   d 8 FF 00 00 00 7F F0 01 00  Length = 1179441 BitCount = 122 ID = 871
   3.408700 2  369             Rx   d 8 3F 00 00 D0 FF 00 00 00  Length = 1189426 BitCount = 123 ID = 873
   3.409940 2  470             Rx   d 8 40 00 00 00 00 00 00 17  Length = 1199426 BitCount = 124 ID = 1136
   3.410600 2  69D             Rx   d 2 14 42  Length = 619442 BitCount = 66 ID = 1693
   3.417270 2  381             Rx   d 6 00 00 00 00 00 00  Length = 1029430 BitCount = 107 ID = 897
   3.418120 2  531             Rx   d 4 00 20 70 50  Length = 799438 BitCount = 84 ID = 1329
   3.419539 2  67A             Rx   d 2 17 42  Length = 599446 BitCount = 64 ID = 1658
   3.427469 2  397             Rx   d 8 00 00 00 00 00 00 00 00  Length = 1199426 BitCount = 124 ID = 919
   3.428519 2  4B9             Rx   d 6 00 00 00 00 00 00  Length = 1009445 BitCount = 105 ID = 1209
   3.429759 2  591             Rx   d 8 00 00 08 00 00 00 00 00  Length = 1199426 BitCount = 124 ID = 1425
   3.431009 2  5F5             Rx   d 8 00 10 00 00 00 00 00 00  Length = 1209441 BitCount = 125 ID = 1525
   3.433789 2  3E1             Rx   d 8 00 00 FF 00 00 00 84 78  Length = 1179426 BitCount = 122 ID = 993
   3.434949 2  5E1             Rx   d 7 80 00 00 00 00 00 00  Length = 1099445 BitCount = 114 ID = 1505
   3.437239 2  4BD             Rx   d 6 00 00 00 00 00 00  Length = 999430 BitCount = 104 ID = 1213
   3.438449 2  658             Rx   d 8 78 28 00 09 00 9A 00 00  Length = 1169426 BitCount = 121 ID = 1624
   3.444029 2  436             Rx   d 8 00 01 01 04 00 00 02 00  Length = 1189426 BitCount = 123 ID = 1078
   3.447289 2  3B5             Rx   d 6 00 00 00 00 00 00  Length = 1029430 BitCount = 107 ID = 949
   3.447959 2  5D1             Rx   d 2 10 00  Length = 629442 BitCount = 67 ID = 1489
   3.457448 2  470             Rx   d 8 40 00 00 00 00 00 00 17  Length = 1199426 BitCount = 124 ID = 1136
   3.458698 2  64F             Rx   d 8 3F 00 00 00 00 00 00 00  Length = 1209426 BitCount = 125 ID = 1615
   3.465018 2  621             Rx   d 8 00 01 37 00 00 3C 1B 00  Length = 1149441 BitCount = 119 ID = 1569
   3.467308 2  2C1             Rx   d 6 00 00 00 00 02 00  Length = 1009430 BitCount = 105 ID = 705
   3.468158 2  531             Rx   d 4 00 20 80 A0  Length = 799438 BitCount = 84 ID = 1329
   3.469308 2  651             Rx   d 8 80 02 50 AF 39 59 01 00  Length = 1109430 BitCount = 115 ID = 1617
   3.473787 2  67C             Rx   d 2 1C 41  Length = 649442 BitCount = 69 ID = 1660
   3.477407 2  359             Rx   d 8 FF 89 FF 00 10 6B 80 00  Length = 1149426 BitCount = 119 ID = 857
   3.480247 2  66C             Rx   d 8 80 2E 4C 41 03 00 31 00  Length = 1139430 BitCount = 118 ID = 1644
   3.487447 2  35B             Rx   d 8 0F 00 00 00 20 19 0C 00  Length = 1169441 BitCount = 121 ID = 859
   3.488187 2  457             Rx   d 3 00 47 00  Length = 699442 BitCount = 74 ID = 1111
   3.489437 2  400             Rx   d 8 0C 01 01 04 00 00 00 00  Length = 1209426 BitCount = 125 ID = 1024
   3.490087 2  69D             Rx   d 2 19 42  Length = 609446 BitCount = 65 ID = 1693
   3.507487 2  369             Rx   d 8 3F 00 00 D0 FF 00 00 00  Length = 1189426 BitCount = 123 ID = 873
   3.508727 2  470             Rx   d 8 40 00 00 00 00 00 00 17  Length = 1199441 BitCount = 124 ID = 1136
   3.509477 2  635             Rx   d 3 00 00 1B  Length = 709438 BitCount = 75 ID = 1589
   3.510686 2  66C             Rx   d 8 C0 03 01 08 00 38 03 FF  Length = 1169426 BitCount = 121 ID = 1644
   3.517656 2  381             Rx   d 6 00 00 00 00 00 00  Length = 1029430 BitCount = 107 ID = 897
   3.518486 2  531             Rx   d 4 00 20 90 B0  Length = 779438 BitCount = 82 ID = 1329
   3.527476 2  397             Rx   d 8 00 00 00 00 00 00 00 00  Length = 1199426 BitCount = 124 ID = 919
   3.528715 2  4B9             Rx   d 6 00 00 00 00 00 00  Length = 1009430 BitCount = 105 ID = 1209
   3.533765 2  3E1             Rx   d 8 00 00 00 00 00 00 84 78  Length = 1199426 BitCount = 124 ID = 993
   3.535015 2  40C             Rx   d 8 16 01 01 04 00 04 00 00  Length = 1189426 BitCount = 123 ID = 1036
   3.537235 2  4BD             Rx   d 6 00 00 00 00 00 00  Length = 999430 BitCount = 104 ID = 1213
   3.538445 2  658             Rx   d 8 78 28 00 09 00 9A 00 00  Length = 1169426 BitCount = 121 ID = 1624
   3.540226 2  66C             Rx   d 8 C1 BC 00 00 00 00 0A 1E  Length = 1159426 BitCount = 120 ID = 1644
   3.547285 2  3B5             Rx   d 6 00 00 00 00 00 00  Length = 1029430 BitCount = 107 ID = 949
   3.548465 2  527             Rx   d 8 10 01 00 10 71 70 6F 08  Length = 1139430 BitCount = 118 ID = 1319
   3.549485 2  571             Rx   d 6 9A 1F 00 08 04 00  Length = 979430 BitCount = 102 ID = 1393
   3.557465 2  470             Rx   d 8 40 00 00 00 00 00 00 17  Length = 1199426 BitCount = 124 ID = 1136
   3.564964 2  65F             Rx   d 8 00 AA 8C 8E C0 00 00 00  Length = 1119430 BitCount = 116 ID = 1631
   3.566154 2  621             Rx   d 8 00 01 37 00 00 3C 1B 00  Length = 1149426 BitCount = 119 ID = 1569
   3.567324 2  2C1             Rx   d 6 00 00 00 00 02 00  Length = 1009430 BitCount = 105 ID = 705
   3.568174 2  531             Rx   d 4 00 20 A0 80  Length = 799449 BitCount = 84 ID = 1329
   3.569324 2  651             Rx   d 8 80 02 50 AF 39 59 01 00  Length = 1109430 BitCount = 115 ID = 1617
   3.570544 2  66C             Rx   d 8 C2 00 00 00 00 00 02 00  Length = 1179426 BitCount = 122 ID = 1644
   3.577394 2  359             Rx   d 8 FF 89 FF 00 10 6B 80 00  Length = 1149441 BitCount = 119 ID = 857
   3.584024 2  436             Rx   d 8 00 01 01 04 00 00 02 00  Length = 1189441 BitCount = 123 ID = 1078
   3.587424 2  35B             Rx   d 8 0F 00 00 00 20 19 0C 00  Length = 1169426 BitCount = 121 ID = 859
   3.588164 2  457             Rx   d 3 00 47 00  Length = 699453 BitCount = 74 ID = 1111
   3.597423 2  320             Rx   d 8 00 00 00 01 00 01 00 80  Length = 1189426 BitCount = 123 ID = 800
   3.598283 2  575             Rx   d 4 00 00 00 00  Length = 819434 BitCount = 86 ID = 1397
   3.600203 2  66C             Rx   d 8 C3 00 00 00 00 00 00 06  Length = 1179426 BitCount = 122 ID = 1644
   3.607703 2  367             Rx   d 8 FF 00 00 00 7F F0 01 00  Length = 1179441 BitCount = 122 ID = 871
   3.608942 2  369             Rx   d 8 3F 00 00 D0 FF 00 00 00  Length = 1189426 BitCount = 123 ID = 873
   3.610182 2  470             Rx   d 8 40 00 00 00 00 00 00 17  Length = 1199426 BitCount = 124 ID = 1136
   3.617262 2  381             Rx   d 6 00 00 00 00 00 00  Length = 1029430 BitCount = 107 ID = 897
   3.618102 2  531             Rx   d 4 00 20 B0 90  Length = 789438 BitCount = 83 ID = 1329
   3.627471 2  397             Rx   d 8 00 00 00 00 00 00 00 00  Length = 1199426 BitCount = 124 ID = 919
   3.628521 2  4B9             Rx   d 6 00 00 00 00 00 00  Length = 1009430 BitCount = 105 ID = 1209
   3.629761 2  591             Rx   d 8 00 00 08 00 00 00 00 00  Length = 1199426 BitCount = 124 ID = 1425
   3.630591 2  653             Rx   d 4 81 01 41 01  Length = 789438 BitCount = 83 ID = 1619
   3.631841 2  400             Rx   d 8 0C 01 01 04 00 00 00 00  Length = 1209426 BitCount = 125 ID = 1024
   3.633081 2  66C             Rx   d 8 C4 00 00 00 00 00 00 00  Length = 1199426 BitCount = 124 ID = 1644
   3.634321 2  3E1             Rx   d 8 00 00 00 00 00 00 84 78  Length = 1199426 BitCount = 124 ID = 993
   3.635581 2  3E3             Rx   d 8 00 00 A1 00 00 00 00 00  Length = 1189441 BitCount = 123 ID = 995
   3.636741 2  5E1             Rx   d 7 80 00 00 00 00 00 00  Length = 1099430 BitCount = 114 ID = 1505
   3.637781 2  4BD             Rx   d 6 00 00 00 00 00 00  Length = 999430 BitCount = 104 ID = 1213
   3.638991 2  658             Rx   d 8 78 28 00 09 00 9A 00 00  Length = 1169426 BitCount = 121 ID = 1624
   3.647281 2  3B5             Rx   d 6 00 00 00 00 00 00  Length = 1029430 BitCount = 107 ID = 949
   3.647951 2  5D1             Rx   d 2 10 00  Length = 629442 BitCount = 67 ID = 1489
   3.657430 2  470             Rx   d 8 40 00 00 00 00 00 00 17  Length = 1199441 BitCount = 124 ID = 1136
   3.660240 2  66C             Rx   d 8 C5 00 02 00 00 00 16 00  Length = 1179426 BitCount = 122 ID = 1644
   3.665000 2  621             Rx   d 8 00 01 37 00 00 3C 1B 00  Length = 1149426 BitCount = 119 ID = 1569
   3.667290 2  2C1             Rx   d 6 00 00 00 00 02 00  Length = 1009445 BitCount = 105 ID = 705
   3.668140 2  531             Rx   d 4 00 20 C0 E0  Length = 799449 BitCount = 84 ID = 1329
   3.669290 2  651             Rx   d 8 80 02 50 AF 39 59 01 00  Length = 1109430 BitCount = 115 ID = 1617
   3.674070 2  40C             Rx   d 8 16 01 01 04 00 04 00 00  Length = 1189426 BitCount = 123 ID = 1036
   3.677400 2  359             Rx   d 8 FF 89 FF 00 10 6B 80 00  Length = 1149426 BitCount = 119 ID = 857
   3.687430 2  35B             Rx   d 8 0F 00 00 00 20 19 0C 00  Length = 1169426 BitCount = 121 ID = 859
   3.688170 2  457             Rx   d 3 00 47 00  Length = 699453 BitCount = 74 ID = 1111
   3.707458 2  369             Rx   d 8 3F 00 00 D0 FF 00 00 00  Length = 1189426 BitCount = 123 ID = 873
   3.708698 2  470             Rx   d 8 40 00 00 00 00 00 00 17  Length = 1199426 BitCount = 124 ID = 1136
   3.709448 2  635             Rx   d 3 00 00 1B  Length = 709453 BitCount = 75 ID = 1589
   3.717258 2  381             Rx   d 6 00 00 00 00 00 00  Length = 1029430 BitCount = 107 ID = 897
   3.718108 2  531             Rx   d 4 00 20 D0 F0  Length = 799438 BitCount = 84 ID = 1329
   3.724038 2  436             Rx   d 8 00 01 01 04 00 00 02 00  Length = 1189426 BitCount = 123 ID = 1078
   3.727458 2  397             Rx   d 8 00 00 00 00 00 00 00 00  Length = 1199426 BitCount = 124 ID = 919
   3.728508 2  4B9             Rx   d 6 00 00 00 00 00 00  Length = 1009430 BitCount = 105 ID = 1209
   3.729688 2  655             Rx   d 8 75 00 F0 03 18 00 80 C0  Length = 1139430 BitCount = 118 ID = 1621
   3.733788 2  3E1             Rx   d 8 00 00 00 00 00 00 84 78  Length = 1199441 BitCount = 124 ID = 993
   3.737228 2  4BD             Rx   d 6 00 00 00 00 00 00  Length = 999445 BitCount = 104 ID = 1213
   3.738438 2  658             Rx   d 8 78 28 00 09 00 9A 00 00  Length = 1169441 BitCount = 121 ID = 1624
   3.747277 2  3B5             Rx   d 6 00 00 00 00 00 00  Length = 1029445 BitCount = 107 ID = 949
   3.748457 2  527             Rx   d 8 10 01 00 10 71 70 6F 08  Length = 1139441 BitCount = 118 ID = 1319
   3.749447 2  6B4             Rx   d 6 DE 01 48 02 76 66  Length = 949445 BitCount = 99 ID = 1716
   3.757457 2  470             Rx   d 8 40 00 00 00 00 00 00 17  Length = 1199426 BitCount = 124 ID = 1136
   3.764986 2  65F             Rx   d 8 01 00 00 00 00 00 00 00  Length = 1129430 BitCount = 117 ID = 1631
   3.766176 2  621             Rx   d 8 00 01 37 00 00 3C 1B 00  Length = 1149426 BitCount = 119 ID = 1569
   3.767316 2  2C1             Rx   d 6 00 00 00 00 02 00  Length = 1009445 BitCount = 105 ID = 705
   3.768166 2  531             Rx   d 4 00 20 E0 C0  Length = 799438 BitCount = 84 ID = 1329
   3.769316 2  651             Rx   d 8 80 02 50 AF 39 59 01 00  Length = 1109430 BitCount = 115 ID = 1617
   3.770566 2  400             Rx   d 8 0C 01 01 04 00 00 00 00  Length = 1209426 BitCount = 125 ID = 1024
   3.777386 2  359             Rx   d 8 FF 89 FF 00 10 6B 80 00  Length = 1149426 BitCount = 119 ID = 857
   3.787595 2  35B             Rx   d 8 0F 00 00 00 20 19 0C 00  Length = 1169441 BitCount = 121 ID = 859
   3.788335 2  457             Rx   d 3 00 47 00  Length = 699453 BitCount = 74 ID = 1111
   3.797404 2  320             Rx   d 8 00 00 00 01 00 09 00 80  Length = 1189426 BitCount = 123 ID = 800
   3.798264 2  575             Rx   d 4 00 00 00 00  Length = 819434 BitCount = 86 ID = 1397
   3.799414 2  65D             Rx   d 8 81 F2 26 D0 F0 CB 18 0D  Length = 1109430 BitCount = 115 ID = 1629
   3.807434 2  367             Rx   d 8 FF 00 00 00 7F F0 01 00  Length = 1179426 BitCount = 122 ID = 871
   3.808674 2  369             Rx   d 8 3F 00 00 D0 FF 00 00 00  Length = 1189426 BitCount = 123 ID = 873
   3.809914 2  470             Rx   d 8 40 00 00 00 00 00 00 17  Length = 1199426 BitCount = 124 ID = 1136
   3.814084 2  40C             Rx   d 8 16 01 01 04 00 04 00 00  Length = 1189426 BitCount = 123 ID = 1036
   3.817254 2  381             Rx   d 6 00 00 00 00 00 00  Length = 1029430 BitCount = 107 ID = 897
   3.818114 2  531             Rx   d 4 00 20 F0 D0  Length = 809434 BitCount = 85 ID = 1329
   3.827443 2  397             Rx   d 8 00 00 00 00 00 00 00 00  Length = 1199426 BitCount = 124 ID = 919
   3.828493 2  4B9             Rx   d 6 00 00 00 00 00 00  Length = 1009430 BitCount = 105 ID = 1209
   3.829733 2  591             Rx   d 8 00 00 08 00 00 00 00 00  Length = 1199426 BitCount = 124 ID = 1425
   3.833743 2  3E1             Rx   d 8 00 00 00 00 00 00 84 78  Length = 1199426 BitCount = 124 ID = 993
   3.835013 2  3E9             Rx   d 8 00 00 00 00 00 00 00 00  Length = 1209426 BitCount = 125 ID = 1001
   3.836173 2  5E1             Rx   d 7 80 00 00 00 00 00 00  Length = 1099445 BitCount = 114 ID = 1505
   3.837443 2  5E8             Rx   d 8 00 40 00 00 00 00 40 00  Length = 1209426 BitCount = 125 ID = 1512
   3.838483 2  4BD             Rx   d 6 00 00 00 00 00 00  Length = 999430 BitCount = 104 ID = 1213
   3.839693 2  658             Rx   d 8 78 28 00 09 00 9A 00 00  Length = 1169426 BitCount = 121 ID = 1624
   3.847273 2  3B5             Rx   d 6 00 00 00 00 00 00  Length = 1029430 BitCount = 107 ID = 949
   3.847943 2  5D1             Rx   d 2 10 00  Length = 629442 BitCount = 67 ID = 1489
   3.857422 2  470             Rx   d 8 40 00 00 00 00 00 00 17  Length = 1199426 BitCount = 124 ID = 1136
   3.864032 2  436             Rx   d 8 00 01 01 04 00 00 02 00  Length = 1189426 BitCount = 123 ID = 1078
   3.865222 2  621             Rx   d 8 00 01 37 00 00 3C 1B 00  Length = 1149426 BitCount = 119 ID = 1569
   3.867292 2  2C1             Rx   d 6 00 00 00 00 02 00  Length = 1009430 BitCount = 105 ID = 705
   3.868152 2  531             Rx   d 4 00 20 00 20  Length = 809434 BitCount = 85 ID = 1329
   3.869302 2  651             Rx   d 8 80 02 50 AF 39 59 01 00  Length = 1109430 BitCount = 115 ID = 1617
   3.877421 2  359             Rx   d 8 FF 89 FF 00 10 6B 80 00  Length = 1149426 BitCount = 119 ID = 857
   3.887421 2  35B             Rx   d 8 0F 00 00 00 20 19 0C 00  Length = 1169426 BitCount = 121 ID = 859
   3.888161 2  457             Rx   d 3 00 47 00  Length = 699442 BitCount = 74 ID = 1111
   3.907460 2  369             Rx   d 8 3F 00 00 D0 FF 00 00 00  Length = 1189426 BitCount = 123 ID = 873
   3.908700 2  470             Rx   d 8 40 00 00 00 00 00 00 17  Length = 1199426 BitCount = 124 ID = 1136
   3.909450 2  635             Rx   d 3 00 00 1B  Length = 709438 BitCount = 75 ID = 1589
   3.910770 2  400             Rx   d 8 0C 01 01 04 00 00 00 00  Length = 1209426 BitCount = 125 ID = 1024
   3.913480 2  481             Rx   d 2 01 00  Length = 639442 BitCount = 68 ID = 1153
   3.914720 2  661             Rx   d 8 00 00 00 00 00 00 00 00  Length = 1199441 BitCount = 124 ID = 1633
   3.915390 2  60E             Rx   d 2 08 02  Length = 629442 BitCount = 67 ID = 1550
   3.916530 2  665             Rx   d 7 00 00 00 00 00 00 00  Length = 1099430 BitCount = 114 ID = 1637
   3.917600 2  381             Rx   d 6 00 00 00 00 00 00  Length = 1029430 BitCount = 107 ID = 897
   3.918279 2  666             Rx   d 2 00 00  Length = 639442 BitCount = 68 ID = 1638
   3.919120 2  531             Rx   d 4 00 20 10 30  Length = 799438 BitCount = 84 ID = 1329
   3.927439 2  397             Rx   d 8 00 00 00 00 00 00 00 00  Length = 1199441 BitCount = 124 ID = 919
   3.928489 2  4B9             Rx   d 6 00 00 00 00 00 00  Length = 1009430 BitCount = 105 ID = 1209
   3.929739 2  5F5             Rx   d 8 00 10 00 00 00 00 00 00  Length = 1209426 BitCount = 125 ID = 1525
   3.933669 2  3E1             Rx   d 8 00 00 00 00 00 00 84 78  Length = 1199426 BitCount = 124 ID = 993
   3.937229 2  4BD             Rx   d 6 00 00 00 00 00 00  Length = 999430 BitCount = 104 ID = 1213
   3.938439 2  658             Rx   d 8 78 28 00 09 00 9A 00 00  Length = 1169426 BitCount = 121 ID = 1624
   3.947269 2  3B5             Rx   d 6 00 00 00 00 00 00  Length = 1029430 BitCount = 107 ID = 949
   3.948448 2  527             Rx   d 8 10 01 00 10 71 70 6F 08  Length = 1139430 BitCount = 118 ID = 1319
   3.954079 2  40C             Rx   d 8 16 01 01 04 00 04 00 00  Length = 1189426 BitCount = 123 ID = 1036
   3.957438 2  470             Rx   d 8 40 00 00 00 00 00 00 17  Length = 1199426 BitCount = 124 ID = 1136
   3.958688 2  64F             Rx   d 8 3F 00 00 00 00 00 00 00  Length = 1209426 BitCount = 125 ID = 1615
   3.964938 2  65F             Rx   d 8 02 00 00 00 00 00 00 00  Length = 1119430 BitCount = 116 ID = 1631
   3.966128 2  621             Rx   d 8 00 01 37 00 00 3C 1B 00  Length = 1149426 BitCount = 119 ID = 1569
   3.967298 2  2C1             Rx   d 6 00 00 00 00 02 00  Length = 1009430 BitCount = 105 ID = 705
   3.968148 2  531             Rx   d 4 00 20 20 00  Length = 799438 BitCount = 84 ID = 1329
   3.969298 2  651             Rx   d 8 80 02 50 AF 39 59 01 00  Length = 1109445 BitCount = 115 ID = 1617
   3.977377 2  359             Rx   d 8 FF 89 FF 00 10 6B 80 00  Length = 1149426 BitCount = 119 ID = 857
   3.987397 2  35B             Rx   d 8 0F 00 00 00 20 19 0C 00  Length = 1169426 BitCount = 121 ID = 859
   3.988137 2  457             Rx   d 3 00 47 00  Length = 699442 BitCount = 74 ID = 1111
   3.997396 2  320             Rx   d 8 00 00 00 01 00 01 00 80  Length = 1189426 BitCount = 123 ID = 800
   3.998256 2  575             Rx   d 4 00 00 00 00  Length = 819434 BitCount = 86 ID = 1397
   4.004036 2  436             Rx   d 8 00 01 01 04 00 00 02 00  Length = 1189426 BitCount = 123 ID = 1078
   4.007436 2  367             Rx   d 8 FF 00 00 00 7F F0 01 00  Length = 1179426 BitCount = 122 ID = 871
   4.008676 2  369             Rx   d 8 3F 00 00 D0 FF 00 00 00  Length = 1189426 BitCount = 123 ID = 873
   4.009916 2  470             Rx   d 8 40 00 00 00 00 00 00 17  Length = 1199426 BitCount = 124 ID = 1136
   4.010576 2  69D             Rx   d 2 14 42  Length = 619442 BitCount = 66 ID = 1693
   4.015106 2  629             Rx   d 8 FF 0F FF 7F F2 26 40 00  Length = 1139441 BitCount = 118 ID = 1577
   4.017236 2  381             Rx   d 6 00 00 00 00 00 00  Length = 1029445 BitCount = 107 ID = 897
   4.018076 2  531             Rx   d 4 00 20 30 10  Length = 789438 BitCount = 83 ID = 1329
   4.019625 2  67A             Rx   d 2 17 42  Length = 599461 BitCount = 64 ID = 1658
   4.027445 2  397             Rx   d 8 00 00 00 00 00 00 00 00  Length = 1199441 BitCount = 124 ID = 919
   4.028495 2  4B9             Rx   d 6 00 00 00 00 00 00  Length = 1009430 BitCount = 105 ID = 1209
   4.029735 2  591             Rx   d 8 00 00 08 00 00 00 00 00  Length = 1199441 BitCount = 124 ID = 1425
   4.033885 2  3E1             Rx   d 8 00 00 00 00 00 00 84 78  Length = 1199441 BitCount = 124 ID = 993
   4.035045 2  5E1             Rx   d 7 80 00 00 00 00 00 00  Length = 1099430 BitCount = 114 ID = 1505
   4.037205 2  4BD             Rx   d 6 00 00 00 00 00 00  Length = 999430 BitCount = 104 ID = 1213
   4.038405 2  658             Rx   d 8 78 28 00 09 00 99 00 00  Length = 1159426 BitCount = 120 ID = 1624
   4.039985 2  62B             Rx   d 8 00 10 00 40 57 00 FE 7F  Length = 1149426 BitCount = 119 ID = 1579
   4.044359 CAN 1 Status:chip status error active
   4.044359 CAN 2 Status:chip status error active  - TxErr: 55 RxErr: 0
   4.047254 2  3B5             Rx   d 6 00 00 00 00 00 00  Length = 1029430 BitCount = 107 ID = 949
   4.048274 2  571             Rx   d 6 99 1F 00 08 04 00  Length = 979430 BitCount = 102 ID = 1393
   4.048944 2  5D1             Rx   d 2 10 00  Length = 629442 BitCount = 67 ID = 1489
   4.050194 2  400             Rx   d 8 0C 01 01 04 00 00 00 00  Length = 1209426 BitCount = 125 ID = 1024
   4.057414 2  470             Rx   d 8 40 00 00 00 00 00 00 17  Length = 1199426 BitCount = 124 ID = 1136
   4.064963 2  621             Rx   d 8 00 01 37 00 00 3C 1B 00  Length = 1149441 BitCount = 119 ID = 1569
   4.066123 2  62D             Rx   d 8 00 10 EE 40 EB 02 13 40  Length = 1119430 BitCount = 116 ID = 1581
   4.067293 2  2C1             Rx   d 6 00 00 00 00 02 00  Length = 1009430 BitCount = 105 ID = 705
   4.068153 2  531             Rx   d 4 00 20 40 60  Length = 809434 BitCount = 85 ID = 1329
   4.069313 2  651             Rx   d 8 80 02 50 AF 39 59 01 00  Length = 1109445 BitCount = 115 ID = 1617
   4.077373 2  359             Rx   d 8 FF 89 FF 00 10 6B 80 00  Length = 1149426 BitCount = 119 ID = 857
   4.087412 2  35B             Rx   d 8 0F 00 00 00 20 19 0C 00  Length = 1169426 BitCount = 121 ID = 859
   4.088152 2  457             Rx   d 3 00 47 00  Length = 699442 BitCount = 74 ID = 1111
   4.089672 2  69D             Rx   d 2 19 42  Length = 609446 BitCount = 65 ID = 1693
   4.093882 2  40C             Rx   d 8 16 01 01 04 00 04 00 00  Length = 1189426 BitCount = 123 ID = 1036
   4.107451 2  369             Rx   d 8 3F 00 00 D0 FF 00 00 00  Length = 1189441 BitCount = 123 ID = 873
   4.108691 2  470             Rx   d 8 40 00 00 00 00 00 00 17  Length = 1199426 BitCount = 124 ID = 1136
   4.109441 2  635             Rx   d 3 00 00 1B  Length = 709438 BitCount = 75 ID = 1589
   4.117231 2  381             Rx   d 6 00 00 00 00 00 00  Length = 1029430 BitCount = 107 ID = 897
   4.118090 2  531             Rx   d 4 00 20 50 70  Length = 809434 BitCount = 85 ID = 1329
   4.127440 2  397             Rx   d 8 00 00 00 00 00 00 00 00  Length = 1199426 BitCount = 124 ID = 919
   4.128490 2  4B9             Rx   d 6 00 00 00 00 00 00  Length = 1009445 BitCount = 105 ID = 1209
   4.129320 2  653             Rx   d 4 81 01 41 01  Length = 789438 BitCount = 83 ID = 1619
   4.133880 2  3E1             Rx   d 8 00 00 00 00 00 00 84 78  Length = 1199426 BitCount = 124 ID = 993
   4.137220 2  4BD             Rx   d 6 00 00 00 00 00 00  Length = 999430 BitCount = 104 ID = 1213
   4.138420 2  658             Rx   d 8 78 28 00 09 00 99 00 00  Length = 1159426 BitCount = 120 ID = 1624
   4.139970 2  52D             Rx   d 8 FE 7F FF 0F FF 0F FF 0F  Length = 1169426 BitCount = 121 ID = 1325
   4.144040 2  436             Rx   d 8 00 01 01 04 00 00 02 00  Length = 1189426 BitCount = 123 ID = 1078
   4.147259 2  3B5             Rx   d 6 00 00 00 00 00 00  Length = 1029430 BitCount = 107 ID = 949
   4.148439 2  527             Rx   d 8 10 01 00 10 71 70 6F 08  Length = 1139430 BitCount = 118 ID = 1319
   4.157429 2  470             Rx   d 8 40 00 00 00 00 00 00 17  Length = 1199426 BitCount = 124 ID = 1136
   4.164968 2  52F             Rx   d 8 00 00 FE 1F FE 1F FE 1F  Length = 1169441 BitCount = 121 ID = 1327
   4.166128 2  65F             Rx   d 8 00 AA 8C 8E C0 00 00 00  Length = 1119430 BitCount = 116 ID = 1631
   4.167318 2  621             Rx   d 8 00 01 37 00 00 3C 1B 00  Length = 1149426 BitCount = 119 ID = 1569
   4.168368 2  2C1             Rx   d 6 00 00 00 00 02 00  Length = 1009430 BitCount = 105 ID = 705
   4.169218 2  531             Rx   d 4 00 20 60 40  Length = 799438 BitCount = 84 ID = 1329
   4.170368 2  651             Rx   d 8 80 02 50 AF 39 59 01 00  Length = 1109430 BitCount = 115 ID = 1617
   4.177368 2  359             Rx   d 8 FF 89 FF 00 10 6B 80 00  Length = 1149426 BitCount = 119 ID = 857
   4.187387 2  35B             Rx   d 8 0F 00 00 00 20 19 0C 00  Length = 1169441 BitCount = 121 ID = 859
   4.188127 2  457             Rx   d 3 00 47 00  Length = 699442 BitCount = 74 ID = 1111
   4.189377 2  400             Rx   d 8 0C 01 01 04 00 00 00 00  Length = 1209426 BitCount = 125 ID = 1024
   4.190587 2  532             Rx   d 8 00 00 8D 10 34 10 25 10  Length = 1129441 BitCount = 117 ID = 1330
   4.197387 2  320             Rx   d 8 00 00 00 01 00 09 00 80  Length = 1189441 BitCount = 123 ID = 800
   4.198247 2  575             Rx   d 4 00 00 00 00  Length = 819434 BitCount = 86 ID = 1397
   4.207426 2  367             Rx   d 8 FF 00 00 00 7F F0 01 00  Length = 1179441 BitCount = 122 ID = 871
   4.208666 2  369             Rx   d 8 3F 00 00 D0 FF 00 00 00  Length = 1189426 BitCount = 123 ID = 873
   4.209906 2  470             Rx   d 8 40 00 00 00 00 00 00 17  Length = 1199426 BitCount = 124 ID = 1136
   4.217225 2  381             Rx   d 6 00 00 00 00 00 00  Length = 1029430 BitCount = 107 ID = 897
   4.218075 2  531             Rx   d 4 00 20 70 50  Length = 799438 BitCount = 84 ID = 1329
   4.227435 2  397             Rx   d 8 00 00 00 00 00 00 00 00  Length = 1199426 BitCount = 124 ID = 919
   4.228485 2  4B9             Rx   d 6 00 00 00 00 00 00  Length = 1009430 BitCount = 105 ID = 1209
   4.229725 2  591             Rx   d 8 00 00 08 00 00 00 00 00  Length = 1199426 BitCount = 124 ID = 1425
   4.230905 2  655             Rx   d 8 75 00 F0 03 18 00 80 C0  Length = 1139441 BitCount = 118 ID = 1621
   4.233925 2  3E1             Rx   d 8 00 00 00 00 00 00 84 78  Length = 1199426 BitCount = 124 ID = 993
   4.235175 2  40C             Rx   d 8 16 01 01 04 00 04 00 00  Length = 1189426 BitCount = 123 ID = 1036
   4.236335 2  5E1             Rx   d 7 80 00 00 00 00 00 00  Length = 1099430 BitCount = 114 ID = 1505
   4.237375 2  4BD             Rx   d 6 00 00 00 00 00 00  Length = 999430 BitCount = 104 ID = 1213
   4.238575 2  658             Rx   d 8 78 28 00 09 00 99 00 00  Length = 1159426 BitCount = 120 ID = 1624
   4.247244 2  3B5             Rx   d 6 00 00 00 00 00 00  Length = 1029430 BitCount = 107 ID = 949
   4.247914 2  5D1             Rx   d 2 10 00  Length = 629442 BitCount = 67 ID = 1489
   4.248904 2  6B4             Rx   d 6 DE 01 48 02 76 66  Length = 949430 BitCount = 99 ID = 1716
   4.257404 2  470             Rx   d 8 40 00 00 00 00 00 00 17  Length = 1199426 BitCount = 124 ID = 1136
   4.264953 2  621             Rx   d 8 00 01 37 00 00 3C 1B 00  Length = 1149426 BitCount = 119 ID = 1569
   4.267263 2  2C1             Rx   d 6 00 00 00 00 02 00  Length = 1009430 BitCount = 105 ID = 705
   4.268113 2  531             Rx   d 4 00 20 80 A0  Length = 799438 BitCount = 84 ID = 1329
   4.269263 2  651             Rx   d 8 80 02 50 AF 39 59 01 00  Length = 1109430 BitCount = 115 ID = 1617
   4.277373 2  359             Rx   d 8 FF 89 FF 00 10 6B 80 00  Length = 1149441 BitCount = 119 ID = 857
   4.284042 2  436             Rx   d 8 00 01 01 04 00 00 02 00  Length = 1189426 BitCount = 123 ID = 1078
   4.287402 2  35B             Rx   d 8 0F 00 00 00 20 19 0C 00  Length = 1169441 BitCount = 121 ID = 859
   4.288142 2  457             Rx   d 3 00 47 00  Length = 699442 BitCount = 74 ID = 1111
   4.307431 2  369             Rx   d 8 3F 00 00 D0 FF 00 00 00  Length = 1189426 BitCount = 123 ID = 873
   4.308671 2  470             Rx   d 8 40 00 00 00 00 00 00 17  Length = 1199441 BitCount = 124 ID = 1136
   4.309421 2  635             Rx   d 3 00 00 1B  Length = 709438 BitCount = 75 ID = 1589
   4.317230 2  381             Rx   d 6 00 00 00 00 00 00  Length = 1029430 BitCount = 107 ID = 897
   4.318060 2  531             Rx   d 4 00 20 90 B0  Length = 779438 BitCount = 82 ID = 1329
   4.327430 2  397             Rx   d 8 00 00 00 00 00 00 00 00  Length = 1199426 BitCount = 124 ID = 919
   4.328480 2  4B9             Rx   d 6 00 00 00 00 00 00  Length = 1009430 BitCount = 105 ID = 1209
   4.329730 2  400             Rx   d 8 0C 01 01 04 00 00 00 00  Length = 1209426 BitCount = 125 ID = 1024
   4.333880 2  3E1             Rx   d 8 00 00 00 00 00 00 84 78  Length = 1199441 BitCount = 124 ID = 993
   4.335150 2  3E9             Rx   d 8 00 00 00 00 00 00 00 00  Length = 1209441 BitCount = 125 ID = 1001
   4.336420 2  5E8             Rx   d 8 00 40 00 00 00 00 40 00  Length = 1209426 BitCount = 125 ID = 1512
   4.337630 2  4BD             Rx   d 6 00 00 00 00 00 00  Length = 999430 BitCount = 104 ID = 1213
   4.338830 2  658             Rx   d 8 78 28 00 09 00 99 00 00  Length = 1159441 BitCount = 120 ID = 1624
   4.347239 2  3B5             Rx   d 6 00 00 00 00 00 00  Length = 1029430 BitCount = 107 ID = 949
   4.348419 2  527             Rx   d 8 10 01 00 10 71 70 6F 08  Length = 1139430 BitCount = 118 ID = 1319
   4.357409 2  470             Rx   d 8 40 00 00 00 00 00 00 17  Length = 1199426 BitCount = 124 ID = 1136
   4.364908 2  65F             Rx   d 8 01 00 00 00 00 00 00 00  Length = 1129430 BitCount = 117 ID = 1631
   4.366098 2  621             Rx   d 8 00 01 37 00 00 3C 1B 00  Length = 1149426 BitCount = 119 ID = 1569
   4.367278 2  2C1             Rx   d 6 00 00 00 00 02 00  Length = 1009430 BitCount = 105 ID = 705
   4.368128 2  531             Rx   d 4 00 20 A0 80  Length = 799449 BitCount = 84 ID = 1329
   4.369278 2  651             Rx   d 8 80 02 50 AF 39 59 01 00  Length = 1109430 BitCount = 115 ID = 1617
   4.374048 2  40C             Rx   d 8 16 01 01 04 00 04 00 00  Length = 1189426 BitCount = 123 ID = 1036
   4.377338 2  359             Rx   d 8 FF 89 FF 00 10 6B 80 00  Length = 1149441 BitCount = 119 ID = 857
   4.387377 2  35B             Rx   d 8 0F 00 00 00 20 19 0C 00  Length = 1169426 BitCount = 121 ID = 859
   4.388117 2  457             Rx   d 3 00 47 00  Length = 699453 BitCount = 74 ID = 1111
   4.397377 2  320             Rx   d 8 00 00 00 01 00 01 00 80  Length = 1189426 BitCount = 123 ID = 800
   4.398237 2  575             Rx   d 4 00 00 00 00  Length = 819449 BitCount = 86 ID = 1397
   4.407406 2  367             Rx   d 8 FF 00 00 00 7F F0 01 00  Length = 1179426 BitCount = 122 ID = 871
   4.408646 2  369             Rx   d 8 3F 00 00 D0 FF 00 00 00  Length = 1189441 BitCount = 123 ID = 873
   4.409886 2  470             Rx   d 8 40 00 00 00 00 00 00 17  Length = 1199426 BitCount = 124 ID = 1136
   4.417216 2  381             Rx   d 6 00 00 00 00 00 00  Length = 1029430 BitCount = 107 ID = 897
   4.418056 2  531             Rx   d 4 00 20 B0 90  Length = 789438 BitCount = 83 ID = 1329
   4.424046 2  436             Rx   d 8 00 01 01 04 00 00 02 00  Length = 1189426 BitCount = 123 ID = 1078
   4.427656 2  397             Rx   d 8 00 00 00 00 00 00 00 00  Length = 1199426 BitCount = 124 ID = 919
   4.428706 2  4B9             Rx   d 6 00 00 00 00 00 00  Length = 1009430 BitCount = 105 ID = 1209
   4.429946 2  591             Rx   d 8 00 00 08 00 00 00 00 00  Length = 1199441 BitCount = 124 ID = 1425
   4.431196 2  5F5             Rx   d 8 00 10 00 00 00 00 00 00  Length = 1209426 BitCount = 125 ID = 1525
   4.433636 2  3E1             Rx   d 8 00 00 FF 00 00 00 84 78  Length = 1179426 BitCount = 122 ID = 993
   4.434886 2  3E3             Rx   d 8 00 00 A1 00 00 00 00 00  Length = 1189426 BitCount = 123 ID = 995
   4.436046 2  5E1             Rx   d 7 80 00 00 00 00 00 00  Length = 1099445 BitCount = 114 ID = 1505
   4.437216 2  4BD             Rx   d 6 00 00 00 00 00 00  Length = 999430 BitCount = 104 ID = 1213
   4.438416 2  658             Rx   d 8 78 28 00 09 00 99 00 00  Length = 1159426 BitCount = 120 ID = 1624
   4.447235 2  3B5             Rx   d 6 00 00 00 00 00 00  Length = 1029430 BitCount = 107 ID = 949
   4.447905 2  5D1             Rx   d 2 10 00  Length = 629442 BitCount = 67 ID = 1489
   4.457385 2  470             Rx   d 8 40 00 00 00 00 00 00 17  Length = 1199441 BitCount = 124 ID = 1136
   4.458634 2  64F             Rx   d 8 3F 00 00 00 00 00 00 00  Length = 1209426 BitCount = 125 ID = 1615
   4.464934 2  621             Rx   d 8 00 01 37 00 00 3C 1B 00  Length = 1149426 BitCount = 119 ID = 1569
   4.467254 2  2C1             Rx   d 6 00 00 00 00 02 00  Length = 1009445 BitCount = 105 ID = 705
   4.468104 2  531             Rx   d 4 00 20 C0 E0  Length = 799449 BitCount = 84 ID = 1329
   4.469254 2  651             Rx   d 8 80 02 50 AF 39 59 01 00  Length = 1109430 BitCount = 115 ID = 1617
   4.470504 2  400             Rx   d 8 0C 01 01 04 00 00 00 00  Length = 1209426 BitCount = 125 ID = 1024
   4.477363 2  359             Rx   d 8 FF 89 FF 00 10 6B 80 00  Length = 1149426 BitCount = 119 ID = 857
   4.480213 2  66C             Rx   d 8 3C 42 03 00 31 00 03 01  Length = 1159426 BitCount = 120 ID = 1644
   4.487383 2  35B             Rx   d 8 0F 00 00 00 20 19 0C 00  Length = 1169426 BitCount = 121 ID = 859
   4.488123 2  457             Rx   d 3 00 47 00  Length = 699453 BitCount = 74 ID = 1111
   4.507412 2  369             Rx   d 8 3F 00 00 D0 FF 00 00 00  Length = 1189426 BitCount = 123 ID = 873
   4.508652 2  470             Rx   d 8 40 00 00 00 00 00 00 17  Length = 1199426 BitCount = 124 ID = 1136
   4.509402 2  635             Rx   d 3 00 00 1B  Length = 709453 BitCount = 75 ID = 1589
   4.513592 2  40C             Rx   d 8 16 01 01 04 00 04 00 00  Length = 1189426 BitCount = 123 ID = 1036
   4.517442 2  381             Rx   d 6 00 00 00 00 00 00  Length = 1029430 BitCount = 107 ID = 897
   4.518292 2  531             Rx   d 4 00 20 D0 F0  Length = 799438 BitCount = 84 ID = 1329
   4.527401 2  397             Rx   d 8 00 00 00 00 00 00 00 00  Length = 1199426 BitCount = 124 ID = 919
   4.528451 2  4B9             Rx   d 6 00 00 00 00 00 00  Length = 1009430 BitCount = 105 ID = 1209
   4.533671 2  3E1             Rx   d 8 00 00 FF 00 00 00 84 78  Length = 1179426 BitCount = 122 ID = 993
   4.537191 2  4BD             Rx   d 6 00 00 00 00 00 00  Length = 999430 BitCount = 104 ID = 1213
   4.538391 2  658             Rx   d 8 78 28 00 09 00 99 00 00  Length = 1159441 BitCount = 120 ID = 1624
   4.547231 2  3B5             Rx   d 6 00 00 00 00 00 00  Length = 1029445 BitCount = 107 ID = 949
   4.548410 2  527             Rx   d 8 10 01 00 10 71 70 6F 08  Length = 1139441 BitCount = 118 ID = 1319
   4.549430 2  571             Rx   d 6 99 1F 00 08 04 00  Length = 979430 BitCount = 102 ID = 1393
   4.557390 2  470             Rx   d 8 40 00 00 00 00 00 00 17  Length = 1199441 BitCount = 124 ID = 1136
   4.564040 2  436             Rx   d 8 00 01 01 04 00 00 02 00  Length = 1189441 BitCount = 123 ID = 1078
   4.565200 2  65F             Rx   d 8 02 00 00 00 00 00 00 00  Length = 1119430 BitCount = 116 ID = 1631
   4.566390 2  621             Rx   d 8 00 01 37 00 00 3C 1B 00  Length = 1149426 BitCount = 119 ID = 1569
   4.567440 2  2C1             Rx   d 6 00 00 00 00 02 00  Length = 1009430 BitCount = 105 ID = 705
   4.568290 2  531             Rx   d 4 00 20 E0 C0  Length = 799438 BitCount = 84 ID = 1329
   4.569440 2  651             Rx   d 8 80 02 50 AF 39 59 01 00  Length = 1109430 BitCount = 115 ID = 1617
   4.577329 2  359             Rx   d 8 FF 89 FF 00 10 6B 80 00  Length = 1149426 BitCount = 119 ID = 857
   4.587369 2  35B             Rx   d 8 0F 00 00 00 20 19 0C 00  Length = 1169426 BitCount = 121 ID = 859
   4.588109 2  457             Rx   d 3 00 47 00  Length = 699442 BitCount = 74 ID = 1111
   4.597368 2  320             Rx   d 8 00 00 00 01 00 09 00 80  Length = 1189426 BitCount = 123 ID = 800
   4.598228 2  575             Rx   d 4 00 00 00 00  Length = 819434 BitCount = 86 ID = 1397
   4.607578 2  367             Rx   d 8 FF 00 00 00 7F F0 01 00  Length = 1179426 BitCount = 122 ID = 871
   4.608818 2  369             Rx   d 8 3F 00 00 D0 FF 00 00 00  Length = 1189441 BitCount = 123 ID = 873
   4.610058 2  470             Rx   d 8 40 00 00 00 00 00 00 17  Length = 1199426 BitCount = 124 ID = 1136
   4.611307 2  400             Rx   d 8 0C 01 01 04 00 00 00 00  Length = 1209426 BitCount = 125 ID = 1024
   4.611968 2  69D             Rx   d 2 14 42  Length = 619457 BitCount = 66 ID = 1693
   4.617207 2  381             Rx   d 6 00 00 00 00 00 00  Length = 1029430 BitCount = 107 ID = 897
   4.618067 2  531             Rx   d 4 00 20 F0 D0  Length = 809434 BitCount = 85 ID = 1329
   4.619647 2  67A             Rx   d 2 17 42  Length = 599446 BitCount = 64 ID = 1658
   4.627407 2  397             Rx   d 8 00 00 00 00 00 00 00 00  Length = 1199426 BitCount = 124 ID = 919
   4.628456 2  4B9             Rx   d 6 00 00 00 00 00 00  Length = 1009430 BitCount = 105 ID = 1209
   4.629696 2  591             Rx   d 8 00 00 08 00 00 00 00 00  Length = 1199426 BitCount = 124 ID = 1425
   4.630526 2  653             Rx   d 4 81 01 41 01  Length = 789438 BitCount = 83 ID = 1619
   4.633747 2  3E1             Rx   d 8 00 00 FF 00 00 00 84 78  Length = 1179426 BitCount = 122 ID = 993
   4.634907 2  5E1             Rx   d 7 80 00 00 00 00 00 00  Length = 1099445 BitCount = 114 ID = 1505
   4.637176 2  4BD             Rx   d 6 00 00 00 00 00 00  Length = 999445 BitCount = 104 ID = 1213
   4.638376 2  658             Rx   d 8 78 28 00 09 00 99 00 00  Length = 1159441 BitCount = 120 ID = 1624
   4.647226 2  3B5             Rx   d 6 00 00 00 00 00 00  Length = 1029445 BitCount = 107 ID = 949
   4.647896 2  5D1             Rx   d 2 10 00  Length = 629457 BitCount = 67 ID = 1489
   4.653806 2  40C             Rx   d 8 16 01 01 04 00 04 00 00  Length = 1189426 BitCount = 123 ID = 1036
   4.657376 2  470             Rx   d 8 40 00 00 00 00 00 00 17  Length = 1199441 BitCount = 124 ID = 1136
   4.664915 2  621             Rx   d 8 00 01 37 00 00 3C 1B 00  Length = 1149426 BitCount = 119 ID = 1569
   4.667235 2  2C1             Rx   d 6 00 00 00 00 02 00  Length = 1009430 BitCount = 105 ID = 705
   4.668095 2  531             Rx   d 4 00 20 00 20  Length = 809434 BitCount = 85 ID = 1329
   4.669245 2  651             Rx   d 8 80 02 50 AF 39 59 01 00  Length = 1109430 BitCount = 115 ID = 1617
   4.677345 2  359             Rx   d 8 FF 89 FF 00 10 6B 80 00  Length = 1149426 BitCount = 119 ID = 857
   4.687374 2  35B             Rx   d 8 0F 00 00 00 20 19 0C 00  Length = 1169426 BitCount = 121 ID = 859
   4.688114 2  457             Rx   d 3 00 47 00  Length = 699442 BitCount = 74 ID = 1111
   4.689674 2  69D             Rx   d 2 19 42  Length = 609457 BitCount = 65 ID = 1693
   4.704034 2  436             Rx   d 8 00 01 01 04 00 00 02 00  Length = 1189426 BitCount = 123 ID = 1078
   4.707424 2  369             Rx   d 8 3F 00 00 D0 FF 00 00 00  Length = 1189426 BitCount = 123 ID = 873
   4.708664 2  470             Rx   d 8 40 00 00 00 00 00 00 17  Length = 1199426 BitCount = 124 ID = 1136
   4.709414 2  635             Rx   d 3 00 00 1B  Length = 709438 BitCount = 75 ID = 1589
   4.717224 2  381             Rx   d 6 00 00 00 00 00 00  Length = 1029430 BitCount = 107 ID = 897
   4.718073 2  531             Rx   d 4 00 20 10 30  Length = 799438 BitCount = 84 ID = 1329
   4.727393 2  397             Rx   d 8 00 00 00 00 00 00 00 00  Length = 1199426 BitCount = 124 ID = 919
   4.728443 2  4B9             Rx   d 6 00 00 00 00 00 00  Length = 1009430 BitCount = 105 ID = 1209
   4.729623 2  655             Rx   d 8 75 00 F0 03 18 00 80 C0  Length = 1139430 BitCount = 118 ID = 1621
   4.733793 2  3E1             Rx   d 8 00 00 FF 00 00 00 84 78  Length = 1179426 BitCount = 122 ID = 993
   4.737173 2  4BD             Rx   d 6 00 00 00 00 00 00  Length = 999445 BitCount = 104 ID = 1213
   4.738373 2  658             Rx   d 8 78 28 00 09 00 99 00 00  Length = 1159426 BitCount = 120 ID = 1624
   4.747222 2  3B5             Rx   d 6 00 00 00 00 00 00  Length = 1029445 BitCount = 107 ID = 949
   4.748402 2  527             Rx   d 8 10 01 00 10 71 70 6F 08  Length = 1139430 BitCount = 118 ID = 1319
   4.749392 2  6B4             Rx   d 6 DE 01 48 02 76 66  Length = 949445 BitCount = 99 ID = 1716
   4.750642 2  400             Rx   d 8 0C 01 01 04 00 00 00 00  Length = 1209426 BitCount = 125 ID = 1024
   4.757392 2  470             Rx   d 8 40 00 00 00 00 00 00 17  Length = 1199426 BitCount = 124 ID = 1136
   4.764861 2  65F             Rx   d 8 00 AA 8C 8E C0 00 00 00  Length = 1119430 BitCount = 116 ID = 1631
   4.766051 2  621             Rx   d 8 00 01 37 00 00 3C 1B 00  Length = 1149426 BitCount = 119 ID = 1569
   4.767251 2  2C1             Rx   d 6 00 00 00 00 02 00  Length = 1009430 BitCount = 105 ID = 705
   4.768101 2  531             Rx   d 4 00 20 20 00  Length = 799438 BitCount = 84 ID = 1329
   4.769251 2  651             Rx   d 8 80 02 50 AF 39 59 01 00  Length = 1109430 BitCount = 115 ID = 1617
   4.777311 2  359             Rx   d 8 FF 89 FF 00 10 6B 80 00  Length = 1149426 BitCount = 119 ID = 857
   4.787350 2  35B             Rx   d 8 0F 00 00 00 20 19 0C 00  Length = 1169426 BitCount = 121 ID = 859
   4.788090 2  457             Rx   d 3 00 47 00  Length = 699442 BitCount = 74 ID = 1111
   4.794060 2  40C             Rx   d 8 16 01 01 04 00 04 00 00  Length = 1189426 BitCount = 123 ID = 1036
   4.797350 2  320             Rx   d 8 00 00 00 01 00 01 00 80  Length = 1189426 BitCount = 123 ID = 800
   4.798209 2  575             Rx   d 4 00 00 00 00  Length = 819434 BitCount = 86 ID = 1397
   4.799349 2  65D             Rx   d 8 81 F2 26 D0 F0 CB 98 0D  Length = 1099445 BitCount = 114 ID = 1629
   4.807399 2  367             Rx   d 8 FF 00 00 00 7F F0 01 00  Length = 1179426 BitCount = 122 ID = 871
   4.808639 2  369             Rx   d 8 3F 00 00 D0 FF 00 00 00  Length = 1189426 BitCount = 123 ID = 873
   4.809879 2  470             Rx   d 8 40 00 00 00 00 00 00 17  Length = 1199426 BitCount = 124 ID = 1136
   4.817188 2  381             Rx   d 6 00 00 00 00 00 00  Length = 1029430 BitCount = 107 ID = 897
   4.818028 2  531             Rx   d 4 00 20 30 10  Length = 789449 BitCount = 83 ID = 1329
   4.827388 2  397             Rx   d 8 00 00 00 00 00 00 00 00  Length = 1199441 BitCount = 124 ID = 919
   4.828438 2  4B9             Rx   d 6 00 00 00 00 00 00  Length = 1009430 BitCount = 105 ID = 1209
   4.829678 2  591             Rx   d 8 00 00 08 00 00 00 00 00  Length = 1199426 BitCount = 124 ID = 1425
   4.833908 2  3E1             Rx   d 8 00 00 FF 00 00 00 84 78  Length = 1179441 BitCount = 122 ID = 993
   4.835178 2  3E9             Rx   d 8 00 00 00 00 00 00 00 00  Length = 1209441 BitCount = 125 ID = 1001
   4.836338 2  5E1             Rx   d 7 80 00 00 00 00 00 00  Length = 1099430 BitCount = 114 ID = 1505
   4.837378 2  4BD             Rx   d 6 00 00 00 00 00 00  Length = 999430 BitCount = 104 ID = 1213
   4.838628 2  5E8             Rx   d 8 00 40 00 00 00 00 40 00  Length = 1209426 BitCount = 125 ID = 1512
   4.839828 2  658             Rx   d 8 78 28 00 09 00 99 00 00  Length = 1159426 BitCount = 120 ID = 1624
   4.844038 2  436             Rx   d 8 00 01 01 04 00 00 02 00  Length = 1189426 BitCount = 123 ID = 1078
   4.847207 2  3B5             Rx   d 6 00 00 00 00 00 00  Length = 1029430 BitCount = 107 ID = 949
   4.847877 2  5D1             Rx   d 2 10 00  Length = 629442 BitCount = 67 ID = 1489
   4.857367 2  470             Rx   d 8 40 00 00 00 00 00 00 17  Length = 1199426 BitCount = 124 ID = 1136
   4.864896 2  621             Rx   d 8 00 01 37 00 00 3C 1B 00  Length = 1149426 BitCount = 119 ID = 1569
   4.867236 2  2C1             Rx   d 6 00 00 00 00 02 00  Length = 1009430 BitCount = 105 ID = 705
   4.868096 2  531             Rx   d 4 00 20 40 60  Length = 809434 BitCount = 85 ID = 1329
   4.869246 2  651             Rx   d 8 80 02 50 AF 39 59 01 00  Length = 1109430 BitCount = 115 ID = 1617
   4.877336 2  359             Rx   d 8 FF 89 FF 00 10 6B 80 00  Length = 1149426 BitCount = 119 ID = 857
   4.887365 2  35B             Rx   d 8 0F 00 00 00 20 19 0C 00  Length = 1169426 BitCount = 121 ID = 859
   4.888105 2  457             Rx   d 3 00 47 00  Length = 699442 BitCount = 74 ID = 1111
   4.889355 2  400             Rx   d 8 0C 01 01 04 00 00 00 00  Length = 1209441 BitCount = 125 ID = 1024
   4.907384 2  369             Rx   d 8 3F 00 00 D0 FF 00 00 00  Length = 1189426 BitCount = 123 ID = 873
   4.908624 2  470             Rx   d 8 40 00 00 00 00 00 00 17  Length = 1199426 BitCount = 124 ID = 1136
   4.909374 2  635             Rx   d 3 00 00 1B  Length = 709438 BitCount = 75 ID = 1589
   4.913484 2  481             Rx   d 2 01 00  Length = 639457 BitCount = 68 ID = 1153
   4.914153 2  60E             Rx   d 2 08 02  Length = 629442 BitCount = 67 ID = 1550
   4.915394 2  661             Rx   d 8 00 00 00 00 00 00 00 00  Length = 1199426 BitCount = 124 ID = 1633
   4.916534 2  665             Rx   d 7 00 00 00 00 00 00 00  Length = 1099430 BitCount = 114 ID = 1637
   4.917604 2  381             Rx   d 6 00 00 00 00 00 00  Length = 1029430 BitCount = 107 ID = 897
   4.918284 2  666             Rx   d 2 00 00  Length = 639442 BitCount = 68 ID = 1638
   4.919134 2  531             Rx   d 4 00 20 50 70  Length = 809449 BitCount = 85 ID = 1329
   4.927393 2  397             Rx   d 8 00 00 00 00 00 00 00 00  Length = 1199441 BitCount = 124 ID = 919
   4.928443 2  4B9             Rx   d 6 00 00 00 00 00 00  Length = 1009430 BitCount = 105 ID = 1209
   4.929693 2  5F5             Rx   d 8 00 10 00 00 00 00 00 00  Length = 1209441 BitCount = 125 ID = 1525
   4.933693 2  3E1             Rx   d 8 00 00 FF 00 00 00 84 78  Length = 1179426 BitCount = 122 ID = 993
   4.934943 2  40C             Rx   d 8 16 01 01 04 00 04 00 00  Length = 1189426 BitCount = 123 ID = 1036
   4.937153 2  4BD             Rx   d 6 00 00 00 00 00 00  Length = 999430 BitCount = 104 ID = 1213
   4.938353 2  658             Rx   d 8 78 28 00 09 00 99 00 00  Length = 1159426 BitCount = 120 ID = 1624
   4.947203 2  3B5             Rx   d 6 00 00 00 00 00 00  Length = 1029430 BitCount = 107 ID = 949
   4.948383 2  527             Rx   d 8 10 01 00 10 71 70 6F 08  Length = 1139430 BitCount = 118 ID = 1319
   4.957382 2  470             Rx   d 8 40 00 00 00 00 00 00 17  Length = 1199426 BitCount = 124 ID = 1136
   4.958632 2  64F             Rx   d 8 3F 00 00 00 00 00 00 00  Length = 1209426 BitCount = 125 ID = 1615
   4.964862 2  65F             Rx   d 8 01 00 00 00 00 00 00 00  Length = 1129430 BitCount = 117 ID = 1631
   4.966052 2  621             Rx   d 8 00 01 37 00 00 3C 1B 00  Length = 1149426 BitCount = 119 ID = 1569
   4.967242 2  2C1             Rx   d 6 00 00 00 00 02 00  Length = 1009430 BitCount = 105 ID = 705
   4.968091 2  531             Rx   d 4 00 20 60 40  Length = 799438 BitCount = 84 ID = 1329
   4.969241 2  651             Rx   d 8 80 02 50 AF 39 59 01 00  Length = 1109445 BitCount = 115 ID = 1617
   4.977321 2  359             Rx   d 8 FF 89 FF 00 10 6B 80 00  Length = 1149426 BitCount = 119 ID = 857
   4.984041 2  436             Rx   d 8 00 01 01 04 00 00 02 00  Length = 1189426 BitCount = 123 ID = 1078
   4.987341 2  35B             Rx   d 8 0F 00 00 00 20 19 0C 00  Length = 1169426 BitCount = 121 ID = 859
   4.988081 2  457             Rx   d 3 00 47 00  Length = 699442 BitCount = 74 ID = 1111
   4.997340 2  320             Rx   d 8 00 00 00 01 00 09 00 80  Length = 1189426 BitCount = 123 ID = 800
   4.998200 2  575             Rx   d 4 00 00 00 00  Length = 819434 BitCount = 86 ID = 1397
   5.007390 2  367             Rx   d 8 FF 00 00 00 7F F0 01 00  Length = 1179426 BitCount = 122 ID = 871
   5.008630 2  369             Rx   d 8 3F 00 00 D0 FF 00 00 00  Length = 1189426 BitCount = 123 ID = 873
   5.009870 2  470             Rx   d 8 40 00 00 00 00 00 00 17  Length = 1199426 BitCount = 124 ID = 1136
   5.015019 2  629             Rx   d 8 FF 0F FF 7F F2 26 40 00  Length = 1139430 BitCount = 118 ID = 1577
   5.017179 2  381             Rx   d 6 00 00 00 00 00 00  Length = 1029445 BitCount = 107 ID = 897
   5.018029 2  531             Rx   d 4 00 20 70 50  Length = 799438 BitCount = 84 ID = 1329
   5.027389 2  397             Rx   d 8 00 00 00 00 00 00 00 00  Length = 1199426 BitCount = 124 ID = 919
   5.028439 2  4B9             Rx   d 6 00 00 00 00 00 00  Length = 1009430 BitCount = 105 ID = 1209
   5.029679 2  591             Rx   d 8 00 00 08 00 00 00 00 00  Length = 1199441 BitCount = 124 ID = 1425
   5.030928 2  400             Rx   d 8 0C 01 01 04 00 00 00 00  Length = 1209426 BitCount = 125 ID = 1024
   5.033838 2  3E1             Rx   d 8 00 00 FF 00 00 00 84 78  Length = 1179426 BitCount = 122 ID = 993
   5.034998 2  5E1             Rx   d 7 80 00 00 00 00 00 00  Length = 1099430 BitCount = 114 ID = 1505
   5.037148 2  4BD             Rx   d 6 00 00 00 00 00 00  Length = 999430 BitCount = 104 ID = 1213
   5.038348 2  658             Rx   d 8 78 28 00 09 00 99 00 00  Length = 1159426 BitCount = 120 ID = 1624
   5.039898 2  62B             Rx   d 8 00 10 00 40 57 00 FE 7F  Length = 1149426 BitCount = 119 ID = 1579
   5.044359 CAN 1 Status:chip status error active
   5.044359 CAN 2 Status:chip status error active  - TxErr: 55 RxErr: 0
   5.047198 2  3B5             Rx   d 6 00 00 00 00 00 00  Length = 1029430 BitCount = 107 ID = 949
   5.048217 2  571             Rx   d 6 99 1F 00 08 04 00  Length = 979430 BitCount = 102 ID = 1393
   5.048887 2  5D1             Rx   d 2 10 00  Length = 629442 BitCount = 67 ID = 1489
   5.057357 2  470             Rx   d 8 40 00 00 00 00 00 00 17  Length = 1199426 BitCount = 124 ID = 1136
   5.064907 2  621             Rx   d 8 00 01 37 00 00 3C 1B 00  Length = 1149426 BitCount = 119 ID = 1569
   5.066067 2  62D             Rx   d 8 00 10 EE 40 EB 02 13 40  Length = 1119430 BitCount = 116 ID = 1581
   5.067216 2  2C1             Rx   d 6 00 00 00 00 02 00  Length = 1009430 BitCount = 105 ID = 705
   5.068066 2  531             Rx   d 4 00 20 80 A0  Length = 799438 BitCount = 84 ID = 1329
   5.069216 2  651             Rx   d 8 80 02 50 AF 39 59 01 00  Length = 1109445 BitCount = 115 ID = 1617
   5.073817 2  40C             Rx   d 8 16 01 01 04 00 04 00 00  Length = 1189426 BitCount = 123 ID = 1036
   5.077316 2  359             Rx   d 8 FF 89 FF 00 10 6B 80 00  Length = 1149426 BitCount = 119 ID = 857
   5.087356 2  35B             Rx   d 8 0F 00 00 00 20 19 0C 00  Length = 1169426 BitCount = 121 ID = 859
   5.088096 2  457             Rx   d 3 00 47 00  Length = 699442 BitCount = 74 ID = 1111
   5.107395 2  369             Rx   d 8 3F 00 00 D0 FF 00 00 00  Length = 1189426 BitCount = 123 ID = 873
   5.108635 2  470             Rx   d 8 40 00 00 00 00 00 00 17  Length = 1199426 BitCount = 124 ID = 1136
   5.109385 2  635             Rx   d 3 00 00 1B  Length = 709438 BitCount = 75 ID = 1589
   5.117174 2  381             Rx   d 6 00 00 00 00 00 00  Length = 1029430 BitCount = 107 ID = 897
   5.118004 2  531             Rx   d 4 00 20 90 B0  Length = 779438 BitCount = 82 ID = 1329
   5.124034 2  436             Rx   d 8 00 01 01 04 00 00 02 00  Length = 1189441 BitCount = 123 ID = 1078
   5.127384 2  397             Rx   d 8 00 00 00 00 00 00 00 00  Length = 1199426 BitCount = 124 ID = 919
   5.128434 2  4B9             Rx   d 6 00 00 00 00 00 00  Length = 1009430 BitCount = 105 ID = 1209
   5.129263 2  653             Rx   d 4 81 01 41 01  Length = 789449 BitCount = 83 ID = 1619
   5.133963 2  3E1             Rx   d 8 00 00 FF 00 00 00 84 78  Length = 1179426 BitCount = 122 ID = 993
   5.137143 2  4BD             Rx   d 6 00 00 00 00 00 00  Length = 999430 BitCount = 104 ID = 1213
   5.138343 2  658             Rx   d 8 78 28 00 09 00 99 00 00  Length = 1159426 BitCount = 120 ID = 1624
   5.139893 2  52D             Rx   d 8 FE 7F FF 0F FF 0F FF 0F  Length = 1169426 BitCount = 121 ID = 1325
   5.147192 2  3B5             Rx   d 6 00 00 00 00 00 00  Length = 1029430 BitCount = 107 ID = 949
   5.148372 2  527             Rx   d 8 10 01 00 10 71 70 6F 08  Length = 1139430 BitCount = 118 ID = 1319
   5.157772 2  470             Rx   d 8 40 00 00 00 00 00 00 17  Length = 1199426 BitCount = 124 ID = 1136
   5.164891 2  52F             Rx   d 8 00 00 FE 1F FE 1F FE 1F  Length = 1169441 BitCount = 121 ID = 1327
   5.166051 2  65F             Rx   d 8 02 00 00 00 00 00 00 00  Length = 1119430 BitCount = 116 ID = 1631
   5.167241 2  621             Rx   d 8 00 01 37 00 00 3C 1B 00  Length = 1149426 BitCount = 119 ID = 1569
   5.168291 2  2C1             Rx   d 6 00 00 00 00 02 00  Length = 1009430 BitCount = 105 ID = 705
   5.169141 2  531             Rx   d 4 00 20 A0 80  Length = 799438 BitCount = 84 ID = 1329
   5.170291 2  651             Rx   d 8 80 02 50 AF 39 59 01 00  Length = 1109430 BitCount = 115 ID = 1617
   5.171541 2  400             Rx   d 8 0C 01 01 04 00 00 00 00  Length = 1209426 BitCount = 125 ID = 1024
   5.177311 2  359             Rx   d 8 FF 89 FF 00 10 6B 80 00  Length = 1149426 BitCount = 119 ID = 857
   5.187330 2  35B             Rx   d 8 0F 00 00 00 20 19 0C 00  Length = 1169426 BitCount = 121 ID = 859
   5.188070 2  457             Rx   d 3 00 47 00  Length = 699442 BitCount = 74 ID = 1111
   5.189560 2  532             Rx   d 8 00 00 8D 10 34 10 25 10  Length = 1129430 BitCount = 117 ID = 1330
   5.197330 2  320             Rx   d 8 00 00 00 01 00 01 00 80  Length = 1189441 BitCount = 123 ID = 800
   5.198190 2  575             Rx   d 4 00 00 00 00  Length = 819434 BitCount = 86 ID = 1397
   5.207369 2  367             Rx   d 8 FF 00 00 00 7F F0 01 00  Length = 1179441 BitCount = 122 ID = 871
   5.208609 2  369             Rx   d 8 3F 00 00 D0 FF 00 00 00  Length = 1189426 BitCount = 123 ID = 873
   5.209849 2  470             Rx   d 8 40 00 00 00 00 00 00 17  Length = 1199426 BitCount = 124 ID = 1136
   5.210509 2  69D             Rx   d 2 14 42  Length = 619442 BitCount = 66 ID = 1693
   5.213839 2  40C             Rx   d 8 16 01 01 04 00 04 00 00  Length = 1189426 BitCount = 123 ID = 1036
   5.217169 2  381             Rx   d 6 00 00 00 00 00 00  Length = 1029430 BitCount = 107 ID = 897
   5.218009 2  531             Rx   d 4 00 20 B0 90  Length = 789438 BitCount = 83 ID = 1329
   5.219649 2  67A             Rx   d 2 17 42  Length = 599446 BitCount = 64 ID = 1658
   5.227378 2  397             Rx   d 8 00 00 00 00 00 00 00 00  Length = 1199426 BitCount = 124 ID = 919
   5.228428 2  4B9             Rx   d 6 00 00 00 00 00 00  Length = 1009445 BitCount = 105 ID = 1209
   5.229668 2  591             Rx   d 8 00 00 08 00 00 00 00 00  Length = 1199426 BitCount = 124 ID = 1425
   5.230848 2  655             Rx   d 8 75 00 F0 03 18 00 80 C0  Length = 1139441 BitCount = 118 ID = 1621
   5.233748 2  3E1             Rx   d 8 00 00 FF 00 00 00 84 78  Length = 1179426 BitCount = 122 ID = 993
   5.234998 2  3E3             Rx   d 8 00 00 A1 00 00 00 00 00  Length = 1189426 BitCount = 123 ID = 995
   5.236158 2  5E1             Rx   d 7 80 00 00 00 00 00 00  Length = 1099430 BitCount = 114 ID = 1505
   5.237198 2  4BD             Rx   d 6 00 00 00 00 00 00  Length = 999430 BitCount = 104 ID = 1213
   5.238398 2  658             Rx   d 8 78 28 00 09 00 99 00 00  Length = 1159426 BitCount = 120 ID = 1624
   5.247428 2  3B5             Rx   d 6 00 00 00 00 00 00  Length = 1029445 BitCount = 107 ID = 949
   5.248098 2  5D1             Rx   d 2 10 00  Length = 629442 BitCount = 67 ID = 1489
   5.249088 2  6B4             Rx   d 6 DE 01 48 02 76 66  Length = 949445 BitCount = 99 ID = 1716
   5.257337 2  470             Rx   d 8 40 00 00 00 00 00 00 17  Length = 1199426 BitCount = 124 ID = 1136
   5.264047 2  436             Rx   d 8 00 01 01 04 00 00 02 00  Length = 1189426 BitCount = 123 ID = 1078
   5.265237 2  621             Rx   d 8 00 01 37 00 00 3C 1B 00  Length = 1149426 BitCount = 119 ID = 1569
   5.267207 2  2C1             Rx   d 6 00 00 00 00 02 00  Length = 1009430 BitCount = 105 ID = 705
   5.268057 2  531             Rx   d 4 00 20 C0 E0  Length = 799438 BitCount = 84 ID = 1329
   5.269207 2  651             Rx   d 8 80 02 50 AF 39 59 01 00  Length = 1109430 BitCount = 115 ID = 1617
   5.277317 2  359             Rx   d 8 FF 89 FF 00 10 6B 80 00  Length = 1149426 BitCount = 119 ID = 857
   5.287336 2  35B             Rx   d 8 0F 00 00 00 20 19 0C 00  Length = 1169441 BitCount = 121 ID = 859
   5.288076 2  457             Rx   d 3 00 47 00  Length = 699442 BitCount = 74 ID = 1111
   5.289686 2  69D             Rx   d 2 19 42  Length = 609446 BitCount = 65 ID = 1693
   5.307365 2  369             Rx   d 8 3F 00 00 D0 FF 00 00 00  Length = 1189426 BitCount = 123 ID = 873
   5.308605 2  470             Rx   d 8 40 00 00 00 00 00 00 17  Length = 1199441 BitCount = 124 ID = 1136
   5.309355 2  635             Rx   d 3 00 00 1B  Length = 709438 BitCount = 75 ID = 1589
   5.310605 2  400             Rx   d 8 0C 01 01 04 00 00 00 00  Length = 1209426 BitCount = 125 ID = 1024
   5.317164 2  381             Rx   d 6 00 00 00 00 00 00  Length = 1029430 BitCount = 107 ID = 897
   5.318014 2  531             Rx   d 4 00 20 D0 F0  Length = 799438 BitCount = 84 ID = 1329
   5.327374 2  397             Rx   d 8 00 00 00 00 00 00 00 00  Length = 1199426 BitCount = 124 ID = 919
   5.328424 2  4B9             Rx   d 6 00 00 00 00 00 00  Length = 1009445 BitCount = 105 ID = 1209
   5.333614 2  3E1             Rx   d 8 00 00 FF 00 00 00 84 78  Length = 1179441 BitCount = 122 ID = 993
   5.334884 2  3E9             Rx   d 8 00 00 00 00 00 00 00 00  Length = 1209426 BitCount = 125 ID = 1001
   5.336154 2  5E8             Rx   d 8 00 40 00 00 00 00 40 00  Length = 1209426 BitCount = 125 ID = 1512
   5.337394 2  4BD             Rx   d 6 00 00 00 00 00 00  Length = 999445 BitCount = 104 ID = 1213
   5.338594 2  658             Rx   d 8 78 28 00 09 00 99 00 00  Length = 1159426 BitCount = 120 ID = 1624
   5.347183 2  3B5             Rx   d 6 00 00 00 00 00 00  Length = 1029430 BitCount = 107 ID = 949
   5.348463 2  527             Rx   d 8 10 01 00 10 71 70 6F 08  Length = 1139430 BitCount = 118 ID = 1319
   5.353893 2  40C             Rx   d 8 16 01 01 04 00 04 00 00  Length = 1189426 BitCount = 123 ID = 1036
   5.357343 2  470             Rx   d 8 40 00 00 00 00 00 00 17  Length = 1199426 BitCount = 124 ID = 1136
   5.364813 2  65F             Rx   d 8 00 AA 8C 8E C0 00 00 00  Length = 1119430 BitCount = 116 ID = 1631
   5.366003 2  621             Rx   d 8 00 01 37 00 00 3C 1B 00  Length = 1149426 BitCount = 119 ID = 1569
   5.367223 2  2C1             Rx   d 6 00 00 00 00 02 00  Length = 1009430 BitCount = 105 ID = 705
   5.368073 2  531             Rx   d 4 00 20 E0 C0  Length = 799438 BitCount = 84 ID = 1329
   5.369223 2  651             Rx   d 8 80 02 50 AF 39 59 01 00  Length = 1109430 BitCount = 115 ID = 1617
   5.377292 2  359             Rx   d 8 FF 89 FF 00 10 6B 80 00  Length = 1149426 BitCount = 119 ID = 857
   5.387322 2  35B             Rx   d 8 0F 00 00 00 20 19 0C 00  Length = 1169441 BitCount = 121 ID = 859
   5.388061 2  457             Rx   d 3 00 47 00  Length = 699442 BitCount = 74 ID = 1111
   5.397321 2  320             Rx   d 8 00 00 00 01 00 09 00 80  Length = 1189426 BitCount = 123 ID = 800
   5.398181 2  575             Rx   d 4 00 00 00 00  Length = 819449 BitCount = 86 ID = 1397
   5.404041 2  436             Rx   d 8 00 01 01 04 00 00 02 00  Length = 1189426 BitCount = 123 ID = 1078
   5.407341 2  367             Rx   d 8 FF 00 00 00 7F F0 01 00  Length = 1179426 BitCount = 122 ID = 871
   5.408581 2  369             Rx   d 8 3F 00 00 D0 FF 00 00 00  Length = 1189441 BitCount = 123 ID = 873
   5.409821 2  470             Rx   d 8 40 00 00 00 00 00 00 17  Length = 1199426 BitCount = 124 ID = 1136
   5.417160 2  381             Rx   d 6 00 00 00 00 00 00  Length = 1029430 BitCount = 107 ID = 897
   5.418020 2  531             Rx   d 4 00 20 F0 D0  Length = 809434 BitCount = 85 ID = 1329
   5.427560 2  397             Rx   d 8 00 00 00 00 00 00 00 00  Length = 1199441 BitCount = 124 ID = 919
   5.428610 2  4B9             Rx   d 6 00 00 00 00 00 00  Length = 1009430 BitCount = 105 ID = 1209
   5.429850 2  591             Rx   d 8 00 00 08 00 00 00 00 00  Length = 1199441 BitCount = 124 ID = 1425
   5.431100 2  5F5             Rx   d 8 00 10 00 00 00 00 00 00  Length = 1209426 BitCount = 125 ID = 1525
   5.433740 2  3E1             Rx   d 8 00 00 FF 00 00 00 84 78  Length = 1179426 BitCount = 122 ID = 993
   5.434900 2  5E1             Rx   d 7 80 00 00 00 00 00 00  Length = 1099430 BitCount = 114 ID = 1505
   5.437130 2  4BD             Rx   d 6 00 00 00 00 00 00  Length = 999430 BitCount = 104 ID = 1213
   5.438350 2  658             Rx   d 8 78 28 00 09 00 98 00 00  Length = 1169426 BitCount = 121 ID = 1624
   5.447179 2  3B5             Rx   d 6 00 00 00 00 00 00  Length = 1029430 BitCount = 107 ID = 949
   5.447849 2  5D1             Rx   d 2 10 00  Length = 629442 BitCount = 67 ID = 1489
   5.449099 2  400             Rx   d 8 0C 01 01 04 00 00 00 00  Length = 1209426 BitCount = 125 ID = 1024
   5.457329 2  470             Rx   d 8 40 00 00 00 00 00 00 17  Length = 1199426 BitCount = 124 ID = 1136
   5.458579 2  64F             Rx   d 8 3F 00 00 00 00 00 00 00  Length = 1209426 BitCount = 125 ID = 1615
   5.464858 2  621             Rx   d 8 00 01 37 00 00 3C 1B 00  Length = 1149426 BitCount = 119 ID = 1569
   5.467198 2  2C1             Rx   d 6 00 00 00 00 02 00  Length = 1009430 BitCount = 105 ID = 705
   5.468058 2  531             Rx   d 4 00 20 00 20  Length = 809434 BitCount = 85 ID = 1329
   5.469208 2  651             Rx   d 8 80 02 50 AF 39 59 01 00  Length = 1109430 BitCount = 115 ID = 1617
   5.477298 2  359             Rx   d 8 FF 89 FF 00 10 6B 80 00  Length = 1149441 BitCount = 119 ID = 857
   5.480237 2  66C             Rx   d 8 80 08 3C 43 38 03 FF BC  Length = 1159441 BitCount = 120 ID = 1644
   5.487327 2  35B             Rx   d 8 0F 00 00 00 20 19 0C 00  Length = 1169441 BitCount = 121 ID = 859
   5.488067 2  457             Rx   d 3 00 47 00  Length = 699453 BitCount = 74 ID = 1111
   5.493767 2  40C             Rx   d 8 16 01 01 04 00 04 00 00  Length = 1189426 BitCount = 123 ID = 1036
   5.507366 2  369             Rx   d 8 3F 00 00 D0 FF 00 00 00  Length = 1189426 BitCount = 123 ID = 873
   5.508606 2  470             Rx   d 8 40 00 00 00 00 00 00 17  Length = 1199441 BitCount = 124 ID = 1136
   5.509356 2  635             Rx   d 3 00 00 1B  Length = 709438 BitCount = 75 ID = 1589
   5.510306 2  66C             Rx   d 5 C0 00 00 00 00  Length = 909434 BitCount = 95 ID = 1644
   5.517166 2  381             Rx   d 6 00 00 00 00 00 00  Length = 1029430 BitCount = 107 ID = 897
   5.518016 2  531             Rx   d 4 00 20 10 30  Length = 799438 BitCount = 84 ID = 1329
   5.527345 2  397             Rx   d 8 00 00 00 00 00 00 00 00  Length = 1199426 BitCount = 124 ID = 919
   5.528395 2  4B9             Rx   d 6 00 00 00 00 00 00  Length = 1009430 BitCount = 105 ID = 1209
   5.533795 2  3E1             Rx   d 8 00 00 FF 00 00 00 84 78  Length = 1179441 BitCount = 122 ID = 993
   5.537135 2  4BD             Rx   d 6 00 00 00 00 00 00  Length = 999430 BitCount = 104 ID = 1213
   5.538345 2  658             Rx   d 8 78 28 00 09 00 98 00 00  Length = 1169426 BitCount = 121 ID = 1624
   5.544044 2  436             Rx   d 8 00 01 01 04 00 00 02 00  Length = 1189426 BitCount = 123 ID = 1078
   5.547174 2  3B5             Rx   d 6 00 00 00 00 00 00  Length = 1029430 BitCount = 107 ID = 949
   5.548354 2  527             Rx   d 8 10 01 00 10 71 70 6F 08  Length = 1139430 BitCount = 118 ID = 1319
   5.549374 2  571             Rx   d 6 99 1F 00 08 04 00  Length = 979430 BitCount = 102 ID = 1393
   5.557334 2  470             Rx   d 8 40 00 00 00 00 00 00 17  Length = 1199426 BitCount = 124 ID = 1136
   5.564803 2  65F             Rx   d 8 01 00 00 00 00 00 00 00  Length = 1129430 BitCount = 117 ID = 1631
   5.565993 2  621             Rx   d 8 00 01 37 00 00 3C 1B 00  Length = 1149426 BitCount = 119 ID = 1569
   5.567213 2  2C1             Rx   d 6 00 00 00 00 02 00  Length = 1009430 BitCount = 105 ID = 705
   5.568063 2  531             Rx   d 4 00 20 20 00  Length = 799449 BitCount = 84 ID = 1329
   5.569213 2  651             Rx   d 8 80 02 50 AF 39 59 01 00  Length = 1109430 BitCount = 115 ID = 1617
   5.577272 2  359             Rx   d 8 FF 89 FF 00 10 6B 80 00  Length = 1149441 BitCount = 119 ID = 857
   5.587312 2  35B             Rx   d 8 0F 00 00 00 20 19 0C 00  Length = 1169426 BitCount = 121 ID = 859
   5.588052 2  457             Rx   d 3 00 47 00  Length = 699453 BitCount = 74 ID = 1111
   5.589302 2  400             Rx   d 8 0C 01 01 04 00 00 00 00  Length = 1209426 BitCount = 125 ID = 1024
   5.597301 2  320             Rx   d 8 00 00 00 01 00 01 00 80  Length = 1189426 BitCount = 123 ID = 800
   5.598161 2  575             Rx   d 4 00 00 00 00  Length = 819449 BitCount = 86 ID = 1397
   5.607331 2  367             Rx   d 8 FF 00 00 00 7F F0 01 00  Length = 1179426 BitCount = 122 ID = 871
   5.608571 2  369             Rx   d 8 3F 00 00 D0 FF 00 00 00  Length = 1189426 BitCount = 123 ID = 873
   5.609811 2  470             Rx   d 8 40 00 00 00 00 00 00 17  Length = 1199441 BitCount = 124 ID = 1136
   5.617150 2  381             Rx   d 6 00 00 00 00 00 00  Length = 1029430 BitCount = 107 ID = 897
   5.617990 2  531             Rx   d 4 00 20 30 10  Length = 789438 BitCount = 83 ID = 1329
   5.627340 2  397             Rx   d 8 00 00 00 00 00 00 00 00  Length = 1199426 BitCount = 124 ID = 919
   5.628390 2  4B9             Rx   d 6 00 00 00 00 00 00  Length = 1009430 BitCount = 105 ID = 1209
   5.629629 2  591             Rx   d 8 00 00 08 00 00 00 00 00  Length = 1199426 BitCount = 124 ID = 1425
   5.630459 2  653             Rx   d 4 81 01 41 01  Length = 789438 BitCount = 83 ID = 1619
   5.633559 2  3E1             Rx   d 8 00 00 FF 00 00 00 84 78  Length = 1179426 BitCount = 122 ID = 993
   5.634809 2  40C             Rx   d 8 16 01 01 04 00 04 00 00  Length = 1189441 BitCount = 123 ID = 1036
   5.635969 2  5E1             Rx   d 7 80 00 00 00 00 00 00  Length = 1099445 BitCount = 114 ID = 1505
   5.637150 2  4BD             Rx   d 6 00 00 00 00 00 00  Length = 999430 BitCount = 104 ID = 1213
   5.638360 2  658             Rx   d 8 78 28 00 09 00 98 00 00  Length = 1169426 BitCount = 121 ID = 1624
   5.647169 2  3B5             Rx   d 6 00 00 00 00 00 00  Length = 1029430 BitCount = 107 ID = 949
   5.647839 2  5D1             Rx   d 2 10 00  Length = 629442 BitCount = 67 ID = 1489
   5.657318 2  470             Rx   d 8 40 00 00 00 00 00 00 17  Length = 1199441 BitCount = 124 ID = 1136
   5.664828 2  621             Rx   d 8 00 01 37 00 00 3C 1B 00  Length = 1149426 BitCount = 119 ID = 1569
   5.667158 2  2C1             Rx   d 6 00 00 00 00 02 00  Length = 1009445 BitCount = 105 ID = 705
   5.668018 2  531             Rx   d 4 00 20 40 60  Length = 809449 BitCount = 85 ID = 1329
   5.669168 2  651             Rx   d 8 80 02 50 AF 39 59 01 00  Length = 1109430 BitCount = 115 ID = 1617
   5.677287 2  359             Rx   d 8 FF 89 FF 00 10 6B 80 00  Length = 1149426 BitCount = 119 ID = 857
   5.684047 2  436             Rx   d 8 00 01 01 04 00 00 02 00  Length = 1189426 BitCount = 123 ID = 1078
   5.687317 2  35B             Rx   d 8 0F 00 00 00 20 19 0C 00  Length = 1169426 BitCount = 121 ID = 859
   5.688057 2  457             Rx   d 3 00 47 00  Length = 699453 BitCount = 74 ID = 1111
   5.707366 2  369             Rx   d 8 3F 00 00 D0 FF 00 00 00  Length = 1189426 BitCount = 123 ID = 873
   5.708606 2  470             Rx   d 8 40 00 00 00 00 00 00 17  Length = 1199426 BitCount = 124 ID = 1136
   5.709356 2  635             Rx   d 3 00 00 1B  Length = 709453 BitCount = 75 ID = 1589
   5.717136 2  381             Rx   d 6 00 00 00 00 00 00  Length = 1029430 BitCount = 107 ID = 897
   5.717996 2  531             Rx   d 4 00 20 50 70  Length = 809434 BitCount = 85 ID = 1329
   5.727335 2  397             Rx   d 8 00 00 00 00 00 00 00 00  Length = 1199426 BitCount = 124 ID = 919
   5.728385 2  4B9             Rx   d 6 00 00 00 00 00 00  Length = 1009430 BitCount = 105 ID = 1209
   5.729565 2  655             Rx   d 8 75 00 F0 03 18 00 80 C0  Length = 1139430 BitCount = 118 ID = 1621
   5.730815 2  400             Rx   d 8 0C 01 01 04 00 00 00 00  Length = 1209426 BitCount = 125 ID = 1024
   5.733855 2  3E1             Rx   d 8 00 00 FF 00 00 00 84 78  Length = 1179441 BitCount = 122 ID = 993
   5.737125 2  4BD             Rx   d 6 00 00 00 00 00 00  Length = 999430 BitCount = 104 ID = 1213
   5.738335 2  658             Rx   d 8 78 28 00 09 00 98 00 00  Length = 1169441 BitCount = 121 ID = 1624
   5.747164 2  3B5             Rx   d 6 00 00 00 00 00 00  Length = 1029430 BitCount = 107 ID = 949
   5.748344 2  527             Rx   d 8 10 01 00 10 71 70 6F 08  Length = 1139441 BitCount = 118 ID = 1319
   5.749334 2  6B4             Rx   d 6 DE 01 48 02 76 66  Length = 949430 BitCount = 99 ID = 1716
   5.757354 2  470             Rx   d 8 40 00 00 00 00 00 00 17  Length = 1199441 BitCount = 124 ID = 1136
   5.764773 2  65F             Rx   d 8 02 00 00 00 00 00 00 00  Length = 1119430 BitCount = 116 ID = 1631
   5.765963 2  621             Rx   d 8 00 01 37 00 00 3C 1B 00  Length = 1149426 BitCount = 119 ID = 1569
   5.767203 2  2C1             Rx   d 6 00 00 00 00 02 00  Length = 1009445 BitCount = 105 ID = 705
   5.768053 2  531             Rx   d 4 00 20 60 40  Length = 799449 BitCount = 84 ID = 1329
   5.769203 2  651             Rx   d 8 80 02 50 AF 39 59 01 00  Length = 1109430 BitCount = 115 ID = 1617
   5.773893 2  40C             Rx   d 8 16 01 01 04 00 04 00 00  Length = 1189426 BitCount = 123 ID = 1036
   5.777263 2  359             Rx   d 8 FF 89 FF 00 10 6B 80 00  Length = 1149426 BitCount = 119 ID = 857
   5.787302 2  35B             Rx   d 8 0F 00 00 00 20 19 0C 00  Length = 1169426 BitCount = 121 ID = 859
   5.788042 2  457             Rx   d 3 00 47 00  Length = 699453 BitCount = 74 ID = 1111
   5.797292 2  320             Rx   d 8 00 00 00 01 00 09 00 80  Length = 1189426 BitCount = 123 ID = 800
   5.798152 2  575             Rx   d 4 00 00 00 00  Length = 819434 BitCount = 86 ID = 1397
   5.799302 2  65D             Rx   d 8 81 F2 26 D0 F0 CB 18 0E  Length = 1109430 BitCount = 115 ID = 1629
   5.807321 2  367             Rx   d 8 FF 00 00 00 7F F0 01 00  Length = 1179426 BitCount = 122 ID = 871
   5.808561 2  369             Rx   d 8 3F 00 00 D0 FF 00 00 00  Length = 1189426 BitCount = 123 ID = 873
   5.809801 2  470             Rx   d 8 40 00 00 00 00 00 00 17  Length = 1199441 BitCount = 124 ID = 1136
   5.810461 2  69D             Rx   d 2 14 42  Length = 619442 BitCount = 66 ID = 1693
   5.817141 2  381             Rx   d 6 00 00 00 00 00 00  Length = 1029430 BitCount = 107 ID = 897
   5.817990 2  531             Rx   d 4 00 20 70 50  Length = 799438 BitCount = 84 ID = 1329
   5.819651 2  67A             Rx   d 2 17 42  Length = 599461 BitCount = 64 ID = 1658
   5.824041 2  436             Rx   d 8 00 01 01 04 00 00 02 00  Length = 1189426 BitCount = 123 ID = 1078
   5.827330 2  397             Rx   d 8 00 00 00 00 00 00 00 00  Length = 1199426 BitCount = 124 ID = 919
   5.828380 2  4B9             Rx   d 6 00 00 00 00 00 00  Length = 1009430 BitCount = 105 ID = 1209
   5.829620 2  591             Rx   d 8 00 00 08 00 00 00 00 00  Length = 1199426 BitCount = 124 ID = 1425
   5.833740 2  3E1             Rx   d 8 00 00 FF 00 00 00 84 78  Length = 1179426 BitCount = 122 ID = 993
   5.835010 2  3E9             Rx   d 8 00 00 00 00 00 00 00 00  Length = 1209426 BitCount = 125 ID = 1001
   5.836170 2  5E1             Rx   d 7 80 00 00 00 00 00 00  Length = 1099445 BitCount = 114 ID = 1505
   5.837210 2  4BD             Rx   d 6 00 00 00 00 00 00  Length = 999430 BitCount = 104 ID = 1213
   5.838460 2  5E8             Rx   d 8 00 40 00 00 00 00 40 00  Length = 1209426 BitCount = 125 ID = 1512
   5.839670 2  658             Rx   d 8 78 28 00 09 00 98 00 00  Length = 1169426 BitCount = 121 ID = 1624
   5.847160 2  3B5             Rx   d 6 00 00 00 00 00 00  Length = 1029445 BitCount = 107 ID = 949
   5.847830 2  5D1             Rx   d 2 10 00  Length = 629457 BitCount = 67 ID = 1489
   5.857309 2  470             Rx   d 8 40 00 00 00 00 00 00 17  Length = 1199426 BitCount = 124 ID = 1136
   5.864819 2  621             Rx   d 8 00 01 37 00 00 3C 1B 00  Length = 1149426 BitCount = 119 ID = 1569
   5.867179 2  2C1             Rx   d 6 00 00 00 00 02 00  Length = 1009445 BitCount = 105 ID = 705
   5.868029 2  531             Rx   d 4 00 20 80 A0  Length = 799438 BitCount = 84 ID = 1329
   5.869179 2  651             Rx   d 8 80 02 50 AF 39 59 01 00  Length = 1109430 BitCount = 115 ID = 1617
   5.870429 2  400             Rx   d 8 0C 01 01 04 00 00 00 00  Length = 1209426 BitCount = 125 ID = 1024
   5.877278 2  359             Rx   d 8 FF 89 FF 00 10 6B 80 00  Length = 1149426 BitCount = 119 ID = 857
   5.887308 2  35B             Rx   d 8 0F 00 00 00 20 19 0C 00  Length = 1169426 BitCount = 121 ID = 859
   5.888048 2  457             Rx   d 3 00 47 00  Length = 699442 BitCount = 74 ID = 1111
   5.889677 2  69D             Rx   d 2 19 42  Length = 609446 BitCount = 65 ID = 1693
   5.907326 2  369             Rx   d 8 3F 00 00 D0 FF 00 00 00  Length = 1189426 BitCount = 123 ID = 873
   5.908566 2  470             Rx   d 8 40 00 00 00 00 00 00 17  Length = 1199426 BitCount = 124 ID = 1136
   5.909316 2  635             Rx   d 3 00 00 1B  Length = 709438 BitCount = 75 ID = 1589
   5.913977 2  40C             Rx   d 8 16 01 01 04 00 04 00 00  Length = 1189426 BitCount = 123 ID = 1036
   5.914656 2  481             Rx   d 2 01 00  Length = 639442 BitCount = 68 ID = 1153
   5.915326 2  60E             Rx   d 2 08 02  Length = 629442 BitCount = 67 ID = 1550
   5.916567 2  661             Rx   d 8 00 00 00 00 00 00 00 00  Length = 1199426 BitCount = 124 ID = 1633
   5.917636 2  381             Rx   d 6 00 00 00 00 00 00  Length = 1029430 BitCount = 107 ID = 897
   5.918776 2  665             Rx   d 7 00 00 00 00 00 00 00  Length = 1099430 BitCount = 114 ID = 1637
   5.919596 2  531             Rx   d 4 00 20 90 B0  Length = 779438 BitCount = 82 ID = 1329
   5.920276 2  666             Rx   d 2 00 00  Length = 639442 BitCount = 68 ID = 1638
   5.927326 2  397             Rx   d 8 00 00 00 00 00 00 00 00  Length = 1199426 BitCount = 124 ID = 919
   5.928376 2  4B9             Rx   d 6 00 00 00 00 00 00  Length = 1009430 BitCount = 105 ID = 1209
   5.929626 2  5F5             Rx   d 8 00 10 00 00 00 00 00 00  Length = 1209426 BitCount = 125 ID = 1525
   5.933606 2  3E1             Rx   d 8 00 00 FF 00 00 00 84 78  Length = 1179426 BitCount = 122 ID = 993
   5.937116 2  4BD             Rx   d 6 00 00 00 00 00 00  Length = 999430 BitCount = 104 ID = 1213
   5.938326 2  658             Rx   d 8 78 28 00 09 00 98 00 00  Length = 1169441 BitCount = 121 ID = 1624
   5.947156 2  3B5             Rx   d 6 00 00 00 00 00 00  Length = 1029445 BitCount = 107 ID = 949
   5.948336 2  527             Rx   d 8 10 01 00 10 71 70 6F 08  Length = 1139441 BitCount = 118 ID = 1319
   5.957345 2  470             Rx   d 8 40 00 00 00 00 00 00 17  Length = 1199441 BitCount = 124 ID = 1136
   5.958595 2  64F             Rx   d 8 3F 00 00 00 00 00 00 00  Length = 1209426 BitCount = 125 ID = 1615
   5.964045 2  436             Rx   d 8 00 01 01 04 00 00 02 00  Length = 1189426 BitCount = 123 ID = 1078
   5.965205 2  65F             Rx   d 8 00 AA 8C 8E C0 00 00 00  Length = 1119430 BitCount = 116 ID = 1631
   5.966585 2  621             Rx   d 8 00 01 37 00 00 3C 1B 00  Length = 1149426 BitCount = 119 ID = 1569
   5.967635 2  2C1             Rx   d 6 00 00 00 00 02 00  Length = 1009430 BitCount = 105 ID = 705
   5.968485 2  531             Rx   d 4 00 20 A0 80  Length = 799438 BitCount = 84 ID = 1329
   5.969634 2  651             Rx   d 8 80 02 50 AF 39 59 01 00  Length = 1109430 BitCount = 115 ID = 1617
   5.977254 2  359             Rx   d 8 FF 89 FF 00 10 6B 80 00  Length = 1149426 BitCount = 119 ID = 857
   5.987283 2  35B             Rx   d 8 0F 00 00 00 20 19 0C 00  Length = 1169426 BitCount = 121 ID = 859
   5.988023 2  457             Rx   d 3 00 47 00  Length = 699442 BitCount = 74 ID = 1111
