date Sat Mar 7 11:14:22.496 am 2020
base hex  timestamps absolute
internal events logged
// version 11.0.0
   0.007251 CAN 1 Status:chip status error active
   0.007251 CAN 2 Status:chip status error active
   1.007251 CAN 1 Status:chip status error active
   1.007251 CAN 2 Status:chip status error active
   2.007252 CAN 1 Status:chip status error active
   2.007252 CAN 2 Status:chip status error active
   3.007252 CAN 1 Status:chip status error active
   3.007252 CAN 2 Status:chip status error active
   4.007252 CAN 1 Status:chip status error active
   4.007252 CAN 2 Status:chip status error active
   5.007252 CAN 1 Status:chip status error active
   5.007252 CAN 2 Status:chip status error active
   6.007253 CAN 1 Status:chip status error active
   6.007253 CAN 2 Status:chip status error active
   7.007253 CAN 1 Status:chip status error active
   7.007253 CAN 2 Status:chip status error active
   8.007253 CAN 1 Status:chip status error active
   8.007253 CAN 2 Status:chip status error active
   9.007254 CAN 1 Status:chip status error active
   9.007254 CAN 2 Status:chip status error active
  10.007254 CAN 1 Status:chip status error active
  10.007254 CAN 2 Status:chip status error active
  11.007254 CAN 1 Status:chip status error active
  11.007254 CAN 2 Status:chip status error active
  12.007255 CAN 1 Status:chip status error active
  12.007255 CAN 2 Status:chip status error active
  13.007255 CAN 1 Status:chip status error active
  13.007255 CAN 2 Status:chip status error active
  14.007255 CAN 1 Status:chip status error active
  14.007255 CAN 2 Status:chip status error active
  15.007256 CAN 1 Status:chip status error active
  15.007256 CAN 2 Status:chip status error active
  16.007256 CAN 1 Status:chip status error active
  16.007256 CAN 2 Status:chip status error active
  17.007256 CAN 1 Status:chip status error active
  17.007256 CAN 2 Status:chip status error active
  18.007257 CAN 1 Status:chip status error active
  18.007257 CAN 2 Status:chip status error active
  19.007257 CAN 1 Status:chip status error active
  19.007257 CAN 2 Status:chip status error active
  20.007257 CAN 1 Status:chip status error active
  20.007257 CAN 2 Status:chip status error active
  21.007257 CAN 1 Status:chip status error active
  21.007257 CAN 2 Status:chip status error active
  22.007258 CAN 1 Status:chip status error active
  22.007258 CAN 2 Status:chip status error active
  23.007258 CAN 1 Status:chip status error active
  23.007258 CAN 2 Status:chip status error active
  23.934362 2  ErrorFrame	Flags = 0xfffe	CodeExt = 0x20a2	Code = 0x82	ID = 0x1f	DLC = 0	Position = 6	Length = 69375
  23.934370 CAN 2 Status:chip status error active  - TxErr: 0 RxErr: 1
  24.007258 CAN 1 Status:chip status error active
  24.007258 CAN 2 Status:chip status error active  - TxErr: 0 RxErr: 1
  25.007259 CAN 1 Status:chip status error active
  25.007259 CAN 2 Status:chip status error active  - TxErr: 0 RxErr: 1
  26.007259 CAN 1 Status:chip status error active
  26.007259 CAN 2 Status:chip status error active  - TxErr: 0 RxErr: 1
  27.007259 CAN 1 Status:chip status error active
  27.007259 CAN 2 Status:chip status error active  - TxErr: 0 RxErr: 1
  28.007260 CAN 1 Status:chip status error active
  28.007260 CAN 2 Status:chip status error active  - TxErr: 0 RxErr: 1
  29.007260 CAN 1 Status:chip status error active
  29.007260 CAN 2 Status:chip status error active  - TxErr: 0 RxErr: 1
  30.007260 CAN 1 Status:chip status error active
  30.007260 CAN 2 Status:chip status error active  - TxErr: 0 RxErr: 1
  31.007261 CAN 1 Status:chip status error active
  31.007261 CAN 2 Status:chip status error active  - TxErr: 0 RxErr: 1
  32.007261 CAN 1 Status:chip status error active
  32.007261 CAN 2 Status:chip status error active  - TxErr: 0 RxErr: 1
  33.007261 CAN 1 Status:chip status error active
  33.007261 CAN 2 Status:chip status error active  - TxErr: 0 RxErr: 1
  34.007262 CAN 1 Status:chip status error active
  34.007262 CAN 2 Status:chip status error active  - TxErr: 0 RxErr: 1
  35.007262 CAN 1 Status:chip status error active
  35.007262 CAN 2 Status:chip status error active  - TxErr: 0 RxErr: 1
  36.007262 CAN 1 Status:chip status error active
  36.007262 CAN 2 Status:chip status error active  - TxErr: 0 RxErr: 1
  37.007262 CAN 1 Status:chip status error active
  37.007262 CAN 2 Status:chip status error active  - TxErr: 0 RxErr: 1
  38.007263 CAN 1 Status:chip status error active
  38.007263 CAN 2 Status:chip status error active  - TxErr: 0 RxErr: 1
  39.007263 CAN 1 Status:chip status error active
  39.007263 CAN 2 Status:chip status error active  - TxErr: 0 RxErr: 1
  40.007263 CAN 1 Status:chip status error active
  40.007263 CAN 2 Status:chip status error active  - TxErr: 0 RxErr: 1
  41.007264 CAN 1 Status:chip status error active
  41.007264 CAN 2 Status:chip status error active  - TxErr: 0 RxErr: 1
  42.007264 CAN 1 Status:chip status error active
  42.007264 CAN 2 Status:chip status error active  - TxErr: 0 RxErr: 1
  43.007264 CAN 1 Status:chip status error active
  43.007264 CAN 2 Status:chip status error active  - TxErr: 0 RxErr: 1
  44.007265 CAN 1 Status:chip status error active
  44.007265 CAN 2 Status:chip status error active  - TxErr: 0 RxErr: 1
  45.007265 CAN 1 Status:chip status error active
  45.007265 CAN 2 Status:chip status error active  - TxErr: 0 RxErr: 1
  46.007265 CAN 1 Status:chip status error active
  46.007265 CAN 2 Status:chip status error active  - TxErr: 0 RxErr: 1
  47.007266 CAN 1 Status:chip status error active
  47.007266 CAN 2 Status:chip status error active  - TxErr: 0 RxErr: 1
  48.007266 CAN 1 Status:chip status error active
  48.007266 CAN 2 Status:chip status error active  - TxErr: 0 RxErr: 1
  49.007266 CAN 1 Status:chip status error active
  49.007266 CAN 2 Status:chip status error active  - TxErr: 0 RxErr: 1
  50.007267 CAN 1 Status:chip status error active
  50.007267 CAN 2 Status:chip status error active  - TxErr: 0 RxErr: 1
  50.574991 2  ErrorFrame	Flags = 0xfffe	CodeExt = 0x20a2	Code = 0x82	ID = 0x1f	DLC = 0	Position = 6	Length = 69375
  50.574999 CAN 2 Status:chip status error active  - TxErr: 0 RxErr: 2
  50.575059 CAN 2 Status:chip status error active  - TxErr: 0 RxErr: 10
  50.584747 CAN 2 Status:chip status error active  - TxErr: 0 RxErr: 9
  50.584820 2  43D             Rx   d 8 1D 02 03 00 00 94 00 00  Length = 1169441 BitCount = 121 ID = 1085
  50.593347 CAN 2 Status:chip status error active  - TxErr: 0 RxErr: 8
  50.593420 2  69E             Rx   d 4 40 00 01 02  Length = 809434 BitCount = 85 ID = 1694
  50.594637 CAN 2 Status:chip status error active  - TxErr: 0 RxErr: 7
  50.594710 2  5A7             Rx   d 8 80 19 00 00 00 00 00 00  Length = 1189426 BitCount = 123 ID = 1447
  50.595937 CAN 2 Status:chip status error active  - TxErr: 0 RxErr: 6
  50.596010 2  5A9             Rx   d 8 00 00 00 00 00 00 00 00  Length = 1219441 BitCount = 126 ID = 1449
  50.601547 CAN 2 Status:chip status error active  - TxErr: 0 RxErr: 5
  50.601619 2  69E             Rx   d 2 14 42  Length = 599446 BitCount = 64 ID = 1694
  50.634636 CAN 2 Status:chip status error active  - TxErr: 0 RxErr: 4
  50.634709 2  43D             Rx   d 8 1D 01 03 04 00 94 00 00  Length = 1159426 BitCount = 120 ID = 1085
  50.681165 CAN 2 Status:chip status error active  - TxErr: 0 RxErr: 3
  50.681238 2  69E             Rx   d 2 19 42  Length = 599446 BitCount = 64 ID = 1694
  50.774644 CAN 2 Status:chip status error active  - TxErr: 0 RxErr: 2
  50.774716 2  43D             Rx   d 8 1D 02 03 04 00 94 00 00  Length = 1159426 BitCount = 120 ID = 1085
  50.824643 CAN 2 Status:chip status error active  - TxErr: 0 RxErr: 1
  50.824715 2  43D             Rx   d 8 1D 01 03 04 00 94 00 00  Length = 1159426 BitCount = 120 ID = 1085
  50.964640 CAN 2 Status:chip status error active
  50.964713 2  43D             Rx   d 8 1D 02 03 04 00 94 00 00  Length = 1159426 BitCount = 120 ID = 1085
  51.007267 CAN 1 Status:chip status error active
  51.007267 CAN 2 Status:chip status error active
  51.014702 2  43D             Rx   d 8 1D 01 03 04 00 94 00 00  Length = 1159426 BitCount = 120 ID = 1085
  51.154709 2  43D             Rx   d 8 1D 02 03 04 00 94 00 00  Length = 1159426 BitCount = 120 ID = 1085
  51.201238 2  69E             Rx   d 2 14 42  Length = 599446 BitCount = 64 ID = 1694
  51.204698 2  43D             Rx   d 8 1D 01 03 04 00 94 00 00  Length = 1159426 BitCount = 120 ID = 1085
  51.281227 2  69E             Rx   d 2 19 42  Length = 599446 BitCount = 64 ID = 1694
  51.344716 2  43D             Rx   d 8 1D 02 03 04 00 94 00 00  Length = 1159426 BitCount = 120 ID = 1085
  51.594682 2  5A7             Rx   d 8 80 19 00 00 00 00 00 00  Length = 1189441 BitCount = 123 ID = 1447
  51.595942 2  5A9             Rx   d 8 00 00 00 00 00 00 00 00  Length = 1219426 BitCount = 126 ID = 1449
  51.844718 2  43D             Rx   d 8 1D 04 03 04 00 94 00 00  Length = 1179426 BitCount = 122 ID = 1085
  52.007267 CAN 1 Status:chip status error active
  52.007267 CAN 2 Status:chip status error active
  52.344718 2  43D             Rx   d 8 1D 04 03 04 00 14 00 00  Length = 1179426 BitCount = 122 ID = 1085
  52.594664 2  5A7             Rx   d 8 80 19 00 00 00 00 00 00  Length = 1189441 BitCount = 123 ID = 1447
  52.595923 2  5A9             Rx   d 8 00 00 00 00 00 00 00 00  Length = 1219426 BitCount = 126 ID = 1449
  52.844699 2  43D             Rx   d 8 1D 04 03 04 00 14 00 00  Length = 1179426 BitCount = 122 ID = 1085
  53.007267 CAN 1 Status:chip status error active
  53.007267 CAN 2 Status:chip status error active
  53.344700 2  43D             Rx   d 8 1D 04 03 04 00 14 00 00  Length = 1179441 BitCount = 122 ID = 1085
  53.594645 2  5A7             Rx   d 8 80 19 00 00 00 00 00 00  Length = 1189426 BitCount = 123 ID = 1447
  53.595905 2  5A9             Rx   d 8 00 00 00 00 00 00 00 00  Length = 1219441 BitCount = 126 ID = 1449
  53.844680 2  43D             Rx   d 8 1D 04 03 04 00 14 00 00  Length = 1179426 BitCount = 122 ID = 1085
  54.007268 CAN 1 Status:chip status error active
  54.007268 CAN 2 Status:chip status error active
  54.344681 2  43D             Rx   d 8 1D 04 03 04 00 14 00 00  Length = 1179426 BitCount = 122 ID = 1085
  54.594646 2  5A7             Rx   d 8 80 19 00 00 00 00 00 00  Length = 1189426 BitCount = 123 ID = 1447
  54.595906 2  5A9             Rx   d 8 00 00 00 00 00 00 00 00  Length = 1219426 BitCount = 126 ID = 1449
  54.844652 2  43D             Rx   d 8 1D 04 03 00 00 14 00 00  Length = 1169426 BitCount = 121 ID = 1085
  55.007268 CAN 1 Status:chip status error active
  55.007268 CAN 2 Status:chip status error active
  55.344642 2  43D             Rx   d 8 1D 14 03 00 00 14 00 00  Length = 1159426 BitCount = 120 ID = 1085
  56.007268 CAN 1 Status:chip status error active
  56.007268 CAN 2 Status:chip status error active
  57.007269 CAN 1 Status:chip status error active
  57.007269 CAN 2 Status:chip status error active
  58.007269 CAN 1 Status:chip status error active
  58.007269 CAN 2 Status:chip status error active
  59.007269 CAN 1 Status:chip status error active
  59.007269 CAN 2 Status:chip status error active
  60.007270 CAN 1 Status:chip status error active
  60.007270 CAN 2 Status:chip status error active
  61.007270 CAN 1 Status:chip status error active
  61.007270 CAN 2 Status:chip status error active
  62.007270 CAN 1 Status:chip status error active
  62.007270 CAN 2 Status:chip status error active
  63.007271 CAN 1 Status:chip status error active
  63.007271 CAN 2 Status:chip status error active
  64.007271 CAN 1 Status:chip status error active
  64.007271 CAN 2 Status:chip status error active
  65.007271 CAN 1 Status:chip status error active
  65.007271 CAN 2 Status:chip status error active
  66.007272 CAN 1 Status:chip status error active
  66.007272 CAN 2 Status:chip status error active
  67.007272 CAN 1 Status:chip status error active
  67.007272 CAN 2 Status:chip status error active
  68.007272 CAN 1 Status:chip status error active
  68.007272 CAN 2 Status:chip status error active
  69.007272 CAN 1 Status:chip status error active
  69.007272 CAN 2 Status:chip status error active
  69.673463 2  ErrorFrame	Flags = 0xfffe	CodeExt = 0x20a2	Code = 0x82	ID = 0x1f	DLC = 0	Position = 6	Length = 69375
  69.673471 CAN 2 Status:chip status error active  - TxErr: 0 RxErr: 1
  70.007273 CAN 1 Status:chip status error active
  70.007273 CAN 2 Status:chip status error active  - TxErr: 0 RxErr: 1
  71.007273 CAN 1 Status:chip status error active
  71.007273 CAN 2 Status:chip status error active  - TxErr: 0 RxErr: 1
  72.007273 CAN 1 Status:chip status error active
  72.007273 CAN 2 Status:chip status error active  - TxErr: 0 RxErr: 1
  73.007274 CAN 1 Status:chip status error active
  73.007274 CAN 2 Status:chip status error active  - TxErr: 0 RxErr: 1
  74.007274 CAN 1 Status:chip status error active
  74.007274 CAN 2 Status:chip status error active  - TxErr: 0 RxErr: 1
  75.007274 CAN 1 Status:chip status error active
  75.007274 CAN 2 Status:chip status error active  - TxErr: 0 RxErr: 1
  76.007275 CAN 1 Status:chip status error active
  76.007275 CAN 2 Status:chip status error active  - TxErr: 0 RxErr: 1
  77.007275 CAN 1 Status:chip status error active
  77.007275 CAN 2 Status:chip status error active  - TxErr: 0 RxErr: 1
  78.007275 CAN 1 Status:chip status error active
  78.007275 CAN 2 Status:chip status error active  - TxErr: 0 RxErr: 1
  79.007276 CAN 1 Status:chip status error active
  79.007276 CAN 2 Status:chip status error active  - TxErr: 0 RxErr: 1
  80.007276 CAN 1 Status:chip status error active
  80.007276 CAN 2 Status:chip status error active  - TxErr: 0 RxErr: 1
  81.007276 CAN 1 Status:chip status error active
  81.007276 CAN 2 Status:chip status error active  - TxErr: 0 RxErr: 1
  82.007277 CAN 1 Status:chip status error active
  82.007277 CAN 2 Status:chip status error active  - TxErr: 0 RxErr: 1
  83.007277 CAN 1 Status:chip status error active
  83.007277 CAN 2 Status:chip status error active  - TxErr: 0 RxErr: 1
  84.007277 CAN 1 Status:chip status error active
  84.007277 CAN 2 Status:chip status error active  - TxErr: 0 RxErr: 1
  85.007277 CAN 1 Status:chip status error active
  85.007277 CAN 2 Status:chip status error active  - TxErr: 0 RxErr: 1
  86.007278 CAN 1 Status:chip status error active
  86.007278 CAN 2 Status:chip status error active  - TxErr: 0 RxErr: 1
  87.007278 CAN 1 Status:chip status error active
  87.007278 CAN 2 Status:chip status error active  - TxErr: 0 RxErr: 1
  88.007278 CAN 1 Status:chip status error active
  88.007278 CAN 2 Status:chip status error active  - TxErr: 0 RxErr: 1
  89.007279 CAN 1 Status:chip status error active
  89.007279 CAN 2 Status:chip status error active  - TxErr: 0 RxErr: 1
  90.007279 CAN 1 Status:chip status error active
  90.007279 CAN 2 Status:chip status error active  - TxErr: 0 RxErr: 1
  91.007279 CAN 1 Status:chip status error active
  91.007279 CAN 2 Status:chip status error active  - TxErr: 0 RxErr: 1
  92.007280 CAN 1 Status:chip status error active
  92.007280 CAN 2 Status:chip status error active  - TxErr: 0 RxErr: 1
  93.007280 CAN 1 Status:chip status error active
  93.007280 CAN 2 Status:chip status error active  - TxErr: 0 RxErr: 1
  94.007280 CAN 1 Status:chip status error active
  94.007280 CAN 2 Status:chip status error active  - TxErr: 0 RxErr: 1
  95.007281 CAN 1 Status:chip status error active
  95.007281 CAN 2 Status:chip status error active  - TxErr: 0 RxErr: 1
  96.007281 CAN 1 Status:chip status error active
  96.007281 CAN 2 Status:chip status error active  - TxErr: 0 RxErr: 1
  97.007281 CAN 1 Status:chip status error active
  97.007281 CAN 2 Status:chip status error active  - TxErr: 0 RxErr: 1
  98.007282 CAN 1 Status:chip status error active
  98.007282 CAN 2 Status:chip status error active  - TxErr: 0 RxErr: 1
  99.007282 CAN 1 Status:chip status error active
  99.007282 CAN 2 Status:chip status error active  - TxErr: 0 RxErr: 1
 100.007282 CAN 1 Status:chip status error active
 100.007282 CAN 2 Status:chip status error active  - TxErr: 0 RxErr: 1
 101.007282 CAN 1 Status:chip status error active
 101.007282 CAN 2 Status:chip status error active  - TxErr: 0 RxErr: 1
 102.007283 CAN 1 Status:chip status error active
 102.007283 CAN 2 Status:chip status error active  - TxErr: 0 RxErr: 1
 103.007283 CAN 1 Status:chip status error active
 103.007283 CAN 2 Status:chip status error active  - TxErr: 0 RxErr: 1
 104.007283 CAN 1 Status:chip status error active
 104.007283 CAN 2 Status:chip status error active  - TxErr: 0 RxErr: 1
 105.007284 CAN 1 Status:chip status error active
 105.007284 CAN 2 Status:chip status error active  - TxErr: 0 RxErr: 1
 106.007284 CAN 1 Status:chip status error active
 106.007284 CAN 2 Status:chip status error active  - TxErr: 0 RxErr: 1
 107.007284 CAN 1 Status:chip status error active
 107.007284 CAN 2 Status:chip status error active  - TxErr: 0 RxErr: 1
 108.007285 CAN 1 Status:chip status error active
 108.007285 CAN 2 Status:chip status error active  - TxErr: 0 RxErr: 1
 109.007285 CAN 1 Status:chip status error active
 109.007285 CAN 2 Status:chip status error active  - TxErr: 0 RxErr: 1
 110.007285 CAN 1 Status:chip status error active
 110.007285 CAN 2 Status:chip status error active  - TxErr: 0 RxErr: 1
 111.007286 CAN 1 Status:chip status error active
 111.007286 CAN 2 Status:chip status error active  - TxErr: 0 RxErr: 1
 112.007286 CAN 1 Status:chip status error active
 112.007286 CAN 2 Status:chip status error active  - TxErr: 0 RxErr: 1
 113.007286 CAN 1 Status:chip status error active
 113.007286 CAN 2 Status:chip status error active  - TxErr: 0 RxErr: 1
 114.007287 CAN 1 Status:chip status error active
 114.007287 CAN 2 Status:chip status error active  - TxErr: 0 RxErr: 1
 115.007287 CAN 1 Status:chip status error active
 115.007287 CAN 2 Status:chip status error active  - TxErr: 0 RxErr: 1
 116.007287 CAN 1 Status:chip status error active
 116.007287 CAN 2 Status:chip status error active  - TxErr: 0 RxErr: 1
 117.007287 CAN 1 Status:chip status error active
 117.007287 CAN 2 Status:chip status error active  - TxErr: 0 RxErr: 1
 118.007288 CAN 1 Status:chip status error active
 118.007288 CAN 2 Status:chip status error active  - TxErr: 0 RxErr: 1
 119.007288 CAN 1 Status:chip status error active
 119.007288 CAN 2 Status:chip status error active  - TxErr: 0 RxErr: 1
 120.007288 CAN 1 Status:chip status error active
 120.007288 CAN 2 Status:chip status error active  - TxErr: 0 RxErr: 1
 121.007289 CAN 1 Status:chip status error active
 121.007289 CAN 2 Status:chip status error active  - TxErr: 0 RxErr: 1
 122.007289 CAN 1 Status:chip status error active
 122.007289 CAN 2 Status:chip status error active  - TxErr: 0 RxErr: 1
 123.007289 CAN 1 Status:chip status error active
 123.007289 CAN 2 Status:chip status error active  - TxErr: 0 RxErr: 1
 124.007290 CAN 1 Status:chip status error active
 124.007290 CAN 2 Status:chip status error active  - TxErr: 0 RxErr: 1
 125.007290 CAN 1 Status:chip status error active
 125.007290 CAN 2 Status:chip status error active  - TxErr: 0 RxErr: 1
 126.007290 CAN 1 Status:chip status error active
 126.007290 CAN 2 Status:chip status error active  - TxErr: 0 RxErr: 1
 127.007291 CAN 1 Status:chip status error active
 127.007291 CAN 2 Status:chip status error active  - TxErr: 0 RxErr: 1
 128.007291 CAN 1 Status:chip status error active
 128.007291 CAN 2 Status:chip status error active  - TxErr: 0 RxErr: 1
 129.007291 CAN 1 Status:chip status error active
 129.007291 CAN 2 Status:chip status error active  - TxErr: 0 RxErr: 1
 130.007292 CAN 1 Status:chip status error active
 130.007292 CAN 2 Status:chip status error active  - TxErr: 0 RxErr: 1
 131.007292 CAN 1 Status:chip status error active
 131.007292 CAN 2 Status:chip status error active  - TxErr: 0 RxErr: 1
 132.007292 CAN 1 Status:chip status error active
 132.007292 CAN 2 Status:chip status error active  - TxErr: 0 RxErr: 1
 133.007292 CAN 1 Status:chip status error active
 133.007292 CAN 2 Status:chip status error active  - TxErr: 0 RxErr: 1
 134.007293 CAN 1 Status:chip status error active
 134.007293 CAN 2 Status:chip status error active  - TxErr: 0 RxErr: 1
 135.007293 CAN 1 Status:chip status error active
 135.007293 CAN 2 Status:chip status error active  - TxErr: 0 RxErr: 1
 136.007293 CAN 1 Status:chip status error active
 136.007293 CAN 2 Status:chip status error active  - TxErr: 0 RxErr: 1
 137.007294 CAN 1 Status:chip status error active
 137.007294 CAN 2 Status:chip status error active  - TxErr: 0 RxErr: 1
 138.007294 CAN 1 Status:chip status error active
 138.007294 CAN 2 Status:chip status error active  - TxErr: 0 RxErr: 1
 139.007294 CAN 1 Status:chip status error active
 139.007294 CAN 2 Status:chip status error active  - TxErr: 0 RxErr: 1
 140.007295 CAN 1 Status:chip status error active
 140.007295 CAN 2 Status:chip status error active  - TxErr: 0 RxErr: 1
 141.007295 CAN 1 Status:chip status error active
 141.007295 CAN 2 Status:chip status error active  - TxErr: 0 RxErr: 1
 142.007295 CAN 1 Status:chip status error active
 142.007295 CAN 2 Status:chip status error active  - TxErr: 0 RxErr: 1
 143.007296 CAN 1 Status:chip status error active
 143.007296 CAN 2 Status:chip status error active  - TxErr: 0 RxErr: 1
 144.007296 CAN 1 Status:chip status error active
 144.007296 CAN 2 Status:chip status error active  - TxErr: 0 RxErr: 1
 145.007296 CAN 1 Status:chip status error active
 145.007296 CAN 2 Status:chip status error active  - TxErr: 0 RxErr: 1
 146.007297 CAN 1 Status:chip status error active
 146.007297 CAN 2 Status:chip status error active  - TxErr: 0 RxErr: 1
 147.007297 CAN 1 Status:chip status error active
 147.007297 CAN 2 Status:chip status error active  - TxErr: 0 RxErr: 1
 148.007297 CAN 1 Status:chip status error active
 148.007297 CAN 2 Status:chip status error active  - TxErr: 0 RxErr: 1
 149.007297 CAN 1 Status:chip status error active
 149.007297 CAN 2 Status:chip status error active  - TxErr: 0 RxErr: 1
 150.007298 CAN 1 Status:chip status error active
 150.007298 CAN 2 Status:chip status error active  - TxErr: 0 RxErr: 1
 151.007298 CAN 1 Status:chip status error active
 151.007298 CAN 2 Status:chip status error active  - TxErr: 0 RxErr: 1
 152.007298 CAN 1 Status:chip status error active
 152.007298 CAN 2 Status:chip status error active  - TxErr: 0 RxErr: 1
 153.007299 CAN 1 Status:chip status error active
 153.007299 CAN 2 Status:chip status error active  - TxErr: 0 RxErr: 1
 154.007299 CAN 1 Status:chip status error active
 154.007299 CAN 2 Status:chip status error active  - TxErr: 0 RxErr: 1
 155.007299 CAN 1 Status:chip status error active
 155.007299 CAN 2 Status:chip status error active  - TxErr: 0 RxErr: 1
 156.007300 CAN 1 Status:chip status error active
 156.007300 CAN 2 Status:chip status error active  - TxErr: 0 RxErr: 1
 157.007300 CAN 1 Status:chip status error active
 157.007300 CAN 2 Status:chip status error active  - TxErr: 0 RxErr: 1
 158.007300 CAN 1 Status:chip status error active
 158.007300 CAN 2 Status:chip status error active  - TxErr: 0 RxErr: 1
 159.007301 CAN 1 Status:chip status error active
 159.007301 CAN 2 Status:chip status error active  - TxErr: 0 RxErr: 1
 160.007301 CAN 1 Status:chip status error active
 160.007301 CAN 2 Status:chip status error active  - TxErr: 0 RxErr: 1
 161.007301 CAN 1 Status:chip status error active
 161.007301 CAN 2 Status:chip status error active  - TxErr: 0 RxErr: 1
 162.007302 CAN 1 Status:chip status error active
 162.007302 CAN 2 Status:chip status error active  - TxErr: 0 RxErr: 1
 163.007302 CAN 1 Status:chip status error active
 163.007302 CAN 2 Status:chip status error active  - TxErr: 0 RxErr: 1
 164.007302 CAN 1 Status:chip status error active
 164.007302 CAN 2 Status:chip status error active  - TxErr: 0 RxErr: 1
 165.007302 CAN 1 Status:chip status error active
 165.007302 CAN 2 Status:chip status error active  - TxErr: 0 RxErr: 1
 166.007303 CAN 1 Status:chip status error active
 166.007303 CAN 2 Status:chip status error active  - TxErr: 0 RxErr: 1
 167.007303 CAN 1 Status:chip status error active
 167.007303 CAN 2 Status:chip status error active  - TxErr: 0 RxErr: 1
 168.007303 CAN 1 Status:chip status error active
 168.007303 CAN 2 Status:chip status error active  - TxErr: 0 RxErr: 1
 169.007304 CAN 1 Status:chip status error active
 169.007304 CAN 2 Status:chip status error active  - TxErr: 0 RxErr: 1
 170.007304 CAN 1 Status:chip status error active
 170.007304 CAN 2 Status:chip status error active  - TxErr: 0 RxErr: 1
 171.007304 CAN 1 Status:chip status error active
 171.007304 CAN 2 Status:chip status error active  - TxErr: 0 RxErr: 1
 172.007305 CAN 1 Status:chip status error active
 172.007305 CAN 2 Status:chip status error active  - TxErr: 0 RxErr: 1
 173.007305 CAN 1 Status:chip status error active
 173.007305 CAN 2 Status:chip status error active  - TxErr: 0 RxErr: 1
 174.007305 CAN 1 Status:chip status error active
 174.007305 CAN 2 Status:chip status error active  - TxErr: 0 RxErr: 1
 175.007306 CAN 1 Status:chip status error active
 175.007306 CAN 2 Status:chip status error active  - TxErr: 0 RxErr: 1
 176.007306 CAN 1 Status:chip status error active
 176.007306 CAN 2 Status:chip status error active  - TxErr: 0 RxErr: 1
 177.007306 CAN 1 Status:chip status error active
 177.007306 CAN 2 Status:chip status error active  - TxErr: 0 RxErr: 1
 178.007307 CAN 1 Status:chip status error active
 178.007307 CAN 2 Status:chip status error active  - TxErr: 0 RxErr: 1
 179.007307 CAN 1 Status:chip status error active
 179.007307 CAN 2 Status:chip status error active  - TxErr: 0 RxErr: 1
 180.007307 CAN 1 Status:chip status error active
 180.007307 CAN 2 Status:chip status error active  - TxErr: 0 RxErr: 1
 181.007307 CAN 1 Status:chip status error active
 181.007307 CAN 2 Status:chip status error active  - TxErr: 0 RxErr: 1
 182.007308 CAN 1 Status:chip status error active
 182.007308 CAN 2 Status:chip status error active  - TxErr: 0 RxErr: 1
 183.007308 CAN 1 Status:chip status error active
 183.007308 CAN 2 Status:chip status error active  - TxErr: 0 RxErr: 1
 184.007308 CAN 1 Status:chip status error active
 184.007308 CAN 2 Status:chip status error active  - TxErr: 0 RxErr: 1
 185.007309 CAN 1 Status:chip status error active
 185.007309 CAN 2 Status:chip status error active  - TxErr: 0 RxErr: 1
 186.007309 CAN 1 Status:chip status error active
 186.007309 CAN 2 Status:chip status error active  - TxErr: 0 RxErr: 1
 187.007309 CAN 1 Status:chip status error active
 187.007309 CAN 2 Status:chip status error active  - TxErr: 0 RxErr: 1
 188.007310 CAN 1 Status:chip status error active
 188.007310 CAN 2 Status:chip status error active  - TxErr: 0 RxErr: 1
 189.007310 CAN 1 Status:chip status error active
 189.007310 CAN 2 Status:chip status error active  - TxErr: 0 RxErr: 1
 190.007310 CAN 1 Status:chip status error active
 190.007310 CAN 2 Status:chip status error active  - TxErr: 0 RxErr: 1
 191.007311 CAN 1 Status:chip status error active
 191.007311 CAN 2 Status:chip status error active  - TxErr: 0 RxErr: 1
 192.007311 CAN 1 Status:chip status error active
 192.007311 CAN 2 Status:chip status error active  - TxErr: 0 RxErr: 1
 193.007311 CAN 1 Status:chip status error active
 193.007311 CAN 2 Status:chip status error active  - TxErr: 0 RxErr: 1
 194.007312 CAN 1 Status:chip status error active
 194.007312 CAN 2 Status:chip status error active  - TxErr: 0 RxErr: 1
 195.007312 CAN 1 Status:chip status error active
 195.007312 CAN 2 Status:chip status error active  - TxErr: 0 RxErr: 1
 196.007312 CAN 1 Status:chip status error active
 196.007312 CAN 2 Status:chip status error active  - TxErr: 0 RxErr: 1
 197.007312 CAN 1 Status:chip status error active
 197.007312 CAN 2 Status:chip status error active  - TxErr: 0 RxErr: 1
 198.007313 CAN 1 Status:chip status error active
 198.007313 CAN 2 Status:chip status error active  - TxErr: 0 RxErr: 1
 199.007313 CAN 1 Status:chip status error active
 199.007313 CAN 2 Status:chip status error active  - TxErr: 0 RxErr: 1
 200.007313 CAN 1 Status:chip status error active
 200.007313 CAN 2 Status:chip status error active  - TxErr: 0 RxErr: 1
 201.007314 CAN 1 Status:chip status error active
 201.007314 CAN 2 Status:chip status error active  - TxErr: 0 RxErr: 1
 202.007314 CAN 1 Status:chip status error active
 202.007314 CAN 2 Status:chip status error active  - TxErr: 0 RxErr: 1
 203.007314 CAN 1 Status:chip status error active
 203.007314 CAN 2 Status:chip status error active  - TxErr: 0 RxErr: 1
 204.007315 CAN 1 Status:chip status error active
 204.007315 CAN 2 Status:chip status error active  - TxErr: 0 RxErr: 1
 205.007315 CAN 1 Status:chip status error active
 205.007315 CAN 2 Status:chip status error active  - TxErr: 0 RxErr: 1
 206.007315 CAN 1 Status:chip status error active
 206.007315 CAN 2 Status:chip status error active  - TxErr: 0 RxErr: 1
 207.007316 CAN 1 Status:chip status error active
 207.007316 CAN 2 Status:chip status error active  - TxErr: 0 RxErr: 1
 208.007316 CAN 1 Status:chip status error active
 208.007316 CAN 2 Status:chip status error active  - TxErr: 0 RxErr: 1
 209.007316 CAN 1 Status:chip status error active
 209.007316 CAN 2 Status:chip status error active  - TxErr: 0 RxErr: 1
 210.007317 CAN 1 Status:chip status error active
 210.007317 CAN 2 Status:chip status error active  - TxErr: 0 RxErr: 1
 211.007317 CAN 1 Status:chip status error active
 211.007317 CAN 2 Status:chip status error active  - TxErr: 0 RxErr: 1
 212.007317 CAN 1 Status:chip status error active
 212.007317 CAN 2 Status:chip status error active  - TxErr: 0 RxErr: 1
 213.007317 CAN 1 Status:chip status error active
 213.007317 CAN 2 Status:chip status error active  - TxErr: 0 RxErr: 1
 214.007318 CAN 1 Status:chip status error active
 214.007318 CAN 2 Status:chip status error active  - TxErr: 0 RxErr: 1
 215.007318 CAN 1 Status:chip status error active
 215.007318 CAN 2 Status:chip status error active  - TxErr: 0 RxErr: 1
 216.007318 CAN 1 Status:chip status error active
 216.007318 CAN 2 Status:chip status error active  - TxErr: 0 RxErr: 1
 217.007319 CAN 1 Status:chip status error active
 217.007319 CAN 2 Status:chip status error active  - TxErr: 0 RxErr: 1
 218.007319 CAN 1 Status:chip status error active
 218.007319 CAN 2 Status:chip status error active  - TxErr: 0 RxErr: 1
 219.007319 CAN 1 Status:chip status error active
 219.007319 CAN 2 Status:chip status error active  - TxErr: 0 RxErr: 1
 220.007320 CAN 1 Status:chip status error active
 220.007320 CAN 2 Status:chip status error active  - TxErr: 0 RxErr: 1
 221.007320 CAN 1 Status:chip status error active
 221.007320 CAN 2 Status:chip status error active  - TxErr: 0 RxErr: 1
 222.007320 CAN 1 Status:chip status error active
 222.007320 CAN 2 Status:chip status error active  - TxErr: 0 RxErr: 1
 223.007321 CAN 1 Status:chip status error active
 223.007321 CAN 2 Status:chip status error active  - TxErr: 0 RxErr: 1
 224.007321 CAN 1 Status:chip status error active
 224.007321 CAN 2 Status:chip status error active  - TxErr: 0 RxErr: 1
 225.007321 CAN 1 Status:chip status error active
 225.007321 CAN 2 Status:chip status error active  - TxErr: 0 RxErr: 1
 226.007322 CAN 1 Status:chip status error active
 226.007322 CAN 2 Status:chip status error active  - TxErr: 0 RxErr: 1
 227.007322 CAN 1 Status:chip status error active
 227.007322 CAN 2 Status:chip status error active  - TxErr: 0 RxErr: 1
 228.007322 CAN 1 Status:chip status error active
 228.007322 CAN 2 Status:chip status error active  - TxErr: 0 RxErr: 1
 229.007322 CAN 1 Status:chip status error active
 229.007322 CAN 2 Status:chip status error active  - TxErr: 0 RxErr: 1
 230.007323 CAN 1 Status:chip status error active
 230.007323 CAN 2 Status:chip status error active  - TxErr: 0 RxErr: 1
 231.007323 CAN 1 Status:chip status error active
 231.007323 CAN 2 Status:chip status error active  - TxErr: 0 RxErr: 1
 232.007323 CAN 1 Status:chip status error active
 232.007323 CAN 2 Status:chip status error active  - TxErr: 0 RxErr: 1
 233.007324 CAN 1 Status:chip status error active
 233.007324 CAN 2 Status:chip status error active  - TxErr: 0 RxErr: 1
 234.007324 CAN 1 Status:chip status error active
 234.007324 CAN 2 Status:chip status error active  - TxErr: 0 RxErr: 1
 235.007324 CAN 1 Status:chip status error active
 235.007324 CAN 2 Status:chip status error active  - TxErr: 0 RxErr: 1
 236.007325 CAN 1 Status:chip status error active
 236.007325 CAN 2 Status:chip status error active  - TxErr: 0 RxErr: 1
 237.007325 CAN 1 Status:chip status error active
 237.007325 CAN 2 Status:chip status error active  - TxErr: 0 RxErr: 1
 238.007325 CAN 1 Status:chip status error active
 238.007325 CAN 2 Status:chip status error active  - TxErr: 0 RxErr: 1
 239.007326 CAN 1 Status:chip status error active
 239.007326 CAN 2 Status:chip status error active  - TxErr: 0 RxErr: 1
 240.007326 CAN 1 Status:chip status error active
 240.007326 CAN 2 Status:chip status error active  - TxErr: 0 RxErr: 1
 240.497033 CAN 2 Status:chip status error active
 240.497105 2  43D             Rx   d 8 1D 02 01 00 00 04 00 00  Length = 1179441 BitCount = 122 ID = 1085
 240.506945 2  5A7             Rx   d 8 1C 19 00 00 00 00 00 00  Length = 1179426 BitCount = 122 ID = 1447
 240.508215 2  5A9             Rx   d 8 00 00 00 00 00 00 00 00  Length = 1219426 BitCount = 126 ID = 1449
 240.546974 2  43D             Rx   d 8 1D 01 01 04 00 14 00 00  Length = 1169441 BitCount = 121 ID = 1085
 240.596944 2  5A9             Rx   d 8 00 00 03 00 00 00 00 00  Length = 1199426 BitCount = 124 ID = 1449
 240.602033 2  69E             Rx   d 4 40 00 01 02  Length = 809434 BitCount = 85 ID = 1694
 240.611563 2  69E             Rx   d 2 14 42  Length = 599461 BitCount = 64 ID = 1694
 240.626983 2  5A9             Rx   d 8 00 00 00 00 00 00 00 00  Length = 1219426 BitCount = 126 ID = 1449
 240.686972 2  43D             Rx   d 8 1D 02 01 04 00 14 00 00  Length = 1169426 BitCount = 121 ID = 1085
 240.693172 2  69E             Rx   d 2 19 42  Length = 599446 BitCount = 64 ID = 1694
 240.706981 2  5A7             Rx   d 8 00 19 00 00 00 00 00 00  Length = 1199426 BitCount = 124 ID = 1447
 240.727001 2  5A9             Rx   d 8 00 00 00 00 00 00 00 00  Length = 1219441 BitCount = 126 ID = 1449
 240.736991 2  43D             Rx   d 8 1D 01 01 04 00 14 00 00  Length = 1169441 BitCount = 121 ID = 1085
 240.816929 2  5A7             Rx   d 8 80 19 00 00 00 00 00 00  Length = 1189426 BitCount = 123 ID = 1447
 240.827009 2  5A9             Rx   d 8 00 00 00 00 00 00 00 00  Length = 1219426 BitCount = 126 ID = 1449
 240.876968 2  43D             Rx   d 8 1D 02 01 04 00 14 00 00  Length = 1169426 BitCount = 121 ID = 1085
 240.926997 2  5A9             Rx   d 8 00 00 00 00 00 00 00 00  Length = 1219426 BitCount = 126 ID = 1449
 240.928217 2  43D             Rx   d 8 1D 01 01 04 00 14 00 00  Length = 1169426 BitCount = 121 ID = 1085
 241.007326 CAN 1 Status:chip status error active
 241.007326 CAN 2 Status:chip status error active
 241.026966 2  5A9             Rx   d 8 00 00 00 00 00 00 00 00  Length = 1219426 BitCount = 126 ID = 1449
 241.037005 2  5A7             Rx   d 8 E0 16 00 00 00 00 00 00  Length = 1169441 BitCount = 121 ID = 1447
 241.066965 2  43D             Rx   d 8 1D 02 01 04 00 14 00 00  Length = 1169426 BitCount = 121 ID = 1085
 241.116954 2  43D             Rx   d 8 1D 01 01 04 00 14 00 00  Length = 1169426 BitCount = 121 ID = 1085
 241.226562 2  69E             Rx   d 2 14 42  Length = 599446 BitCount = 64 ID = 1694
 241.256971 2  43D             Rx   d 8 1D 02 01 04 00 14 00 00  Length = 1169426 BitCount = 121 ID = 1085
 241.276951 2  5A7             Rx   d 8 80 16 00 00 00 00 00 00  Length = 1179426 BitCount = 122 ID = 1447
 241.506927 2  5A7             Rx   d 8 80 16 00 00 00 00 00 00  Length = 1179426 BitCount = 122 ID = 1447
 241.508187 2  5A9             Rx   d 8 00 00 00 00 00 00 00 00  Length = 1219426 BitCount = 126 ID = 1449
 241.756932 2  43D             Rx   d 8 1D 04 01 04 00 14 00 00  Length = 1159426 BitCount = 120 ID = 1085
 242.007327 CAN 1 Status:chip status error active
 242.007327 CAN 2 Status:chip status error active
 242.256923 2  43D             Rx   d 8 1D 04 01 04 00 14 00 00  Length = 1159426 BitCount = 120 ID = 1085
 242.506908 2  5A7             Rx   d 8 80 16 00 00 00 00 00 00  Length = 1179441 BitCount = 122 ID = 1447
 242.508168 2  5A9             Rx   d 8 00 00 00 00 00 00 00 00  Length = 1219426 BitCount = 126 ID = 1449
 242.756914 2  43D             Rx   d 8 1D 04 01 04 00 14 00 00  Length = 1159426 BitCount = 120 ID = 1085
 243.007327 CAN 1 Status:chip status error active
 243.007327 CAN 2 Status:chip status error active
 243.256904 2  43D             Rx   d 8 1D 04 01 04 00 14 00 00  Length = 1159426 BitCount = 120 ID = 1085
 243.506890 2  5A7             Rx   d 8 80 16 00 00 00 00 00 00  Length = 1179426 BitCount = 122 ID = 1447
 243.508150 2  5A9             Rx   d 8 00 00 00 00 00 00 00 00  Length = 1219426 BitCount = 126 ID = 1449
 243.756895 2  43D             Rx   d 8 1D 04 01 04 00 14 00 00  Length = 1159426 BitCount = 120 ID = 1085
 244.007327 CAN 1 Status:chip status error active
 244.007327 CAN 2 Status:chip status error active
 244.256886 2  43D             Rx   d 8 1D 04 01 04 00 14 00 00  Length = 1159426 BitCount = 120 ID = 1085
 244.506861 2  5A7             Rx   d 8 80 16 00 00 00 00 00 00  Length = 1179426 BitCount = 122 ID = 1447
 244.508121 2  5A9             Rx   d 8 00 00 00 00 00 00 00 00  Length = 1219426 BitCount = 126 ID = 1449
 244.756887 2  43D             Rx   d 8 1D 04 01 00 00 14 00 00  Length = 1169426 BitCount = 121 ID = 1085
 245.007327 CAN 1 Status:chip status error active
 245.007327 CAN 2 Status:chip status error active
 245.256857 2  43D             Rx   d 8 1D 14 01 00 00 14 00 00  Length = 1149426 BitCount = 119 ID = 1085
 246.007328 CAN 1 Status:chip status error active
 246.007328 CAN 2 Status:chip status error active
 247.007328 CAN 1 Status:chip status error active
 247.007328 CAN 2 Status:chip status error active
 248.007328 CAN 1 Status:chip status error active
 248.007328 CAN 2 Status:chip status error active
 249.007329 CAN 1 Status:chip status error active
 249.007329 CAN 2 Status:chip status error active
 250.007329 CAN 1 Status:chip status error active
 250.007329 CAN 2 Status:chip status error active
 251.007329 CAN 1 Status:chip status error active
 251.007329 CAN 2 Status:chip status error active
 252.007330 CAN 1 Status:chip status error active
 252.007330 CAN 2 Status:chip status error active
 253.007330 CAN 1 Status:chip status error active
 253.007330 CAN 2 Status:chip status error active
 254.007330 CAN 1 Status:chip status error active
 254.007330 CAN 2 Status:chip status error active
 255.007331 CAN 1 Status:chip status error active
 255.007331 CAN 2 Status:chip status error active
 256.007331 CAN 1 Status:chip status error active
 256.007331 CAN 2 Status:chip status error active
 257.007331 CAN 1 Status:chip status error active
 257.007331 CAN 2 Status:chip status error active
 258.007332 CAN 1 Status:chip status error active
 258.007332 CAN 2 Status:chip status error active
 259.007332 CAN 1 Status:chip status error active
 259.007332 CAN 2 Status:chip status error active
 260.007332 CAN 1 Status:chip status error active
 260.007332 CAN 2 Status:chip status error active
 261.007332 CAN 1 Status:chip status error active
 261.007332 CAN 2 Status:chip status error active
 262.007333 CAN 1 Status:chip status error active
 262.007333 CAN 2 Status:chip status error active
 263.007333 CAN 1 Status:chip status error active
 263.007333 CAN 2 Status:chip status error active
 264.007333 CAN 1 Status:chip status error active
 264.007333 CAN 2 Status:chip status error active
 265.007334 CAN 1 Status:chip status error active
 265.007334 CAN 2 Status:chip status error active
 266.007334 CAN 1 Status:chip status error active
 266.007334 CAN 2 Status:chip status error active
 267.007334 CAN 1 Status:chip status error active
 267.007334 CAN 2 Status:chip status error active
 268.007335 CAN 1 Status:chip status error active
 268.007335 CAN 2 Status:chip status error active
 269.007335 CAN 1 Status:chip status error active
 269.007335 CAN 2 Status:chip status error active
 270.007335 CAN 1 Status:chip status error active
 270.007335 CAN 2 Status:chip status error active
 271.007336 CAN 1 Status:chip status error active
 271.007336 CAN 2 Status:chip status error active
 272.007336 CAN 1 Status:chip status error active
 272.007336 CAN 2 Status:chip status error active
 273.007336 CAN 1 Status:chip status error active
 273.007336 CAN 2 Status:chip status error active
 274.007337 CAN 1 Status:chip status error active
 274.007337 CAN 2 Status:chip status error active
 275.007337 CAN 1 Status:chip status error active
 275.007337 CAN 2 Status:chip status error active
 276.007337 CAN 1 Status:chip status error active
 276.007337 CAN 2 Status:chip status error active
 277.007337 CAN 1 Status:chip status error active
 277.007337 CAN 2 Status:chip status error active
 278.007338 CAN 1 Status:chip status error active
 278.007338 CAN 2 Status:chip status error active
 279.007338 CAN 1 Status:chip status error active
 279.007338 CAN 2 Status:chip status error active
 280.007338 CAN 1 Status:chip status error active
 280.007338 CAN 2 Status:chip status error active
 281.007339 CAN 1 Status:chip status error active
 281.007339 CAN 2 Status:chip status error active
 282.007339 CAN 1 Status:chip status error active
 282.007339 CAN 2 Status:chip status error active
 283.007339 CAN 1 Status:chip status error active
 283.007339 CAN 2 Status:chip status error active
 284.007340 CAN 1 Status:chip status error active
 284.007340 CAN 2 Status:chip status error active
 285.007340 CAN 1 Status:chip status error active
 285.007340 CAN 2 Status:chip status error active
 286.007340 CAN 1 Status:chip status error active
 286.007340 CAN 2 Status:chip status error active
 287.007341 CAN 1 Status:chip status error active
 287.007341 CAN 2 Status:chip status error active
 288.007341 CAN 1 Status:chip status error active
 288.007341 CAN 2 Status:chip status error active
 289.007341 CAN 1 Status:chip status error active
 289.007341 CAN 2 Status:chip status error active
 290.007342 CAN 1 Status:chip status error active
 290.007342 CAN 2 Status:chip status error active
 291.007342 CAN 1 Status:chip status error active
 291.007342 CAN 2 Status:chip status error active
 292.007342 CAN 1 Status:chip status error active
 292.007342 CAN 2 Status:chip status error active
 293.007342 CAN 1 Status:chip status error active
 293.007342 CAN 2 Status:chip status error active
 294.007343 CAN 1 Status:chip status error active
 294.007343 CAN 2 Status:chip status error active
 295.007343 CAN 1 Status:chip status error active
 295.007343 CAN 2 Status:chip status error active
 296.007343 CAN 1 Status:chip status error active
 296.007343 CAN 2 Status:chip status error active
 297.007344 CAN 1 Status:chip status error active
 297.007344 CAN 2 Status:chip status error active
 298.007344 CAN 1 Status:chip status error active
 298.007344 CAN 2 Status:chip status error active
 299.007344 CAN 1 Status:chip status error active
 299.007344 CAN 2 Status:chip status error active
 300.007345 CAN 1 Status:chip status error active
 300.007345 CAN 2 Status:chip status error active
 301.007345 CAN 1 Status:chip status error active
 301.007345 CAN 2 Status:chip status error active
 302.007345 CAN 1 Status:chip status error active
 302.007345 CAN 2 Status:chip status error active
 303.007346 CAN 1 Status:chip status error active
 303.007346 CAN 2 Status:chip status error active
 304.007346 CAN 1 Status:chip status error active
 304.007346 CAN 2 Status:chip status error active
 305.007346 CAN 1 Status:chip status error active
 305.007346 CAN 2 Status:chip status error active
 306.007347 CAN 1 Status:chip status error active
 306.007347 CAN 2 Status:chip status error active
 307.007347 CAN 1 Status:chip status error active
 307.007347 CAN 2 Status:chip status error active
 308.007347 CAN 1 Status:chip status error active
 308.007347 CAN 2 Status:chip status error active
 309.007347 CAN 1 Status:chip status error active
 309.007347 CAN 2 Status:chip status error active
 310.007348 CAN 1 Status:chip status error active
 310.007348 CAN 2 Status:chip status error active
 311.007348 CAN 1 Status:chip status error active
 311.007348 CAN 2 Status:chip status error active
 312.007348 CAN 1 Status:chip status error active
 312.007348 CAN 2 Status:chip status error active
 313.007349 CAN 1 Status:chip status error active
 313.007349 CAN 2 Status:chip status error active
 314.007349 CAN 1 Status:chip status error active
 314.007349 CAN 2 Status:chip status error active
 315.007349 CAN 1 Status:chip status error active
 315.007349 CAN 2 Status:chip status error active
 316.007350 CAN 1 Status:chip status error active
 316.007350 CAN 2 Status:chip status error active
 317.007350 CAN 1 Status:chip status error active
 317.007350 CAN 2 Status:chip status error active
 318.007350 CAN 1 Status:chip status error active
 318.007350 CAN 2 Status:chip status error active
 319.007351 CAN 1 Status:chip status error active
 319.007351 CAN 2 Status:chip status error active
 320.007351 CAN 1 Status:chip status error active
 320.007351 CAN 2 Status:chip status error active
 321.007351 CAN 1 Status:chip status error active
 321.007351 CAN 2 Status:chip status error active
 322.007352 CAN 1 Status:chip status error active
 322.007352 CAN 2 Status:chip status error active
 323.007352 CAN 1 Status:chip status error active
 323.007352 CAN 2 Status:chip status error active
 324.007352 CAN 1 Status:chip status error active
 324.007352 CAN 2 Status:chip status error active
