date Wed Mar 25 01:00:37.644 pm 2020
base hex  timestamps absolute
internal events logged
// version 11.0.0
   0.020974 CAN 1 Status:chip status error active
   0.020974 CAN 2 Status:chip status error active
   0.993335 2  400             Rx   d 8 00 02 0A 04 04 04 00 00  Length = 1199441 BitCount = 124 ID = 1024
   1.002754 2  35B             Rx   d 8 0F 00 00 00 20 19 0C 00  Length = 1169426 BitCount = 121 ID = 859
   1.003494 2  457             Rx   d 3 00 47 00  Length = 699442 BitCount = 74 ID = 1111
   1.012733 2  320             Rx   d 8 01 00 00 01 00 06 00 80  Length = 1179426 BitCount = 122 ID = 800
   1.013593 2  575             Rx   d 4 00 00 00 00  Length = 819434 BitCount = 86 ID = 1397
   1.020974 CAN 1 Status:chip status error active
   1.020974 CAN 2 Status:chip status error active
   1.022743 2  367             Rx   d 8 FF 00 00 00 7F EF 01 00  Length = 1169426 BitCount = 121 ID = 871
   1.023983 2  369             Rx   d 8 3F 00 00 D0 FF 00 00 00  Length = 1189426 BitCount = 123 ID = 873
   1.025223 2  470             Rx   d 8 40 08 00 00 00 00 00 16  Length = 1199426 BitCount = 124 ID = 1136
   1.032582 2  381             Rx   d 6 00 00 00 00 00 00  Length = 1029430 BitCount = 107 ID = 897
   1.033432 2  531             Rx   d 4 00 20 A0 80  Length = 799438 BitCount = 84 ID = 1329
   1.042852 2  397             Rx   d 8 00 00 00 00 00 00 00 00  Length = 1199426 BitCount = 124 ID = 919
   1.043901 2  4B9             Rx   d 6 00 00 00 00 00 00  Length = 1009430 BitCount = 105 ID = 1209
   1.045141 2  591             Rx   d 8 00 00 08 00 00 00 00 00  Length = 1199426 BitCount = 124 ID = 1425
   1.045971 2  653             Rx   d 4 41 01 41 01  Length = 789449 BitCount = 83 ID = 1619
   1.047191 2  400             Rx   d 8 00 01 0A 04 0C 04 00 00  Length = 1179426 BitCount = 122 ID = 1024
   1.052551 2  4BD             Rx   d 6 01 00 00 00 00 00  Length = 999430 BitCount = 104 ID = 1213
   1.053761 2  658             Rx   d 8 50 28 00 08 00 8F 00 00  Length = 1169426 BitCount = 121 ID = 1624
   1.058181 2  67C             Rx   d 2 1C 42  Length = 609446 BitCount = 65 ID = 1660
   1.062610 2  3B5             Rx   d 6 00 00 00 00 00 00  Length = 1029445 BitCount = 107 ID = 949
   1.063280 2  5D1             Rx   d 2 10 00  Length = 629442 BitCount = 67 ID = 1489
   1.070610 2  62A             Rx   d 8 40 10 00 00 00 00 00 00  Length = 1179426 BitCount = 122 ID = 1578
   1.072160 2  679             Rx   d 4 40 00 01 1E  Length = 799438 BitCount = 84 ID = 1657
   1.073400 2  470             Rx   d 8 40 08 00 00 00 00 00 16  Length = 1199426 BitCount = 124 ID = 1136
   1.074600 2  35B             Rx   d 8 0E 00 00 00 20 19 0C 00  Length = 1159426 BitCount = 120 ID = 859
   1.075819 2  367             Rx   d 8 FC 00 00 00 7F EF 01 00  Length = 1179426 BitCount = 122 ID = 871
   1.077019 2  359             Rx   d 8 FF 89 FF 00 00 6B 80 00  Length = 1159426 BitCount = 120 ID = 857
   1.078219 2  35B             Rx   d 8 06 00 00 00 20 19 0C 00  Length = 1159426 BitCount = 120 ID = 859
   1.079419 2  35B             Rx   d 8 04 00 00 00 20 19 0C 00  Length = 1159426 BitCount = 120 ID = 859
   1.080629 2  35B             Rx   d 8 00 00 00 00 20 19 08 00  Length = 1169441 BitCount = 121 ID = 859
   1.081849 2  58C             Rx   d 8 80 00 B6 C0 00 00 00 04  Length = 1179426 BitCount = 122 ID = 1420
   1.083059 2  679             Rx   d 8 07 42 03 00 1D 00 04 00  Length = 1169441 BitCount = 121 ID = 1657
   1.084109 2  2C1             Rx   d 6 00 00 00 00 02 00  Length = 1009430 BitCount = 105 ID = 705
   1.084949 2  531             Rx   d 4 00 20 B0 90  Length = 789438 BitCount = 83 ID = 1329
   1.086099 2  651             Rx   d 8 80 02 50 AF 39 59 01 00  Length = 1109430 BitCount = 115 ID = 1617
   1.092718 2  359             Rx   d 8 FF 89 FF 00 00 6B 80 00  Length = 1159426 BitCount = 120 ID = 857
   1.093958 2  555             Rx   d 8 00 00 7C 00 01 00 00 00  Length = 1199426 BitCount = 124 ID = 1365
   1.102748 2  35B             Rx   d 8 00 00 00 00 20 19 08 00  Length = 1169426 BitCount = 121 ID = 859
   1.103488 2  457             Rx   d 3 00 47 00  Length = 699453 BitCount = 74 ID = 1111
   1.113127 2  61A             Rx   d 8 6D 01 80 00 23 30 FF 00  Length = 1129430 BitCount = 117 ID = 1562
   1.122767 2  369             Rx   d 8 3D 00 00 D0 FF 00 00 00  Length = 1179441 BitCount = 122 ID = 873
   1.123986 2  470             Rx   d 8 40 08 00 64 00 00 00 16  Length = 1179426 BitCount = 122 ID = 1136
   1.124746 2  635             Rx   d 3 00 00 18  Length = 719438 BitCount = 76 ID = 1589
   1.125976 2  470             Rx   d 8 40 08 00 64 00 00 00 16  Length = 1179426 BitCount = 122 ID = 1136
   1.127516 2  3E1             Rx   d 8 80 00 00 00 00 00 04 F8  Length = 1199426 BitCount = 124 ID = 993
   1.128786 2  3E3             Rx   d 8 00 00 FF 00 00 00 00 00  Length = 1209426 BitCount = 125 ID = 995
   1.130066 2  3E9             Rx   d 8 FE F8 DF FF 00 00 00 00  Length = 1179441 BitCount = 122 ID = 1001
   1.131336 2  40C             Rx   d 8 0C 02 01 04 00 04 00 00  Length = 1199426 BitCount = 124 ID = 1036
   1.132516 2  5E1             Rx   d 7 00 00 00 00 00 00 00  Length = 1109430 BitCount = 115 ID = 1505
   1.133586 2  381             Rx   d 6 00 00 00 00 00 00  Length = 1029445 BitCount = 107 ID = 897
   1.134817 2  5E8             Rx   d 8 00 00 FF FF 00 0C 00 00  Length = 1189426 BitCount = 123 ID = 1512
   1.135657 2  531             Rx   d 4 00 20 C0 E0  Length = 799438 BitCount = 84 ID = 1329
   1.140276 2  621             Rx   d 8 00 75 19 00 00 3B 18 00  Length = 1139430 BitCount = 118 ID = 1569
   1.142806 2  397             Rx   d 8 00 00 00 00 00 00 00 00  Length = 1199426 BitCount = 124 ID = 919
   1.143876 2  4B9             Rx   d 6 00 00 00 00 00 00  Length = 1009430 BitCount = 105 ID = 1209
   1.145056 2  655             Rx   d 8 75 00 F0 03 18 00 80 C0  Length = 1139430 BitCount = 118 ID = 1621
   1.152076 2  679             Rx   d 3 47 4D 10  Length = 689453 BitCount = 73 ID = 1657
   1.153166 2  4BD             Rx   d 6 01 00 00 00 00 00  Length = 999430 BitCount = 104 ID = 1213
   1.154376 2  658             Rx   d 8 50 28 00 08 00 8F 00 00  Length = 1169426 BitCount = 121 ID = 1624
   1.162615 2  3B5             Rx   d 6 00 00 00 00 00 00  Length = 1029430 BitCount = 107 ID = 949
   1.163795 2  527             Rx   d 8 00 01 00 10 71 70 71 08  Length = 1139430 BitCount = 118 ID = 1319
   1.164795 2  6B4             Rx   d 6 93 01 DF 01 61 78  Length = 959445 BitCount = 100 ID = 1716
   1.172734 2  470             Rx   d 8 40 08 00 64 00 00 00 16  Length = 1179426 BitCount = 122 ID = 1136
   1.175324 2  386             Rx   d 8 00 00 00 00 00 00 00 64  Length = 1189426 BitCount = 123 ID = 902
   1.176564 2  569             Rx   d 8 00 00 00 3E 00 10 00 00  Length = 1199426 BitCount = 124 ID = 1385
   1.177794 2  40C             Rx   d 8 0C 01 01 04 00 04 00 00  Length = 1189426 BitCount = 123 ID = 1036
   1.179014 2  58C             Rx   d 8 80 00 B6 C0 00 00 00 04  Length = 1179426 BitCount = 122 ID = 1420
   1.180224 2  5AC             Rx   d 8 FE 6F 05 05 28 00 00 00  Length = 1169426 BitCount = 121 ID = 1452
   1.181444 2  61C             Rx   d 8 00 90 01 00 FE 03 00 1E  Length = 1179441 BitCount = 122 ID = 1564
   1.182624 2  2C1             Rx   d 6 00 00 00 00 02 00  Length = 1009430 BitCount = 105 ID = 705
   1.183794 2  3C3             Rx   d 8 89 27 00 00 CE 51 00 FE  Length = 1129441 BitCount = 117 ID = 963
   1.184654 2  531             Rx   d 4 00 20 D0 F0  Length = 799438 BitCount = 84 ID = 1329
   1.185804 2  651             Rx   d 8 80 02 50 AF 39 59 01 00  Length = 1109445 BitCount = 115 ID = 1617
   1.187033 2  400             Rx   d 8 00 02 0A 04 0C 04 00 00  Length = 1189441 BitCount = 123 ID = 1024
   1.188304 2  436             Rx   d 8 16 02 01 04 00 00 02 00  Length = 1169426 BitCount = 121 ID = 1078
   1.189463 2  60E             Rx   d 2 08 02  Length = 629457 BitCount = 67 ID = 1550
   1.192943 2  359             Rx   d 8 FF 89 FF 00 00 6B 80 00  Length = 1159441 BitCount = 120 ID = 857
   1.194183 2  555             Rx   d 8 00 00 7C 00 01 00 00 00  Length = 1199426 BitCount = 124 ID = 1365
   1.195693 2  481             Rx   d 2 00 00  Length = 649442 BitCount = 69 ID = 1153
   1.196973 2  661             Rx   d 8 00 00 00 00 00 00 00 00  Length = 1199426 BitCount = 124 ID = 1633
   1.198133 2  665             Rx   d 7 00 00 00 00 00 00 00  Length = 1099430 BitCount = 114 ID = 1637
   1.198863 2  666             Rx   d 2 00 00  Length = 639442 BitCount = 68 ID = 1638
   1.202043 2  679             Rx   d 3 47 52 00  Length = 689442 BitCount = 73 ID = 1657
   1.203252 2  35B             Rx   d 8 00 00 00 00 20 19 08 00  Length = 1169426 BitCount = 121 ID = 859
   1.203992 2  457             Rx   d 3 00 47 00  Length = 699442 BitCount = 74 ID = 1111
   1.213192 2  320             Rx   d 8 00 00 00 01 00 0C 00 80  Length = 1209426 BitCount = 125 ID = 800
   1.214062 2  575             Rx   d 4 00 00 00 00  Length = 819434 BitCount = 86 ID = 1397
   1.215232 2  65D             Rx   d 8 81 F8 26 D0 F0 DC 80 10  Length = 1129430 BitCount = 117 ID = 1629
   1.216092 2  69C             Rx   d 4 40 00 01 0A  Length = 819434 BitCount = 86 ID = 1692
   1.221551 2  69C             Rx   d 8 09 42 03 00 25 00 04 00  Length = 1159426 BitCount = 120 ID = 1692
   1.222731 2  6E7             Rx   d 8 04 42 03 00 11 00 04 01  Length = 1139441 BitCount = 118 ID = 1767
   1.223951 2  367             Rx   d 8 FC 00 00 00 7F EF 01 00  Length = 1179426 BitCount = 122 ID = 871
   1.225181 2  369             Rx   d 8 3D 00 00 D0 FF 00 00 00  Length = 1179426 BitCount = 122 ID = 873
   1.226401 2  470             Rx   d 8 40 08 00 64 00 00 00 16  Length = 1179426 BitCount = 122 ID = 1136
   1.227631 2  386             Rx   d 8 00 00 00 00 00 00 00 64  Length = 1189426 BitCount = 123 ID = 902
   1.228861 2  3E1             Rx   d 8 80 00 00 00 00 00 84 F8  Length = 1189426 BitCount = 123 ID = 993
   1.230081 2  569             Rx   d 8 00 00 00 3A 00 00 00 00  Length = 1179426 BitCount = 122 ID = 1385
   1.232601 2  381             Rx   d 6 00 00 00 00 00 00  Length = 1029445 BitCount = 107 ID = 897
   1.233451 2  531             Rx   d 4 00 20 E0 C0  Length = 799438 BitCount = 84 ID = 1329
   1.234670 2  400             Rx   d 8 16 01 0A 04 0C 04 00 00  Length = 1179441 BitCount = 122 ID = 1024
   1.240240 2  65F             Rx   d 8 00 AA 8C 8E C0 00 00 00  Length = 1119430 BitCount = 116 ID = 1631
   1.241420 2  621             Rx   d 8 00 75 19 00 00 3B 18 00  Length = 1139430 BitCount = 118 ID = 1569
   1.242800 2  397             Rx   d 8 00 00 00 00 00 00 00 00  Length = 1199426 BitCount = 124 ID = 919
   1.243850 2  4B9             Rx   d 6 00 00 00 00 00 00  Length = 1009430 BitCount = 105 ID = 1209
   1.245090 2  591             Rx   d 8 00 00 08 00 00 00 00 00  Length = 1199426 BitCount = 124 ID = 1425
   1.246330 2  40C             Rx   d 8 16 02 01 04 00 04 00 00  Length = 1199426 BitCount = 124 ID = 1036
   1.247570 2  57C             Rx   d 8 20 FE 03 00 00 00 00 DD  Length = 1199426 BitCount = 124 ID = 1404
   1.252209 2  679             Rx   d 4 47 54 04 00  Length = 779453 BitCount = 82 ID = 1657
   1.253249 2  4BD             Rx   d 6 01 00 00 00 00 00  Length = 999430 BitCount = 104 ID = 1213
   1.254469 2  658             Rx   d 8 50 28 00 08 00 8F 00 00  Length = 1169426 BitCount = 121 ID = 1624
   1.262599 2  3B5             Rx   d 6 00 00 00 00 00 00  Length = 1029430 BitCount = 107 ID = 949
   1.263269 2  5D1             Rx   d 2 10 00  Length = 629442 BitCount = 67 ID = 1489
   1.272728 2  470             Rx   d 8 40 08 00 64 00 00 00 16  Length = 1179426 BitCount = 122 ID = 1136
   1.274418 2  386             Rx   d 8 00 00 00 00 00 00 00 64  Length = 1189441 BitCount = 123 ID = 902
   1.276248 2  436             Rx   d 8 00 01 01 04 00 00 02 00  Length = 1189426 BitCount = 123 ID = 1078
   1.277458 2  58C             Rx   d 8 80 00 B6 C0 00 00 00 E4  Length = 1169426 BitCount = 121 ID = 1420
   1.278698 2  5AC             Rx   d 8 FE 6F 00 00 00 00 00 00  Length = 1199426 BitCount = 124 ID = 1452
   1.282587 2  2C1             Rx   d 6 00 00 00 00 02 00  Length = 1009430 BitCount = 105 ID = 705
   1.283737 2  3C3             Rx   d 8 89 27 00 00 CE F1 00 5E  Length = 1109445 BitCount = 115 ID = 963
   1.284597 2  531             Rx   d 4 00 20 F0 D0  Length = 809434 BitCount = 85 ID = 1329
   1.285747 2  651             Rx   d 8 80 02 50 AF 39 59 01 00  Length = 1109430 BitCount = 115 ID = 1617
   1.290437 2  629             Rx   d 8 FF 0F FF 7F F8 26 40 00  Length = 1149426 BitCount = 119 ID = 1577
   1.292707 2  359             Rx   d 8 FF 89 FF 00 00 6B 80 00  Length = 1159426 BitCount = 120 ID = 857
   1.293947 2  555             Rx   d 8 00 00 7C 00 01 00 00 00  Length = 1199426 BitCount = 124 ID = 1365
   1.303156 2  35B             Rx   d 8 00 00 00 00 20 19 08 00  Length = 1169426 BitCount = 121 ID = 859
   1.303896 2  457             Rx   d 3 00 47 00  Length = 699442 BitCount = 74 ID = 1111
   1.315495 2  62B             Rx   d 8 00 10 00 40 1B 00 FE 7F  Length = 1149426 BitCount = 119 ID = 1579
   1.322755 2  369             Rx   d 8 3D 00 00 D0 FF 00 00 00  Length = 1179426 BitCount = 122 ID = 873
   1.323975 2  470             Rx   d 8 40 08 00 64 00 00 00 16  Length = 1179426 BitCount = 122 ID = 1136
   1.324865 2  635             Rx   d 3 00 00 18  Length = 719438 BitCount = 76 ID = 1589
   1.326095 2  3E1             Rx   d 8 80 00 00 00 00 00 84 F8  Length = 1189441 BitCount = 123 ID = 993
   1.327315 2  400             Rx   d 8 0C 01 0A 04 0C 04 00 00  Length = 1179426 BitCount = 122 ID = 1024
   1.328545 2  386             Rx   d 8 00 00 00 00 00 00 00 64  Length = 1189426 BitCount = 123 ID = 902
   1.329695 2  5E1             Rx   d 7 00 00 00 00 00 00 00  Length = 1109430 BitCount = 115 ID = 1505
   1.332574 2  381             Rx   d 6 00 00 00 00 00 00  Length = 1029430 BitCount = 107 ID = 897
   1.333434 2  531             Rx   d 4 00 20 00 20  Length = 809434 BitCount = 85 ID = 1329
   1.335714 2  5E8             Rx   d 8 00 40 00 00 00 00 40 00  Length = 1209426 BitCount = 125 ID = 1512
   1.340264 2  621             Rx   d 8 00 75 19 00 00 3B 18 00  Length = 1139430 BitCount = 118 ID = 1569
   1.341424 2  62D             Rx   d 8 00 10 F4 40 54 03 11 40  Length = 1119441 BitCount = 116 ID = 1581
   1.342784 2  397             Rx   d 8 00 00 00 00 00 00 00 00  Length = 1199426 BitCount = 124 ID = 919
   1.343834 2  4B9             Rx   d 6 00 00 00 00 00 00  Length = 1009430 BitCount = 105 ID = 1209
   1.345084 2  5F5             Rx   d 8 00 10 00 00 00 00 00 00  Length = 1209426 BitCount = 125 ID = 1525
   1.352554 2  4BD             Rx   d 6 01 00 00 00 00 00  Length = 999430 BitCount = 104 ID = 1213
   1.353783 2  658             Rx   d 8 78 28 00 08 00 8F 00 00  Length = 1179426 BitCount = 122 ID = 1624
   1.354943 2  61A             Rx   d 8 4F 02 80 20 22 30 FF 00  Length = 1119430 BitCount = 116 ID = 1562
   1.356163 2  35B             Rx   d 8 00 00 00 00 20 19 0C 00  Length = 1179441 BitCount = 122 ID = 859
   1.357303 2  5E1             Rx   d 7 80 00 00 00 00 00 00  Length = 1099430 BitCount = 114 ID = 1505
   1.362603 2  3B5             Rx   d 6 00 00 00 00 00 00  Length = 1029430 BitCount = 107 ID = 949
   1.363783 2  527             Rx   d 8 00 01 00 10 71 70 71 08  Length = 1139441 BitCount = 118 ID = 1319
   1.372722 2  470             Rx   d 8 40 08 00 64 00 00 00 16  Length = 1179441 BitCount = 122 ID = 1136
   1.373982 2  64F             Rx   d 8 3F 00 00 00 00 00 00 00  Length = 1209426 BitCount = 125 ID = 1615
   1.375212 2  386             Rx   d 8 00 00 00 00 00 00 00 64  Length = 1189441 BitCount = 123 ID = 902
   1.376442 2  40C             Rx   d 8 16 01 01 04 00 04 00 00  Length = 1189441 BitCount = 123 ID = 1036
   1.377652 2  58C             Rx   d 8 80 00 B6 C0 00 00 00 E5  Length = 1169426 BitCount = 121 ID = 1420
   1.378892 2  5AC             Rx   d 8 FE 6F 00 00 00 00 00 00  Length = 1199426 BitCount = 124 ID = 1452
   1.382572 2  2C1             Rx   d 6 00 00 00 00 02 00  Length = 1009445 BitCount = 105 ID = 705
   1.383732 2  3C3             Rx   d 8 89 27 00 00 CE 91 00 BE  Length = 1119430 BitCount = 116 ID = 963
   1.384582 2  531             Rx   d 4 00 20 10 30  Length = 799438 BitCount = 84 ID = 1329
   1.385732 2  651             Rx   d 8 80 02 50 AF 39 59 01 00  Length = 1109430 BitCount = 115 ID = 1617
   1.393152 2  359             Rx   d 8 FF 89 FF 00 00 6B 80 00  Length = 1159426 BitCount = 120 ID = 857
   1.394391 2  555             Rx   d 8 00 00 7C 00 01 00 00 00  Length = 1199426 BitCount = 124 ID = 1365
   1.402751 2  35B             Rx   d 8 00 00 00 00 20 19 0C 00  Length = 1179426 BitCount = 122 ID = 859
   1.403491 2  457             Rx   d 3 00 47 00  Length = 699442 BitCount = 74 ID = 1111
   1.412730 2  320             Rx   d 8 00 00 00 01 00 04 00 80  Length = 1189426 BitCount = 123 ID = 800
   1.413590 2  575             Rx   d 4 00 00 00 00  Length = 819449 BitCount = 86 ID = 1397
   1.415510 2  52D             Rx   d 8 FE 7F FF 0F FF 0F FF 0F  Length = 1169441 BitCount = 121 ID = 1325
   1.420220 2  436             Rx   d 8 00 01 01 04 00 00 02 00  Length = 1189441 BitCount = 123 ID = 1078
   1.422730 2  367             Rx   d 8 FC 00 00 00 7F EF 01 00  Length = 1179426 BitCount = 122 ID = 871
   1.423960 2  369             Rx   d 8 3D 00 00 D0 FF 00 00 00  Length = 1179426 BitCount = 122 ID = 873
   1.425180 2  470             Rx   d 8 40 08 00 64 00 00 00 16  Length = 1179426 BitCount = 122 ID = 1136
   1.426410 2  3E1             Rx   d 8 80 00 00 00 00 00 84 F8  Length = 1189441 BitCount = 123 ID = 993
   1.427640 2  386             Rx   d 8 00 00 00 00 00 00 00 64  Length = 1189426 BitCount = 123 ID = 902
   1.432580 2  381             Rx   d 6 00 00 00 00 00 00  Length = 1029430 BitCount = 107 ID = 897
   1.433430 2  531             Rx   d 4 00 20 20 00  Length = 799449 BitCount = 84 ID = 1329
   1.440280 2  52F             Rx   d 8 00 00 FE 1F FE 1F FE 1F  Length = 1169441 BitCount = 121 ID = 1327
   1.441449 2  65F             Rx   d 8 01 00 00 00 00 00 00 00  Length = 1129430 BitCount = 117 ID = 1631
   1.442629 2  621             Rx   d 8 00 75 19 00 00 3B 18 00  Length = 1139430 BitCount = 118 ID = 1569
   1.443869 2  397             Rx   d 8 00 00 00 00 00 00 00 00  Length = 1199426 BitCount = 124 ID = 919
   1.444919 2  4B9             Rx   d 6 00 00 00 00 00 00  Length = 1009430 BitCount = 105 ID = 1209
   1.446159 2  591             Rx   d 8 00 00 08 00 00 00 00 00  Length = 1199426 BitCount = 124 ID = 1425
   1.452529 2  4BD             Rx   d 6 01 00 00 00 00 00  Length = 999445 BitCount = 104 ID = 1213
   1.453749 2  658             Rx   d 8 78 28 00 08 00 90 00 00  Length = 1179426 BitCount = 122 ID = 1624
   1.459649 2  481             Rx   d 2 01 00  Length = 639457 BitCount = 68 ID = 1153
   1.462589 2  3B5             Rx   d 6 00 00 00 00 00 00  Length = 1029430 BitCount = 107 ID = 949
   1.463599 2  571             Rx   d 6 92 1F 00 08 04 00  Length = 969430 BitCount = 101 ID = 1393
   1.464269 2  5D1             Rx   d 2 10 00  Length = 629442 BitCount = 67 ID = 1489
   1.465488 2  400             Rx   d 8 0C 01 0A 04 0C 04 00 00  Length = 1179426 BitCount = 122 ID = 1024
   1.466658 2  532             Rx   d 8 00 00 8D 10 34 10 26 10  Length = 1129430 BitCount = 117 ID = 1330
   1.472718 2  470             Rx   d 8 40 08 00 64 00 00 00 16  Length = 1179426 BitCount = 122 ID = 1136
   1.474408 2  386             Rx   d 8 00 00 00 00 00 00 00 64  Length = 1189426 BitCount = 123 ID = 902
   1.476958 2  58C             Rx   d 8 80 00 B6 C0 00 00 00 E5  Length = 1169426 BitCount = 121 ID = 1420
   1.478198 2  5AC             Rx   d 8 FE 6F 00 00 00 00 00 00  Length = 1199426 BitCount = 124 ID = 1452
   1.482827 2  2C1             Rx   d 6 00 00 00 00 02 00  Length = 1009445 BitCount = 105 ID = 705
   1.483987 2  3C3             Rx   d 8 89 27 00 00 CE 31 00 1E  Length = 1119430 BitCount = 116 ID = 963
   1.484827 2  531             Rx   d 4 00 20 30 10  Length = 789438 BitCount = 83 ID = 1329
   1.485977 2  651             Rx   d 8 80 02 50 AF 39 59 01 00  Length = 1109430 BitCount = 115 ID = 1617
   1.492697 2  359             Rx   d 8 FF 89 FF 00 00 6B 80 00  Length = 1159426 BitCount = 120 ID = 857
   1.493937 2  555             Rx   d 8 00 00 7C 00 01 00 00 00  Length = 1199441 BitCount = 124 ID = 1365
   1.502736 2  35B             Rx   d 8 00 00 00 00 20 19 0C 00  Length = 1179426 BitCount = 122 ID = 859
   1.503476 2  457             Rx   d 3 00 47 00  Length = 699442 BitCount = 74 ID = 1111
   1.515626 2  40C             Rx   d 8 16 01 01 04 00 04 00 00  Length = 1189426 BitCount = 123 ID = 1036
   1.522745 2  369             Rx   d 8 3D 00 00 D0 FF 00 00 00  Length = 1179441 BitCount = 122 ID = 873
   1.523975 2  470             Rx   d 8 40 08 00 64 00 00 00 16  Length = 1179426 BitCount = 122 ID = 1136
   1.524735 2  635             Rx   d 3 00 00 18  Length = 719453 BitCount = 76 ID = 1589
   1.525965 2  386             Rx   d 8 00 00 00 00 00 00 00 64  Length = 1189426 BitCount = 123 ID = 902
   1.527195 2  3E1             Rx   d 8 80 00 00 00 00 00 84 F8  Length = 1189441 BitCount = 123 ID = 993
   1.528355 2  5E1             Rx   d 7 80 00 00 00 00 00 00  Length = 1099430 BitCount = 114 ID = 1505
   1.532555 2  381             Rx   d 6 00 00 00 00 00 00  Length = 1029445 BitCount = 107 ID = 897
   1.533415 2  531             Rx   d 4 00 20 40 60  Length = 809434 BitCount = 85 ID = 1329
   1.540245 2  621             Rx   d 8 00 75 19 00 00 3B 18 00  Length = 1139430 BitCount = 118 ID = 1569
   1.542755 2  397             Rx   d 8 00 00 00 00 00 00 00 00  Length = 1199426 BitCount = 124 ID = 919
   1.543805 2  4B9             Rx   d 6 00 00 00 00 00 00  Length = 1009430 BitCount = 105 ID = 1209
   1.544634 2  653             Rx   d 4 81 01 81 01  Length = 789449 BitCount = 83 ID = 1619
   1.552544 2  4BD             Rx   d 6 01 00 00 00 00 00  Length = 999430 BitCount = 104 ID = 1213
   1.553774 2  658             Rx   d 8 78 28 00 08 00 90 00 00  Length = 1179426 BitCount = 122 ID = 1624
   1.558234 2  67C             Rx   d 2 1C 42  Length = 609446 BitCount = 65 ID = 1660
   1.560194 2  436             Rx   d 8 00 01 01 04 00 00 02 00  Length = 1189426 BitCount = 123 ID = 1078
   1.562593 2  3B5             Rx   d 6 00 00 00 00 00 00  Length = 1029430 BitCount = 107 ID = 949
   1.563793 2  527             Rx   d 8 10 01 00 10 71 70 71 08  Length = 1159426 BitCount = 120 ID = 1319
   1.572823 2  470             Rx   d 8 40 08 00 64 00 00 00 16  Length = 1179441 BitCount = 122 ID = 1136
   1.574513 2  386             Rx   d 8 00 00 00 00 00 00 00 64  Length = 1189426 BitCount = 123 ID = 902
   1.577182 2  58C             Rx   d 8 80 00 B6 C0 00 00 00 E5  Length = 1169426 BitCount = 121 ID = 1420
   1.578422 2  5AC             Rx   d 8 FE 6F 00 00 00 00 00 00  Length = 1199426 BitCount = 124 ID = 1452
   1.582582 2  2C1             Rx   d 6 00 00 00 00 02 00  Length = 1009430 BitCount = 105 ID = 705
   1.583762 2  3C3             Rx   d 8 89 27 00 00 CE D1 00 7E  Length = 1139441 BitCount = 118 ID = 963
   1.584622 2  531             Rx   d 4 00 20 50 70  Length = 809434 BitCount = 85 ID = 1329
   1.585772 2  651             Rx   d 8 80 02 50 AF 39 59 01 00  Length = 1109445 BitCount = 115 ID = 1617
   1.592691 2  359             Rx   d 8 FF 89 FF 00 00 6B 80 00  Length = 1159426 BitCount = 120 ID = 857
   1.593931 2  555             Rx   d 8 00 00 7C 00 01 00 00 00  Length = 1199426 BitCount = 124 ID = 1365
   1.602731 2  35B             Rx   d 8 00 00 00 00 20 19 0C 00  Length = 1179426 BitCount = 122 ID = 859
   1.603481 2  457             Rx   d 3 00 47 00  Length = 699442 BitCount = 74 ID = 1111
   1.604701 2  400             Rx   d 8 0C 01 0A 04 0C 00 00 00  Length = 1179426 BitCount = 122 ID = 1024
   1.612730 2  320             Rx   d 8 00 00 00 01 00 0C 00 80  Length = 1209426 BitCount = 125 ID = 800
   1.613590 2  575             Rx   d 4 00 00 00 00  Length = 819434 BitCount = 86 ID = 1397
   1.622720 2  367             Rx   d 8 FC 00 00 00 7F EF 01 00  Length = 1179426 BitCount = 122 ID = 871
   1.623949 2  369             Rx   d 8 3D 00 00 D0 FF 00 00 00  Length = 1179426 BitCount = 122 ID = 873
   1.625169 2  470             Rx   d 8 40 08 00 64 00 00 00 16  Length = 1179426 BitCount = 122 ID = 1136
   1.626399 2  386             Rx   d 8 00 00 00 00 00 00 00 64  Length = 1189426 BitCount = 123 ID = 902
   1.627630 2  3E1             Rx   d 8 80 00 00 00 00 00 84 F8  Length = 1189426 BitCount = 123 ID = 993
   1.628900 2  3E9             Rx   d 8 00 00 00 00 00 00 00 00  Length = 1209426 BitCount = 125 ID = 1001
   1.630170 2  5E8             Rx   d 8 00 40 00 00 00 00 40 00  Length = 1209441 BitCount = 125 ID = 1512
   1.632559 2  381             Rx   d 6 00 00 00 00 00 00  Length = 1029430 BitCount = 107 ID = 897
   1.633409 2  531             Rx   d 4 00 20 60 40  Length = 799438 BitCount = 84 ID = 1329
   1.640209 2  65F             Rx   d 8 02 00 00 00 00 00 00 00  Length = 1119430 BitCount = 116 ID = 1631
   1.641389 2  621             Rx   d 8 00 75 19 00 00 3B 18 00  Length = 1139441 BitCount = 118 ID = 1569
   1.642779 2  397             Rx   d 8 00 00 00 00 00 00 00 00  Length = 1199426 BitCount = 124 ID = 919
   1.643829 2  4B9             Rx   d 6 00 00 00 00 00 00  Length = 1009430 BitCount = 105 ID = 1209
   1.645069 2  591             Rx   d 8 00 00 08 00 00 00 00 00  Length = 1199426 BitCount = 124 ID = 1425
   1.646289 2  3E1             Rx   d 8 00 00 FF 00 00 00 84 78  Length = 1179441 BitCount = 122 ID = 993
   1.647469 2  655             Rx   d 8 75 00 F0 03 18 00 80 C0  Length = 1139430 BitCount = 118 ID = 1621
   1.652518 2  4BD             Rx   d 6 01 00 00 00 00 00  Length = 999430 BitCount = 104 ID = 1213
   1.653738 2  658             Rx   d 8 78 28 00 08 00 90 00 00  Length = 1179426 BitCount = 122 ID = 1624
   1.655508 2  40C             Rx   d 8 16 01 01 04 00 04 00 00  Length = 1189426 BitCount = 123 ID = 1036
   1.662598 2  3B5             Rx   d 6 00 00 00 00 00 00  Length = 1029445 BitCount = 107 ID = 949
   1.663268 2  5D1             Rx   d 2 10 00  Length = 629442 BitCount = 67 ID = 1489
   1.664108 2  67D             Rx   d 4 40 00 01 14  Length = 799449 BitCount = 84 ID = 1661
   1.665108 2  6B4             Rx   d 6 93 01 DF 01 61 78  Length = 959430 BitCount = 100 ID = 1716
   1.671678 2  66C             Rx   d 8 0C 42 03 00 31 00 03 01  Length = 1159426 BitCount = 120 ID = 1644
   1.672897 2  470             Rx   d 8 40 08 00 64 00 00 00 16  Length = 1179426 BitCount = 122 ID = 1136
   1.674387 2  386             Rx   d 8 00 00 00 00 00 00 00 64  Length = 1189426 BitCount = 123 ID = 902
   1.676467 2  569             Rx   d 8 00 00 00 3A 00 00 00 00  Length = 1179426 BitCount = 122 ID = 1385
   1.677667 2  58C             Rx   d 8 80 00 B6 C0 B9 00 00 E5  Length = 1159441 BitCount = 120 ID = 1420
   1.678907 2  5AC             Rx   d 8 FE 6F 00 00 00 00 00 00  Length = 1199426 BitCount = 124 ID = 1452
   1.682567 2  2C1             Rx   d 6 00 00 00 00 02 00  Length = 1009430 BitCount = 105 ID = 705
   1.683727 2  3C3             Rx   d 8 89 27 00 00 CE 71 00 DE  Length = 1119430 BitCount = 116 ID = 963
   1.684577 2  531             Rx   d 4 00 20 70 50  Length = 799438 BitCount = 84 ID = 1329
   1.685727 2  651             Rx   d 8 80 02 50 AF 39 59 01 00  Length = 1109430 BitCount = 115 ID = 1617
   1.692686 2  359             Rx   d 8 FF 89 FF 00 00 6B 80 00  Length = 1159426 BitCount = 120 ID = 857
   1.693926 2  555             Rx   d 8 00 00 7C 00 01 00 00 00  Length = 1199426 BitCount = 124 ID = 1365
   1.702726 2  35B             Rx   d 8 00 00 00 00 20 19 0C 00  Length = 1179426 BitCount = 122 ID = 859
   1.703385 2  69D             Rx   d 2 14 42  Length = 619442 BitCount = 66 ID = 1693
   1.704125 2  457             Rx   d 3 00 47 00  Length = 699442 BitCount = 74 ID = 1111
   1.707205 2  436             Rx   d 8 00 01 01 04 00 00 02 00  Length = 1189426 BitCount = 123 ID = 1078
   1.711585 2  6E7             Rx   d 8 44 42 03 00 11 00 04 01  Length = 1129430 BitCount = 117 ID = 1767
   1.712865 2  67A             Rx   d 2 17 42  Length = 599446 BitCount = 64 ID = 1658
   1.722625 2  679             Rx   d 8 47 42 03 00 1D 00 04 00  Length = 1149426 BitCount = 119 ID = 1657
   1.723855 2  369             Rx   d 8 3D 00 00 D0 FF 00 00 00  Length = 1179441 BitCount = 122 ID = 873
   1.725085 2  470             Rx   d 8 40 08 00 64 00 00 00 16  Length = 1179426 BitCount = 122 ID = 1136
   1.726305 2  3E1             Rx   d 8 00 00 FF 00 00 00 84 78  Length = 1179441 BitCount = 122 ID = 993
   1.727064 2  635             Rx   d 3 00 00 18  Length = 719438 BitCount = 76 ID = 1589
   1.728294 2  386             Rx   d 8 00 00 00 00 00 00 00 64  Length = 1189441 BitCount = 123 ID = 902
   1.729435 2  5E1             Rx   d 7 80 00 00 00 00 00 00  Length = 1099430 BitCount = 114 ID = 1505
   1.732545 2  381             Rx   d 6 00 00 00 00 00 00  Length = 1029430 BitCount = 107 ID = 897
   1.733395 2  531             Rx   d 4 00 20 80 A0  Length = 799449 BitCount = 84 ID = 1329
   1.740224 2  621             Rx   d 8 00 75 19 00 00 3B 18 00  Length = 1139441 BitCount = 118 ID = 1569
   1.742754 2  397             Rx   d 8 00 00 00 00 00 00 00 00  Length = 1199441 BitCount = 124 ID = 919
   1.743804 2  4B9             Rx   d 6 00 00 00 00 00 00  Length = 1009430 BitCount = 105 ID = 1209
   1.746654 2  57C             Rx   d 8 30 57 03 00 00 00 00 64  Length = 1179441 BitCount = 122 ID = 1404
   1.749014 2  67C             Rx   d 2 1C 41  Length = 649442 BitCount = 69 ID = 1660
   1.752523 2  4BD             Rx   d 6 01 00 00 00 00 00  Length = 999430 BitCount = 104 ID = 1213
   1.753743 2  658             Rx   d 8 78 28 00 08 00 90 00 00  Length = 1179441 BitCount = 122 ID = 1624
   1.754963 2  400             Rx   d 8 0C 01 0A 04 0C 00 00 00  Length = 1179426 BitCount = 122 ID = 1024
   1.756143 2  66C             Rx   d 8 80 2E 4C 41 03 00 31 00  Length = 1139430 BitCount = 118 ID = 1644
   1.762583 2  3B5             Rx   d 6 00 00 00 00 00 00  Length = 1029430 BitCount = 107 ID = 949
   1.763782 2  527             Rx   d 8 10 01 00 10 71 70 71 08  Length = 1159426 BitCount = 120 ID = 1319
   1.764442 2  67A             Rx   d 2 17 41  Length = 619442 BitCount = 66 ID = 1658
   1.772682 2  679             Rx   d 8 80 1C 47 41 03 00 1D 00  Length = 1159426 BitCount = 120 ID = 1657
   1.773912 2  470             Rx   d 8 40 08 00 64 00 00 00 16  Length = 1179426 BitCount = 122 ID = 1136
   1.775142 2  386             Rx   d 8 00 00 00 00 00 00 00 64  Length = 1189426 BitCount = 123 ID = 902
   1.776942 2  58C             Rx   d 8 80 00 B6 C0 B9 00 00 05  Length = 1159441 BitCount = 120 ID = 1420
   1.778182 2  5AC             Rx   d 8 FE 6F 00 00 00 00 00 00  Length = 1199426 BitCount = 124 ID = 1452
   1.782571 2  2C1             Rx   d 6 00 00 00 00 02 00  Length = 1009430 BitCount = 105 ID = 705
   1.783741 2  3C3             Rx   d 8 89 27 00 00 CE 11 00 3E  Length = 1129430 BitCount = 117 ID = 963
   1.784402 2  69D             Rx   d 2 14 41  Length = 619442 BitCount = 66 ID = 1693
   1.785221 2  531             Rx   d 4 00 20 90 B0  Length = 779438 BitCount = 82 ID = 1329
   1.786371 2  651             Rx   d 8 80 02 50 AF 39 59 01 00  Length = 1109445 BitCount = 115 ID = 1617
   1.787581 2  66C             Rx   d 8 C0 03 01 08 00 38 03 FF  Length = 1169426 BitCount = 121 ID = 1644
   1.791621 2  6E7             Rx   d 8 80 18 44 41 03 00 11 00  Length = 1139430 BitCount = 118 ID = 1767
   1.792821 2  359             Rx   d 8 FF 89 FF 00 00 6B 80 00  Length = 1159441 BitCount = 120 ID = 857
   1.794061 2  555             Rx   d 8 00 00 7C 00 01 00 00 00  Length = 1199426 BitCount = 124 ID = 1365
   1.802721 2  35B             Rx   d 8 00 00 00 00 20 19 0C 00  Length = 1179426 BitCount = 122 ID = 859
   1.803461 2  457             Rx   d 3 00 47 00  Length = 699442 BitCount = 74 ID = 1111
   1.805901 2  40C             Rx   d 8 16 01 01 04 00 04 00 00  Length = 1189426 BitCount = 123 ID = 1036
   1.812690 2  320             Rx   d 8 00 00 00 01 00 04 00 80  Length = 1189441 BitCount = 123 ID = 800
   1.813550 2  575             Rx   d 4 00 00 00 00  Length = 819449 BitCount = 86 ID = 1397
   1.814750 2  66C             Rx   d 8 C1 BC 00 00 00 00 0A 1E  Length = 1159426 BitCount = 120 ID = 1644
   1.822609 2  679             Rx   d 8 C0 04 00 08 00 38 07 F8  Length = 1149441 BitCount = 119 ID = 1657
   1.823829 2  367             Rx   d 8 FC 00 00 00 7F EF 01 00  Length = 1179426 BitCount = 122 ID = 871
   1.825059 2  369             Rx   d 8 3D 00 00 D0 FF 00 00 00  Length = 1179426 BitCount = 122 ID = 873
   1.826299 2  3E1             Rx   d 8 00 00 00 00 00 00 84 78  Length = 1199426 BitCount = 124 ID = 993
   1.827519 2  470             Rx   d 8 40 08 00 64 00 00 00 16  Length = 1179426 BitCount = 122 ID = 1136
   1.828749 2  386             Rx   d 8 00 00 00 00 00 00 00 64  Length = 1189426 BitCount = 123 ID = 902
   1.832549 2  381             Rx   d 6 00 00 00 00 00 00  Length = 1029430 BitCount = 107 ID = 897
   1.833399 2  531             Rx   d 4 00 20 A0 80  Length = 799438 BitCount = 84 ID = 1329
   1.840198 2  65F             Rx   d 8 00 AA 8C 8E C0 00 00 00  Length = 1119430 BitCount = 116 ID = 1631
   1.841378 2  621             Rx   d 8 00 75 19 00 00 3B 18 00  Length = 1139430 BitCount = 118 ID = 1569
   1.842578 2  6E7             Rx   d 8 C0 04 01 08 00 78 01 C0  Length = 1159426 BitCount = 120 ID = 1767
   1.843818 2  397             Rx   d 8 00 00 00 00 00 00 00 00  Length = 1199426 BitCount = 124 ID = 919
   1.844868 2  4B9             Rx   d 6 00 00 00 00 00 00  Length = 1009430 BitCount = 105 ID = 1209
   1.846108 2  591             Rx   d 8 00 00 08 00 00 00 00 00  Length = 1199426 BitCount = 124 ID = 1425
   1.847358 2  5F5             Rx   d 8 00 10 00 00 00 00 00 00  Length = 1209426 BitCount = 125 ID = 1525
   1.848578 2  66C             Rx   d 8 C2 00 00 00 00 00 02 00  Length = 1179426 BitCount = 122 ID = 1644
   1.849808 2  436             Rx   d 8 00 01 01 04 00 00 02 00  Length = 1189426 BitCount = 123 ID = 1078
   1.852498 2  4BD             Rx   d 6 01 00 00 00 00 00  Length = 999430 BitCount = 104 ID = 1213
   1.853728 2  658             Rx   d 8 78 28 00 08 00 90 00 00  Length = 1179426 BitCount = 122 ID = 1624
   1.854898 2  61A             Rx   d 8 DD 03 80 20 02 30 FF B3  Length = 1129441 BitCount = 117 ID = 1562
   1.862557 2  3B5             Rx   d 6 00 00 00 00 00 00  Length = 1029430 BitCount = 107 ID = 949
   1.863227 2  5D1             Rx   d 2 10 00  Length = 629442 BitCount = 67 ID = 1489
   1.863877 2  69D             Rx   d 2 19 42  Length = 609446 BitCount = 65 ID = 1693
   1.871607 2  69C             Rx   d 8 80 09 49 51 01 59 FF FF  Length = 1149426 BitCount = 119 ID = 1692
   1.872327 2  679             Rx   d 3 47 51 59  Length = 679457 BitCount = 72 ID = 1657
   1.873547 2  470             Rx   d 8 40 08 00 64 00 00 00 16  Length = 1179426 BitCount = 122 ID = 1136
   1.874796 2  64F             Rx   d 8 3F 00 00 00 00 00 00 00  Length = 1209426 BitCount = 125 ID = 1615
   1.876026 2  386             Rx   d 8 00 00 00 00 00 00 00 64  Length = 1189426 BitCount = 123 ID = 902
   1.877256 2  58C             Rx   d 8 80 00 B6 C0 00 00 00 05  Length = 1189441 BitCount = 123 ID = 1420
   1.878496 2  5AC             Rx   d 8 FE 6F 00 00 00 00 00 00  Length = 1199441 BitCount = 124 ID = 1452
   1.879716 2  66C             Rx   d 8 C3 00 00 00 00 00 00 06  Length = 1179426 BitCount = 122 ID = 1644
   1.882576 2  2C1             Rx   d 6 00 00 00 00 02 00  Length = 1009445 BitCount = 105 ID = 705
   1.883726 2  3C3             Rx   d 8 89 27 00 00 CE B1 00 9E  Length = 1109445 BitCount = 115 ID = 963
   1.884566 2  531             Rx   d 4 00 20 B0 90  Length = 789438 BitCount = 83 ID = 1329
   1.885716 2  651             Rx   d 8 80 02 50 AF 39 59 01 00  Length = 1109445 BitCount = 115 ID = 1617
   1.891606 2  6E7             Rx   d 8 C1 00 00 00 00 00 0A 00  Length = 1179426 BitCount = 122 ID = 1767
   1.892806 2  359             Rx   d 8 FF 89 FF 00 00 6B 80 00  Length = 1159426 BitCount = 120 ID = 857
   1.894045 2  555             Rx   d 8 00 00 7C 00 01 00 00 00  Length = 1199426 BitCount = 124 ID = 1365
   1.895265 2  400             Rx   d 8 0C 01 0A 04 0C 00 00 00  Length = 1179426 BitCount = 122 ID = 1024
   1.902715 2  35B             Rx   d 8 00 00 00 00 20 19 0C 00  Length = 1179426 BitCount = 122 ID = 859
   1.903455 2  457             Rx   d 3 00 47 00  Length = 699442 BitCount = 74 ID = 1111
   1.904695 2  66C             Rx   d 8 C4 00 00 00 00 00 00 00  Length = 1199426 BitCount = 124 ID = 1644
   1.921494 2  69C             Rx   d 8 49 42 03 00 25 00 04 00  Length = 1149441 BitCount = 119 ID = 1692
   1.922694 2  679             Rx   d 8 C1 00 00 00 00 00 0A 10  Length = 1159426 BitCount = 120 ID = 1657
   1.923924 2  369             Rx   d 8 3D 00 00 D0 FF 00 00 00  Length = 1179441 BitCount = 122 ID = 873
   1.925144 2  470             Rx   d 8 40 08 00 64 00 00 00 16  Length = 1179426 BitCount = 122 ID = 1136
   1.926383 2  3E1             Rx   d 8 00 00 00 00 00 00 84 78  Length = 1199426 BitCount = 124 ID = 993
   1.927143 2  635             Rx   d 3 00 00 18  Length = 719438 BitCount = 76 ID = 1589
   1.928373 2  386             Rx   d 8 00 00 00 00 00 00 00 64  Length = 1189426 BitCount = 123 ID = 902
   1.929604 2  3E3             Rx   d 8 00 00 84 00 00 00 00 00  Length = 1189426 BitCount = 123 ID = 995
   1.930764 2  5E1             Rx   d 7 80 00 00 00 00 00 00  Length = 1099430 BitCount = 114 ID = 1505
   1.932534 2  381             Rx   d 6 00 00 00 00 00 00  Length = 1029430 BitCount = 107 ID = 897
   1.933754 2  66C             Rx   d 8 C5 00 02 00 00 00 16 00  Length = 1179426 BitCount = 122 ID = 1644
   1.934594 2  531             Rx   d 4 00 20 C0 E0  Length = 799449 BitCount = 84 ID = 1329
   1.940214 2  621             Rx   d 8 00 75 19 00 00 3B 18 00  Length = 1139430 BitCount = 118 ID = 1569
   1.941384 2  6E7             Rx   d 7 C2 14 03 19 0C 00 16  Length = 1039430 BitCount = 108 ID = 1767
   1.942773 2  397             Rx   d 8 00 00 00 00 00 00 00 00  Length = 1199426 BitCount = 124 ID = 919
   1.943823 2  4B9             Rx   d 6 00 00 00 00 00 00  Length = 1009430 BitCount = 105 ID = 1209
   1.944474 2  69D             Rx   d 2 19 41  Length = 609457 BitCount = 65 ID = 1693
   1.945704 2  40C             Rx   d 8 16 01 01 04 00 04 00 00  Length = 1189426 BitCount = 123 ID = 1036
   1.952523 2  4BD             Rx   d 6 01 00 00 00 00 00  Length = 999430 BitCount = 104 ID = 1213
   1.953743 2  658             Rx   d 8 78 28 00 08 00 90 00 00  Length = 1179441 BitCount = 122 ID = 1624
   1.962563 2  3B5             Rx   d 6 00 00 00 00 00 00  Length = 1029445 BitCount = 107 ID = 949
   1.963763 2  527             Rx   d 8 10 01 00 10 71 70 71 08  Length = 1159426 BitCount = 120 ID = 1319
   1.964773 2  571             Rx   d 6 91 1F 00 08 04 00  Length = 969430 BitCount = 101 ID = 1393
   1.971312 2  69C             Rx   d 6 C0 FF FF 00 FF 01  Length = 999430 BitCount = 104 ID = 1692
   1.972672 2  679             Rx   d 8 C2 00 00 00 00 00 00 00  Length = 1189441 BitCount = 123 ID = 1657
   1.973892 2  470             Rx   d 8 40 08 00 64 00 00 00 16  Length = 1179426 BitCount = 122 ID = 1136
   1.975122 2  386             Rx   d 8 00 00 00 00 00 00 00 64  Length = 1189441 BitCount = 123 ID = 902
   1.977012 2  58C             Rx   d 8 80 00 B6 C0 00 00 00 05  Length = 1189426 BitCount = 123 ID = 1420
   1.978252 2  5AC             Rx   d 8 FE 6F 00 00 00 00 00 00  Length = 1199426 BitCount = 124 ID = 1452
   1.979292 2  4BD             Rx   d 6 00 00 00 00 00 00  Length = 999430 BitCount = 104 ID = 1213
   1.982561 2  2C1             Rx   d 6 00 00 00 00 02 00  Length = 1009430 BitCount = 105 ID = 705
   1.983731 2  3C3             Rx   d 8 89 27 00 00 CE 51 00 FE  Length = 1129430 BitCount = 117 ID = 963
   1.984581 2  531             Rx   d 4 00 20 D0 F0  Length = 799438 BitCount = 84 ID = 1329
   1.985731 2  651             Rx   d 8 80 02 50 AF 39 59 01 00  Length = 1109430 BitCount = 115 ID = 1617
   1.987211 2  436             Rx   d 8 00 01 01 04 00 00 02 00  Length = 1189441 BitCount = 123 ID = 1078
   1.992671 2  359             Rx   d 8 FF 89 FF 00 00 6B 80 00  Length = 1159426 BitCount = 120 ID = 857
   1.993911 2  555             Rx   d 8 00 00 7C 00 01 00 00 00  Length = 1199426 BitCount = 124 ID = 1365
   2.002720 2  35B             Rx   d 8 00 00 00 00 20 19 0C 00  Length = 1179426 BitCount = 122 ID = 859
   2.003460 2  457             Rx   d 3 00 47 00  Length = 699453 BitCount = 74 ID = 1111
   2.012700 2  320             Rx   d 8 00 00 00 01 00 0C 00 80  Length = 1209426 BitCount = 125 ID = 800
   2.013559 2  575             Rx   d 4 00 00 00 00  Length = 819434 BitCount = 86 ID = 1397
   2.020974 CAN 1 Status:chip status error active
   2.020974 CAN 2 Status:chip status error active
   2.021489 2  69C             Rx   d 8 80 4F 49 41 03 00 25 00  Length = 1149426 BitCount = 119 ID = 1692
   2.022339 2  679             Rx   d 4 C3 00 04 00  Length = 809434 BitCount = 85 ID = 1657
   2.023559 2  367             Rx   d 8 FC 00 00 00 7F EF 01 00  Length = 1179426 BitCount = 122 ID = 871
   2.024789 2  369             Rx   d 8 3D 00 00 D0 FF 00 00 00  Length = 1179441 BitCount = 122 ID = 873
   2.026029 2  3E1             Rx   d 8 00 00 00 00 00 00 84 78  Length = 1199426 BitCount = 124 ID = 993
   2.027249 2  470             Rx   d 8 40 00 00 64 00 00 00 16  Length = 1179441 BitCount = 122 ID = 1136
   2.028479 2  386             Rx   d 8 00 00 00 00 00 00 00 64  Length = 1189426 BitCount = 123 ID = 902
   2.032548 2  381             Rx   d 6 00 00 00 00 00 00  Length = 1029445 BitCount = 107 ID = 897
   2.033398 2  531             Rx   d 4 00 20 E0 C0  Length = 799449 BitCount = 84 ID = 1329
   2.034628 2  400             Rx   d 8 0C 01 0A 04 0C 00 00 00  Length = 1179426 BitCount = 122 ID = 1024
   2.040208 2  65F             Rx   d 8 01 00 00 00 00 00 00 00  Length = 1129430 BitCount = 117 ID = 1631
   2.041388 2  621             Rx   d 8 00 75 19 00 00 3B 18 00  Length = 1139430 BitCount = 118 ID = 1569
   2.042748 2  397             Rx   d 8 00 00 00 00 00 00 00 00  Length = 1199426 BitCount = 124 ID = 919
   2.043798 2  4B9             Rx   d 6 00 00 00 00 00 00  Length = 1009430 BitCount = 105 ID = 1209
   2.045037 2  591             Rx   d 8 00 00 08 00 00 00 00 00  Length = 1199426 BitCount = 124 ID = 1425
   2.045867 2  653             Rx   d 4 81 01 81 01  Length = 789438 BitCount = 83 ID = 1619
   2.047077 2  62A             Rx   d 8 40 10 00 00 00 00 2C 00  Length = 1169441 BitCount = 121 ID = 1578
   2.052497 2  4BD             Rx   d 6 00 00 00 00 00 00  Length = 999430 BitCount = 104 ID = 1213
   2.053717 2  658             Rx   d 8 78 28 00 08 00 90 00 00  Length = 1179426 BitCount = 122 ID = 1624
   2.062546 2  3B5             Rx   d 6 00 00 00 00 00 00  Length = 1029430 BitCount = 107 ID = 949
   2.063216 2  5D1             Rx   d 2 10 00  Length = 629442 BitCount = 67 ID = 1489
   2.071586 2  69C             Rx   d 8 C0 04 00 08 00 78 07 FE  Length = 1179426 BitCount = 122 ID = 1692
   2.072806 2  470             Rx   d 8 40 00 00 64 00 00 00 16  Length = 1179426 BitCount = 122 ID = 1136
   2.074366 2  386             Rx   d 8 00 00 00 00 00 00 00 64  Length = 1189426 BitCount = 123 ID = 902
   2.076945 2  58C             Rx   d 8 80 00 B6 C0 00 00 00 05  Length = 1189441 BitCount = 123 ID = 1420
   2.078185 2  5AC             Rx   d 8 FE 6F 00 00 00 00 00 00  Length = 1199426 BitCount = 124 ID = 1452
   2.082555 2  2C1             Rx   d 6 00 00 00 00 02 00  Length = 1009430 BitCount = 105 ID = 705
   2.083705 2  3C3             Rx   d 8 89 27 00 00 CE F1 00 5E  Length = 1109430 BitCount = 115 ID = 963
   2.084565 2  531             Rx   d 4 00 20 F0 D0  Length = 809449 BitCount = 85 ID = 1329
   2.085795 2  40C             Rx   d 8 16 01 01 04 00 04 00 00  Length = 1189426 BitCount = 123 ID = 1036
   2.086945 2  651             Rx   d 8 80 02 50 AF 39 59 01 00  Length = 1109430 BitCount = 115 ID = 1617
   2.092654 2  359             Rx   d 8 FF 89 FF 00 00 6B 80 00  Length = 1159426 BitCount = 120 ID = 857
   2.093894 2  555             Rx   d 8 00 00 7C 00 01 00 00 00  Length = 1199441 BitCount = 124 ID = 1365
   2.102714 2  35B             Rx   d 8 00 00 00 00 20 19 0C 00  Length = 1179426 BitCount = 122 ID = 859
   2.103454 2  457             Rx   d 3 00 47 00  Length = 699442 BitCount = 74 ID = 1111
   2.121543 2  69C             Rx   d 8 C1 E0 00 00 00 00 0A 00  Length = 1189426 BitCount = 123 ID = 1692
   2.122773 2  369             Rx   d 8 3D 00 00 D0 FF 00 00 00  Length = 1179426 BitCount = 122 ID = 873
   2.123993 2  470             Rx   d 8 40 00 00 64 00 00 00 16  Length = 1179426 BitCount = 122 ID = 1136
   2.124762 2  635             Rx   d 3 00 00 18  Length = 719438 BitCount = 76 ID = 1589
   2.125992 2  386             Rx   d 8 00 00 00 00 00 00 00 64  Length = 1189426 BitCount = 123 ID = 902
   2.127232 2  3E1             Rx   d 8 00 00 00 00 00 00 84 78  Length = 1199426 BitCount = 124 ID = 993
   2.128462 2  436             Rx   d 8 00 01 01 04 00 00 02 00  Length = 1189426 BitCount = 123 ID = 1078
   2.129712 2  3E9             Rx   d 8 00 00 00 00 00 00 00 00  Length = 1209441 BitCount = 125 ID = 1001
   2.130872 2  5E1             Rx   d 7 80 00 00 00 00 00 00  Length = 1099430 BitCount = 114 ID = 1505
   2.132142 2  5E8             Rx   d 8 00 40 00 00 00 00 40 00  Length = 1209426 BitCount = 125 ID = 1512
   2.133212 2  381             Rx   d 6 00 00 00 00 00 00  Length = 1029430 BitCount = 107 ID = 897
   2.134112 2  531             Rx   d 4 00 20 00 20  Length = 809434 BitCount = 85 ID = 1329
   2.140192 2  621             Rx   d 8 00 75 19 00 00 3B 18 00  Length = 1139430 BitCount = 118 ID = 1569
   2.142741 2  397             Rx   d 8 00 00 00 00 00 00 00 00  Length = 1199426 BitCount = 124 ID = 919
   2.143791 2  4B9             Rx   d 6 00 00 00 00 00 00  Length = 1009445 BitCount = 105 ID = 1209
   2.144971 2  655             Rx   d 8 75 00 F0 03 18 00 80 C0  Length = 1139441 BitCount = 118 ID = 1621
   2.152491 2  4BD             Rx   d 6 00 00 00 00 00 00  Length = 999430 BitCount = 104 ID = 1213
   2.153721 2  658             Rx   d 8 78 28 00 08 00 90 00 00  Length = 1179426 BitCount = 122 ID = 1624
   2.162550 2  3B5             Rx   d 6 00 00 00 00 00 00  Length = 1029430 BitCount = 107 ID = 949
   2.163750 2  527             Rx   d 8 10 01 00 10 71 70 71 08  Length = 1159426 BitCount = 120 ID = 1319
   2.164750 2  6B4             Rx   d 6 93 01 DF 01 61 78  Length = 959430 BitCount = 100 ID = 1716
   2.171590 2  69C             Rx   d 8 C2 00 00 00 00 00 00 00  Length = 1189426 BitCount = 123 ID = 1692
   2.172809 2  470             Rx   d 8 40 00 00 64 00 00 00 16  Length = 1179441 BitCount = 122 ID = 1136
   2.174029 2  400             Rx   d 8 0C 01 0A 04 0C 00 00 00  Length = 1179426 BitCount = 122 ID = 1024
   2.175259 2  386             Rx   d 8 00 00 00 00 00 00 00 64  Length = 1189441 BitCount = 123 ID = 902
   2.176599 2  569             Rx   d 8 00 00 00 3A 00 00 00 00  Length = 1179426 BitCount = 122 ID = 1385
   2.177829 2  58C             Rx   d 8 80 00 B6 C0 00 00 00 05  Length = 1189426 BitCount = 123 ID = 1420
   2.179069 2  5AC             Rx   d 8 FE 6F 00 00 00 00 00 00  Length = 1199426 BitCount = 124 ID = 1452
   2.180269 2  61C             Rx   d 8 00 F0 07 40 FE 03 00 0B  Length = 1159426 BitCount = 120 ID = 1564
   2.182559 2  2C1             Rx   d 6 00 00 00 00 02 00  Length = 1009445 BitCount = 105 ID = 705
   2.183719 2  3C3             Rx   d 8 89 27 00 00 CE 91 00 BE  Length = 1119430 BitCount = 116 ID = 963
   2.184569 2  531             Rx   d 4 00 20 10 30  Length = 799438 BitCount = 84 ID = 1329
   2.185719 2  651             Rx   d 8 80 02 50 AF 39 59 01 00  Length = 1109430 BitCount = 115 ID = 1617
   2.189368 2  60E             Rx   d 2 08 02  Length = 629442 BitCount = 67 ID = 1550
   2.192658 2  359             Rx   d 8 FF 89 FF 00 00 6B 80 00  Length = 1159441 BitCount = 120 ID = 857
   2.193898 2  555             Rx   d 8 00 00 7C 00 01 00 00 00  Length = 1199426 BitCount = 124 ID = 1365
   2.202688 2  35B             Rx   d 8 00 00 00 00 20 19 0C 00  Length = 1179426 BitCount = 122 ID = 859
   2.203427 2  457             Rx   d 3 00 47 00  Length = 699442 BitCount = 74 ID = 1111
   2.206647 2  481             Rx   d 2 01 00  Length = 639457 BitCount = 68 ID = 1153
   2.207887 2  661             Rx   d 8 00 00 00 00 00 00 00 00  Length = 1199426 BitCount = 124 ID = 1633
   2.209027 2  665             Rx   d 7 00 00 00 00 00 00 00  Length = 1099430 BitCount = 114 ID = 1637
   2.209717 2  666             Rx   d 2 00 00  Length = 639442 BitCount = 68 ID = 1638
   2.212687 2  320             Rx   d 8 00 00 00 01 00 04 00 80  Length = 1189426 BitCount = 123 ID = 800
   2.213557 2  575             Rx   d 4 00 00 00 00  Length = 819434 BitCount = 86 ID = 1397
   2.214737 2  65D             Rx   d 8 81 F8 26 D0 F0 DC 00 11  Length = 1139430 BitCount = 118 ID = 1629
   2.216047 2  40C             Rx   d 8 16 01 01 04 00 04 00 00  Length = 1189441 BitCount = 123 ID = 1036
   2.221497 2  69C             Rx   d 8 C3 1F 00 09 00 01 59 FF  Length = 1159426 BitCount = 120 ID = 1692
   2.222727 2  367             Rx   d 8 FC 00 00 00 7F EF 01 00  Length = 1179426 BitCount = 122 ID = 871
   2.223957 2  369             Rx   d 8 3D 00 00 D0 FF 00 00 00  Length = 1179441 BitCount = 122 ID = 873
   2.225177 2  470             Rx   d 8 40 00 00 64 00 00 00 16  Length = 1179426 BitCount = 122 ID = 1136
   2.226407 2  386             Rx   d 8 00 00 00 00 00 00 00 64  Length = 1189441 BitCount = 123 ID = 902
   2.227647 2  3E1             Rx   d 8 00 00 00 00 00 00 84 78  Length = 1199426 BitCount = 124 ID = 993
   2.232537 2  381             Rx   d 6 00 00 00 00 00 00  Length = 1029430 BitCount = 107 ID = 897
   2.233387 2  531             Rx   d 4 00 20 20 00  Length = 799438 BitCount = 84 ID = 1329
   2.240166 2  65F             Rx   d 8 02 00 00 00 00 00 00 00  Length = 1119430 BitCount = 116 ID = 1631
   2.241346 2  621             Rx   d 8 00 75 19 00 00 3B 18 00  Length = 1139430 BitCount = 118 ID = 1569
   2.242736 2  397             Rx   d 8 00 00 00 00 00 00 00 00  Length = 1199426 BitCount = 124 ID = 919
   2.243786 2  4B9             Rx   d 6 00 00 00 00 00 00  Length = 1009430 BitCount = 105 ID = 1209
   2.245026 2  591             Rx   d 8 00 00 08 00 00 00 00 00  Length = 1199426 BitCount = 124 ID = 1425
   2.246636 2  57C             Rx   d 8 40 57 03 00 00 00 00 14  Length = 1179426 BitCount = 122 ID = 1404
   2.252485 2  4BD             Rx   d 6 00 00 00 00 00 00  Length = 999430 BitCount = 104 ID = 1213
   2.253715 2  658             Rx   d 8 78 28 00 08 00 90 00 00  Length = 1179441 BitCount = 122 ID = 1624
   2.262535 2  3B5             Rx   d 6 00 00 00 00 00 00  Length = 1029445 BitCount = 107 ID = 949
   2.263205 2  5D1             Rx   d 2 10 00  Length = 629442 BitCount = 67 ID = 1489
   2.267204 2  436             Rx   d 8 00 01 01 04 00 00 02 00  Length = 1189426 BitCount = 123 ID = 1078
   2.271564 2  69C             Rx   d 8 C4 FF FF FF 00 FF 01 07  Length = 1179441 BitCount = 122 ID = 1692
   2.272784 2  470             Rx   d 8 40 00 00 64 00 00 00 16  Length = 1179426 BitCount = 122 ID = 1136
   2.274364 2  386             Rx   d 8 00 00 00 00 00 00 00 64  Length = 1189426 BitCount = 123 ID = 902
   2.276934 2  58C             Rx   d 8 80 00 B6 C0 00 00 00 05  Length = 1189426 BitCount = 123 ID = 1420
   2.278174 2  5AC             Rx   d 8 FE 6F 00 00 00 00 00 00  Length = 1199426 BitCount = 124 ID = 1452
   2.282514 2  2C1             Rx   d 6 00 00 00 00 02 00  Length = 1009430 BitCount = 105 ID = 705
   2.283673 2  3C3             Rx   d 8 89 27 00 00 CE 31 00 1E  Length = 1119430 BitCount = 116 ID = 963
   2.284513 2  531             Rx   d 4 00 20 30 10  Length = 789438 BitCount = 83 ID = 1329
   2.285663 2  651             Rx   d 8 80 02 50 AF 39 59 01 00  Length = 1109430 BitCount = 115 ID = 1617
   2.290373 2  629             Rx   d 8 FF 0F FF 7F F8 26 40 00  Length = 1149426 BitCount = 119 ID = 1577
   2.292643 2  359             Rx   d 8 FF 89 FF 00 00 6B 80 00  Length = 1159426 BitCount = 120 ID = 857
   2.293883 2  555             Rx   d 8 00 00 7C 00 01 00 00 00  Length = 1199426 BitCount = 124 ID = 1365
   2.302682 2  35B             Rx   d 8 00 00 00 00 20 19 0C 00  Length = 1179426 BitCount = 122 ID = 859
   2.303432 2  457             Rx   d 3 00 47 00  Length = 699453 BitCount = 74 ID = 1111
   2.313272 2  400             Rx   d 8 0C 01 0A 04 0C 00 00 00  Length = 1179426 BitCount = 122 ID = 1024
   2.315401 2  62B             Rx   d 8 00 10 00 40 1B 00 FE 7F  Length = 1149426 BitCount = 119 ID = 1579
   2.321531 2  69C             Rx   d 8 C5 00 00 00 00 1E 00 BB  Length = 1189426 BitCount = 123 ID = 1692
   2.322761 2  369             Rx   d 8 3D 00 00 D0 FF 00 00 00  Length = 1179441 BitCount = 122 ID = 873
   2.323981 2  470             Rx   d 8 40 00 00 64 00 00 00 16  Length = 1179426 BitCount = 122 ID = 1136
   2.324741 2  635             Rx   d 3 00 00 18  Length = 719453 BitCount = 76 ID = 1589
   2.325971 2  386             Rx   d 8 00 00 00 00 00 00 00 64  Length = 1189426 BitCount = 123 ID = 902
   2.327211 2  3E1             Rx   d 8 00 00 00 00 00 00 84 78  Length = 1199426 BitCount = 124 ID = 993
   2.328371 2  5E1             Rx   d 7 80 00 00 00 00 00 00  Length = 1099430 BitCount = 114 ID = 1505
   2.332501 2  381             Rx   d 6 00 00 00 00 00 00  Length = 1029445 BitCount = 107 ID = 897
   2.333361 2  531             Rx   d 4 00 20 40 60  Length = 809449 BitCount = 85 ID = 1329
   2.340180 2  621             Rx   d 8 00 75 19 00 00 3B 18 00  Length = 1139430 BitCount = 118 ID = 1569
   2.341340 2  62D             Rx   d 8 00 10 F4 40 54 03 11 40  Length = 1119430 BitCount = 116 ID = 1581
   2.342720 2  397             Rx   d 8 00 00 00 00 00 00 00 00  Length = 1199426 BitCount = 124 ID = 919
   2.343770 2  4B9             Rx   d 6 00 00 00 00 00 00  Length = 1009430 BitCount = 105 ID = 1209
   2.345020 2  5F5             Rx   d 8 00 10 00 00 00 00 00 00  Length = 1209426 BitCount = 125 ID = 1525
   2.352490 2  4BD             Rx   d 6 00 00 00 00 00 00  Length = 999430 BitCount = 104 ID = 1213
   2.353710 2  658             Rx   d 8 78 28 00 08 00 90 00 00  Length = 1179426 BitCount = 122 ID = 1624
   2.354869 2  61A             Rx   d 8 DA 04 80 20 02 30 FF B3  Length = 1119430 BitCount = 116 ID = 1562
   2.356100 2  40C             Rx   d 8 16 01 01 04 00 04 00 00  Length = 1189426 BitCount = 123 ID = 1036
   2.362540 2  3B5             Rx   d 6 00 00 00 00 00 00  Length = 1029430 BitCount = 107 ID = 949
   2.363739 2  527             Rx   d 8 10 01 00 10 71 70 71 08  Length = 1159426 BitCount = 120 ID = 1319
   2.371499 2  69C             Rx   d 8 C6 00 00 00 08 00 14 02  Length = 1169426 BitCount = 121 ID = 1692
   2.372719 2  470             Rx   d 8 40 00 00 64 00 00 00 16  Length = 1179426 BitCount = 122 ID = 1136
   2.373969 2  64F             Rx   d 8 3F 00 00 00 00 00 00 00  Length = 1209441 BitCount = 125 ID = 1615
   2.375199 2  386             Rx   d 8 00 00 00 00 00 00 00 64  Length = 1189426 BitCount = 123 ID = 902
   2.376919 2  58C             Rx   d 8 80 00 B6 C0 00 00 00 05  Length = 1189441 BitCount = 123 ID = 1420
   2.378159 2  5AC             Rx   d 8 FE 6F 00 00 00 00 00 00  Length = 1199426 BitCount = 124 ID = 1452
   2.382518 2  2C1             Rx   d 6 00 00 00 00 02 00  Length = 1009430 BitCount = 105 ID = 705
   2.383698 2  3C3             Rx   d 8 89 27 00 00 CE D1 00 7E  Length = 1139430 BitCount = 118 ID = 963
   2.384558 2  531             Rx   d 4 00 20 50 70  Length = 809434 BitCount = 85 ID = 1329
   2.385708 2  651             Rx   d 8 80 02 50 AF 39 59 01 00  Length = 1109430 BitCount = 115 ID = 1617
   2.392638 2  359             Rx   d 8 FF 89 FF 00 00 6B 80 00  Length = 1159426 BitCount = 120 ID = 857
   2.393878 2  555             Rx   d 8 00 00 7C 00 01 00 00 00  Length = 1199426 BitCount = 124 ID = 1365
   2.402677 2  35B             Rx   d 8 00 00 00 00 20 19 0C 00  Length = 1179441 BitCount = 122 ID = 859
   2.403417 2  457             Rx   d 3 00 47 00  Length = 699442 BitCount = 74 ID = 1111
   2.407207 2  436             Rx   d 8 00 01 01 04 00 00 02 00  Length = 1189426 BitCount = 123 ID = 1078
   2.412676 2  320             Rx   d 8 00 00 00 01 00 0C 00 80  Length = 1209441 BitCount = 125 ID = 800
   2.413546 2  575             Rx   d 4 00 00 00 00  Length = 819434 BitCount = 86 ID = 1397
   2.415636 2  52D             Rx   d 8 FE 7F FF 0F FF 0F FF 0F  Length = 1169441 BitCount = 121 ID = 1325
   2.421476 2  69C             Rx   d 8 C7 09 06 32 01 02 00 08  Length = 1149426 BitCount = 119 ID = 1692
   2.422696 2  367             Rx   d 8 FC 00 00 00 7F EF 01 00  Length = 1179426 BitCount = 122 ID = 871
   2.423926 2  369             Rx   d 8 3D 00 00 D0 FF 00 00 00  Length = 1179426 BitCount = 122 ID = 873
   2.425146 2  470             Rx   d 8 40 00 00 64 00 00 00 16  Length = 1179426 BitCount = 122 ID = 1136
   2.426375 2  386             Rx   d 8 00 00 00 00 00 00 00 64  Length = 1189441 BitCount = 123 ID = 902
   2.427616 2  3E1             Rx   d 8 00 00 00 00 00 00 84 78  Length = 1199426 BitCount = 124 ID = 993
   2.432525 2  381             Rx   d 6 00 00 00 00 00 00  Length = 1029430 BitCount = 107 ID = 897
   2.433375 2  531             Rx   d 4 00 20 60 40  Length = 799438 BitCount = 84 ID = 1329
   2.440205 2  52F             Rx   d 8 00 00 FE 1F FE 1F FE 1F  Length = 1169426 BitCount = 121 ID = 1327
   2.441365 2  65F             Rx   d 8 00 AA 8C 8E C0 00 00 00  Length = 1119441 BitCount = 116 ID = 1631
   2.442544 2  621             Rx   d 8 00 75 19 00 00 3B 18 00  Length = 1139430 BitCount = 118 ID = 1569
   2.443784 2  397             Rx   d 8 00 00 00 00 00 00 00 00  Length = 1199426 BitCount = 124 ID = 919
   2.444834 2  4B9             Rx   d 6 00 00 00 00 00 00  Length = 1009430 BitCount = 105 ID = 1209
   2.446074 2  591             Rx   d 8 00 00 08 00 00 00 00 00  Length = 1199426 BitCount = 124 ID = 1425
   2.452474 2  4BD             Rx   d 6 00 00 00 00 00 00  Length = 999430 BitCount = 104 ID = 1213
   2.453694 2  658             Rx   d 8 78 28 00 08 00 90 00 00  Length = 1179426 BitCount = 122 ID = 1624
   2.454914 2  400             Rx   d 8 0C 01 0A 04 0C 00 00 00  Length = 1179441 BitCount = 122 ID = 1024
   2.462523 2  3B5             Rx   d 6 00 00 00 00 00 00  Length = 1029430 BitCount = 107 ID = 949
   2.463543 2  571             Rx   d 6 90 1F 00 08 04 00  Length = 979430 BitCount = 102 ID = 1393
   2.464213 2  5D1             Rx   d 2 10 00  Length = 629457 BitCount = 67 ID = 1489
   2.465383 2  532             Rx   d 8 00 00 8D 10 34 10 26 10  Length = 1129430 BitCount = 117 ID = 1330
   2.471523 2  69C             Rx   d 8 C8 00 13 0C 08 07 00 01  Length = 1149426 BitCount = 119 ID = 1692
   2.472743 2  470             Rx   d 8 40 00 00 64 00 00 00 16  Length = 1179441 BitCount = 122 ID = 1136
   2.474352 2  386             Rx   d 8 00 00 00 00 00 00 00 64  Length = 1189426 BitCount = 123 ID = 902
   2.477102 2  58C             Rx   d 8 80 00 B6 C0 00 00 00 05  Length = 1189426 BitCount = 123 ID = 1420
   2.478342 2  5AC             Rx   d 8 FE 6F 00 00 00 00 00 00  Length = 1199426 BitCount = 124 ID = 1452
   2.482512 2  2C1             Rx   d 6 00 00 00 00 02 00  Length = 1009445 BitCount = 105 ID = 705
   2.483672 2  3C3             Rx   d 8 89 27 00 00 CE 71 00 DE  Length = 1119430 BitCount = 116 ID = 963
   2.484522 2  531             Rx   d 4 00 20 70 50  Length = 799438 BitCount = 84 ID = 1329
   2.485672 2  651             Rx   d 8 80 02 50 AF 39 59 01 00  Length = 1109430 BitCount = 115 ID = 1617
   2.492631 2  359             Rx   d 8 FF 89 FF 00 00 6B 80 00  Length = 1159441 BitCount = 120 ID = 857
   2.493871 2  555             Rx   d 8 00 00 7C 00 01 00 00 00  Length = 1199426 BitCount = 124 ID = 1365
   2.502671 2  35B             Rx   d 8 00 00 00 00 20 19 0C 00  Length = 1179426 BitCount = 122 ID = 859
   2.503411 2  457             Rx   d 3 00 47 00  Length = 699442 BitCount = 74 ID = 1111
   2.505751 2  40C             Rx   d 8 16 01 01 04 00 04 00 00  Length = 1189426 BitCount = 123 ID = 1036
   2.521490 2  69C             Rx   d 8 C9 02 00 08 00 FF FF FF  Length = 1169426 BitCount = 121 ID = 1692
   2.522720 2  369             Rx   d 8 3D 00 00 D0 FF 00 00 00  Length = 1179426 BitCount = 122 ID = 873
   2.523940 2  470             Rx   d 8 40 00 00 64 00 00 00 16  Length = 1179426 BitCount = 122 ID = 1136
   2.524700 2  635             Rx   d 3 00 00 18  Length = 719438 BitCount = 76 ID = 1589
   2.525930 2  386             Rx   d 8 00 00 00 00 00 00 00 64  Length = 1189441 BitCount = 123 ID = 902
   2.527170 2  3E1             Rx   d 8 00 00 00 00 00 00 84 78  Length = 1199426 BitCount = 124 ID = 993
   2.528330 2  5E1             Rx   d 7 80 00 00 00 00 00 00  Length = 1099430 BitCount = 114 ID = 1505
   2.532499 2  381             Rx   d 6 00 00 00 00 00 00  Length = 1029430 BitCount = 107 ID = 897
   2.533349 2  531             Rx   d 4 00 20 80 A0  Length = 799438 BitCount = 84 ID = 1329
   2.540159 2  621             Rx   d 8 00 75 19 00 00 3B 18 00  Length = 1139430 BitCount = 118 ID = 1569
   2.542689 2  397             Rx   d 8 00 00 00 00 00 00 00 00  Length = 1199426 BitCount = 124 ID = 919
   2.543739 2  4B9             Rx   d 6 00 00 00 00 00 00  Length = 1009430 BitCount = 105 ID = 1209
   2.544569 2  653             Rx   d 4 81 01 81 01  Length = 789438 BitCount = 83 ID = 1619
   2.547218 2  436             Rx   d 8 00 01 01 04 00 00 02 00  Length = 1189426 BitCount = 123 ID = 1078
   2.552468 2  4BD             Rx   d 6 00 00 00 00 00 00  Length = 999430 BitCount = 104 ID = 1213
   2.553688 2  658             Rx   d 8 78 28 00 08 00 90 00 00  Length = 1179441 BitCount = 122 ID = 1624
   2.562527 2  3B5             Rx   d 6 00 00 00 00 00 00  Length = 1029430 BitCount = 107 ID = 949
   2.563727 2  527             Rx   d 8 10 01 00 10 71 70 71 08  Length = 1159426 BitCount = 120 ID = 1319
   2.571277 2  69C             Rx   d 6 CA 00 00 FE 01 00  Length = 999430 BitCount = 104 ID = 1692
   2.573067 2  470             Rx   d 8 40 00 00 64 00 00 00 16  Length = 1179441 BitCount = 122 ID = 1136
   2.574417 2  386             Rx   d 8 00 00 00 00 00 00 00 64  Length = 1189426 BitCount = 123 ID = 902
   2.576957 2  58C             Rx   d 8 80 00 B6 C0 00 00 00 05  Length = 1189426 BitCount = 123 ID = 1420
   2.578196 2  5AC             Rx   d 8 FE 6F 00 00 00 00 00 00  Length = 1199426 BitCount = 124 ID = 1452
   2.582506 2  2C1             Rx   d 6 00 00 00 00 02 00  Length = 1009430 BitCount = 105 ID = 705
   2.583676 2  3C3             Rx   d 8 89 27 00 00 CE 11 00 3E  Length = 1129430 BitCount = 117 ID = 963
   2.584506 2  531             Rx   d 4 00 20 90 B0  Length = 779438 BitCount = 82 ID = 1329
   2.585656 2  651             Rx   d 8 80 02 50 AF 39 59 01 00  Length = 1109430 BitCount = 115 ID = 1617
   2.592636 2  359             Rx   d 8 FF 89 FF 00 00 6B 80 00  Length = 1159426 BitCount = 120 ID = 857
   2.593875 2  555             Rx   d 8 00 00 7C 00 01 00 00 00  Length = 1199426 BitCount = 124 ID = 1365
   2.595095 2  400             Rx   d 8 0C 01 0A 04 0C 00 00 00  Length = 1179426 BitCount = 122 ID = 1024
   2.602665 2  35B             Rx   d 8 00 00 00 00 20 19 0C 00  Length = 1179426 BitCount = 122 ID = 859
   2.603405 2  457             Rx   d 3 00 47 00  Length = 699453 BitCount = 74 ID = 1111
   2.612644 2  320             Rx   d 8 00 00 00 01 00 04 00 80  Length = 1189426 BitCount = 123 ID = 800
   2.613504 2  575             Rx   d 4 00 00 00 00  Length = 819434 BitCount = 86 ID = 1397
   2.622654 2  367             Rx   d 8 FC 00 00 00 7F EF 01 00  Length = 1179426 BitCount = 122 ID = 871
   2.623884 2  369             Rx   d 8 3D 00 00 D0 FF 00 00 00  Length = 1179426 BitCount = 122 ID = 873
   2.625103 2  470             Rx   d 8 40 00 00 64 00 00 00 16  Length = 1179426 BitCount = 122 ID = 1136
   2.626333 2  386             Rx   d 8 00 00 00 00 00 00 00 64  Length = 1189426 BitCount = 123 ID = 902
   2.627573 2  3E1             Rx   d 8 00 00 00 00 00 00 84 78  Length = 1199426 BitCount = 124 ID = 993
   2.628843 2  3E9             Rx   d 8 00 00 00 00 00 00 00 00  Length = 1209441 BitCount = 125 ID = 1001
   2.630113 2  5E8             Rx   d 8 00 40 00 00 00 00 40 00  Length = 1209426 BitCount = 125 ID = 1512
   2.632514 2  381             Rx   d 6 00 00 00 00 00 00  Length = 1029445 BitCount = 107 ID = 897
   2.633363 2  531             Rx   d 4 00 20 A0 80  Length = 799438 BitCount = 84 ID = 1329
   2.640253 2  65F             Rx   d 8 01 00 00 00 00 00 00 00  Length = 1129430 BitCount = 117 ID = 1631
   2.641433 2  621             Rx   d 8 00 75 19 00 00 3B 18 00  Length = 1139430 BitCount = 118 ID = 1569
   2.642713 2  397             Rx   d 8 00 00 00 00 00 00 00 00  Length = 1199426 BitCount = 124 ID = 919
   2.643763 2  4B9             Rx   d 6 00 00 00 00 00 00  Length = 1009430 BitCount = 105 ID = 1209
   2.645003 2  591             Rx   d 8 00 00 08 00 00 00 00 00  Length = 1199426 BitCount = 124 ID = 1425
   2.646233 2  40C             Rx   d 8 16 01 01 04 00 04 00 00  Length = 1189426 BitCount = 123 ID = 1036
   2.647413 2  655             Rx   d 8 75 00 F0 03 18 00 80 C0  Length = 1139430 BitCount = 118 ID = 1621
   2.652462 2  4BD             Rx   d 6 00 00 00 00 00 00  Length = 999430 BitCount = 104 ID = 1213
   2.653692 2  658             Rx   d 8 78 28 00 08 00 90 00 00  Length = 1179426 BitCount = 122 ID = 1624
   2.662912 2  3B5             Rx   d 6 00 00 00 00 00 00  Length = 1029430 BitCount = 107 ID = 949
   2.663582 2  5D1             Rx   d 2 10 00  Length = 629442 BitCount = 67 ID = 1489
   2.664581 2  6B4             Rx   d 6 93 01 DF 01 61 78  Length = 959430 BitCount = 100 ID = 1716
   2.672641 2  470             Rx   d 8 40 00 00 64 00 00 00 16  Length = 1179426 BitCount = 122 ID = 1136
   2.674331 2  386             Rx   d 8 00 00 00 00 00 00 00 64  Length = 1189426 BitCount = 123 ID = 902
   2.676401 2  569             Rx   d 8 00 00 00 3A 00 00 00 00  Length = 1179441 BitCount = 122 ID = 1385
   2.677631 2  58C             Rx   d 8 80 00 B6 C0 00 00 00 05  Length = 1189426 BitCount = 123 ID = 1420
   2.678871 2  5AC             Rx   d 8 FE 6F 00 00 00 00 00 00  Length = 1199441 BitCount = 124 ID = 1452
   2.682530 2  2C1             Rx   d 6 00 00 00 00 02 00  Length = 1009430 BitCount = 105 ID = 705
   2.683680 2  3C3             Rx   d 8 89 27 00 00 CE B1 00 9E  Length = 1109430 BitCount = 115 ID = 963
   2.684520 2  531             Rx   d 4 00 20 B0 90  Length = 789438 BitCount = 83 ID = 1329
   2.685670 2  651             Rx   d 8 80 02 50 AF 39 59 01 00  Length = 1109430 BitCount = 115 ID = 1617
   2.692620 2  359             Rx   d 8 FF 89 FF 00 00 6B 80 00  Length = 1159426 BitCount = 120 ID = 857
   2.693860 2  555             Rx   d 8 00 00 7C 00 01 00 00 00  Length = 1199426 BitCount = 124 ID = 1365
   2.697209 2  436             Rx   d 8 00 01 01 04 00 00 02 00  Length = 1189441 BitCount = 123 ID = 1078
   2.702659 2  35B             Rx   d 8 00 00 00 00 20 19 0C 00  Length = 1179441 BitCount = 122 ID = 859
   2.703399 2  457             Rx   d 3 00 47 00  Length = 699442 BitCount = 74 ID = 1111
   2.722668 2  369             Rx   d 8 3D 00 00 D0 FF 00 00 00  Length = 1179426 BitCount = 122 ID = 873
   2.723888 2  470             Rx   d 8 40 00 00 64 00 00 00 16  Length = 1179426 BitCount = 122 ID = 1136
   2.724648 2  635             Rx   d 3 00 00 18  Length = 719438 BitCount = 76 ID = 1589
   2.725878 2  386             Rx   d 8 00 00 00 00 00 00 00 64  Length = 1189426 BitCount = 123 ID = 902
   2.727098 2  3E1             Rx   d 8 00 00 FF 00 00 00 84 78  Length = 1179426 BitCount = 122 ID = 993
   2.728348 2  3E3             Rx   d 8 00 00 84 00 00 00 00 00  Length = 1189441 BitCount = 123 ID = 995
   2.729508 2  5E1             Rx   d 7 80 00 00 00 00 00 00  Length = 1099445 BitCount = 114 ID = 1505
   2.732477 2  381             Rx   d 6 00 00 00 00 00 00  Length = 1029430 BitCount = 107 ID = 897
   2.733327 2  531             Rx   d 4 00 20 C0 E0  Length = 799438 BitCount = 84 ID = 1329
   2.740137 2  621             Rx   d 8 00 75 19 00 00 3B 18 00  Length = 1139430 BitCount = 118 ID = 1569
   2.742697 2  397             Rx   d 8 00 00 00 00 00 00 00 00  Length = 1199426 BitCount = 124 ID = 919
   2.743747 2  4B9             Rx   d 6 00 00 00 00 00 00  Length = 1009445 BitCount = 105 ID = 1209
   2.744966 2  400             Rx   d 8 0C 01 0A 04 0C 00 00 00  Length = 1179426 BitCount = 122 ID = 1024
   2.746626 2  57C             Rx   d 8 50 57 03 00 00 00 00 04  Length = 1179426 BitCount = 122 ID = 1404
   2.752666 2  4BD             Rx   d 6 00 00 00 00 00 00  Length = 999445 BitCount = 104 ID = 1213
   2.753886 2  658             Rx   d 8 78 28 00 08 00 90 00 00  Length = 1179441 BitCount = 122 ID = 1624
   2.755086 2  66C             Rx   d 8 3C 42 03 00 31 00 03 01  Length = 1159426 BitCount = 120 ID = 1644
   2.762515 2  3B5             Rx   d 6 00 00 00 00 00 00  Length = 1029430 BitCount = 107 ID = 949
   2.763805 2  527             Rx   d 8 10 01 00 10 71 70 71 08  Length = 1159441 BitCount = 120 ID = 1319
   2.772635 2  470             Rx   d 8 40 00 00 64 00 00 00 16  Length = 1179426 BitCount = 122 ID = 1136
   2.774325 2  386             Rx   d 8 00 00 00 00 00 00 00 64  Length = 1189426 BitCount = 123 ID = 902
   2.777044 2  58C             Rx   d 8 80 00 B6 C0 B9 00 00 05  Length = 1159426 BitCount = 120 ID = 1420
   2.778284 2  5AC             Rx   d 8 FE 6F 00 00 00 00 00 00  Length = 1199426 BitCount = 124 ID = 1452
   2.782504 2  2C1             Rx   d 6 00 00 00 00 02 00  Length = 1009445 BitCount = 105 ID = 705
   2.783674 2  3C3             Rx   d 8 89 27 00 00 CE 51 00 FE  Length = 1129430 BitCount = 117 ID = 963
   2.784524 2  531             Rx   d 4 00 20 D0 F0  Length = 799438 BitCount = 84 ID = 1329
   2.785674 2  651             Rx   d 8 80 02 50 AF 39 59 01 00  Length = 1109430 BitCount = 115 ID = 1617
   2.791484 2  6E7             Rx   d 8 34 42 03 00 11 00 04 01  Length = 1139430 BitCount = 118 ID = 1767
   2.792683 2  359             Rx   d 8 FF 89 FF 00 00 6B 80 00  Length = 1159426 BitCount = 120 ID = 857
   2.793923 2  555             Rx   d 8 00 00 7C 00 01 00 00 00  Length = 1199426 BitCount = 124 ID = 1365
   2.795784 2  40C             Rx   d 8 16 01 01 04 00 04 00 00  Length = 1189441 BitCount = 123 ID = 1036
   2.802663 2  35B             Rx   d 8 00 00 00 00 20 19 0C 00  Length = 1179426 BitCount = 122 ID = 859
   2.803403 2  457             Rx   d 3 00 47 00  Length = 699442 BitCount = 74 ID = 1111
   2.812643 2  320             Rx   d 8 00 00 00 01 00 0C 00 80  Length = 1209426 BitCount = 125 ID = 800
   2.813503 2  575             Rx   d 4 00 00 00 00  Length = 819434 BitCount = 86 ID = 1397
   2.822642 2  367             Rx   d 8 FC 00 00 00 7F EF 01 00  Length = 1179426 BitCount = 122 ID = 871
   2.823882 2  369             Rx   d 8 3D 00 00 D0 FF 00 00 00  Length = 1179441 BitCount = 122 ID = 873
   2.825102 2  470             Rx   d 8 40 00 00 64 00 00 00 16  Length = 1179426 BitCount = 122 ID = 1136
   2.826332 2  386             Rx   d 8 00 00 00 00 00 00 00 64  Length = 1189441 BitCount = 123 ID = 902
   2.827552 2  3E1             Rx   d 8 00 00 FF 00 00 00 84 78  Length = 1179426 BitCount = 122 ID = 993
   2.832481 2  381             Rx   d 6 00 00 00 00 00 00  Length = 1029430 BitCount = 107 ID = 897
   2.833331 2  531             Rx   d 4 00 20 E0 C0  Length = 799438 BitCount = 84 ID = 1329
   2.837211 2  436             Rx   d 8 00 01 01 04 00 00 02 00  Length = 1189441 BitCount = 123 ID = 1078
   2.840101 2  65F             Rx   d 8 02 00 00 00 00 00 00 00  Length = 1119430 BitCount = 116 ID = 1631
   2.841281 2  621             Rx   d 8 00 75 19 00 00 3B 18 00  Length = 1139430 BitCount = 118 ID = 1569
   2.842491 2  679             Rx   d 8 37 42 03 00 1D 00 04 00  Length = 1159426 BitCount = 120 ID = 1657
   2.843731 2  397             Rx   d 8 00 00 00 00 00 00 00 00  Length = 1199441 BitCount = 124 ID = 919
   2.844781 2  4B9             Rx   d 6 00 00 00 00 00 00  Length = 1009430 BitCount = 105 ID = 1209
   2.846021 2  591             Rx   d 8 00 00 08 00 00 00 00 00  Length = 1199426 BitCount = 124 ID = 1425
   2.847271 2  5F5             Rx   d 8 00 10 00 00 00 00 00 00  Length = 1209441 BitCount = 125 ID = 1525
   2.852440 2  4BD             Rx   d 6 00 00 00 00 00 00  Length = 999430 BitCount = 104 ID = 1213
   2.853710 2  658             Rx   d 8 78 28 00 08 00 8F 00 00  Length = 1179441 BitCount = 122 ID = 1624
   2.854880 2  61A             Rx   d 8 61 05 80 20 02 30 45 B3  Length = 1129430 BitCount = 117 ID = 1562
   2.862500 2  3B5             Rx   d 6 00 00 00 00 00 00  Length = 1029445 BitCount = 107 ID = 949
   2.863169 2  5D1             Rx   d 2 10 00  Length = 629442 BitCount = 67 ID = 1489
   2.872629 2  470             Rx   d 8 40 00 00 64 00 00 00 16  Length = 1179426 BitCount = 122 ID = 1136
   2.873879 2  64F             Rx   d 8 3F 00 00 00 00 00 00 00  Length = 1209426 BitCount = 125 ID = 1615
   2.875109 2  386             Rx   d 8 00 00 00 00 00 00 00 64  Length = 1189426 BitCount = 123 ID = 902
   2.876869 2  58C             Rx   d 8 80 00 B6 C0 B9 00 00 05  Length = 1159426 BitCount = 120 ID = 1420
   2.878079 2  5AC             Rx   d 8 FE 6F 00 00 FB 00 00 00  Length = 1169426 BitCount = 121 ID = 1452
   2.882488 2  2C1             Rx   d 6 00 00 00 00 02 00  Length = 1009430 BitCount = 105 ID = 705
   2.883638 2  3C3             Rx   d 8 89 27 00 00 CE F1 00 5E  Length = 1109430 BitCount = 115 ID = 963
   2.884498 2  531             Rx   d 4 00 20 F0 D0  Length = 809434 BitCount = 85 ID = 1329
   2.885648 2  651             Rx   d 8 80 02 50 AF 39 59 01 00  Length = 1109430 BitCount = 115 ID = 1617
   2.886868 2  400             Rx   d 8 0C 01 0A 04 0C 00 00 00  Length = 1179426 BitCount = 122 ID = 1024
   2.892608 2  359             Rx   d 8 FF 89 FF 00 00 6B 80 00  Length = 1159426 BitCount = 120 ID = 857
   2.893848 2  555             Rx   d 8 00 00 7C 00 01 00 00 00  Length = 1199426 BitCount = 124 ID = 1365
   2.902657 2  35B             Rx   d 8 00 00 00 00 20 19 0C 00  Length = 1179426 BitCount = 122 ID = 859
   2.903397 2  457             Rx   d 3 00 47 00  Length = 699453 BitCount = 74 ID = 1111
   2.922656 2  369             Rx   d 8 3D 00 00 D0 FF 00 00 00  Length = 1179426 BitCount = 122 ID = 873
   2.923876 2  470             Rx   d 8 40 00 00 64 00 00 00 16  Length = 1179426 BitCount = 122 ID = 1136
   2.924636 2  635             Rx   d 3 00 00 18  Length = 719438 BitCount = 76 ID = 1589
   2.925866 2  386             Rx   d 8 00 00 00 00 00 00 00 64  Length = 1189426 BitCount = 123 ID = 902
   2.927085 2  3E1             Rx   d 8 00 00 FF 00 00 00 84 78  Length = 1179426 BitCount = 122 ID = 993
   2.928245 2  5E1             Rx   d 7 80 00 00 00 00 00 00  Length = 1099430 BitCount = 114 ID = 1505
   2.932705 2  381             Rx   d 6 00 00 00 00 00 00  Length = 1029430 BitCount = 107 ID = 897
   2.933565 2  531             Rx   d 4 00 20 00 20  Length = 809434 BitCount = 85 ID = 1329
   2.936045 2  40C             Rx   d 8 16 01 01 04 00 04 00 00  Length = 1189426 BitCount = 123 ID = 1036
   2.940125 2  621             Rx   d 8 00 75 19 00 00 3B 18 00  Length = 1139430 BitCount = 118 ID = 1569
   2.942695 2  397             Rx   d 8 00 00 00 00 00 00 00 00  Length = 1199426 BitCount = 124 ID = 919
   2.943745 2  4B9             Rx   d 6 00 00 00 00 00 00  Length = 1009430 BitCount = 105 ID = 1209
   2.951434 2  69C             Rx   d 8 39 42 03 00 25 00 04 00  Length = 1159426 BitCount = 120 ID = 1692
   2.952474 2  4BD             Rx   d 6 00 00 00 00 00 00  Length = 999430 BitCount = 104 ID = 1213
   2.953694 2  658             Rx   d 8 78 28 00 08 00 8F 00 00  Length = 1179426 BitCount = 122 ID = 1624
   2.962504 2  3B5             Rx   d 6 00 00 00 00 00 00  Length = 1029430 BitCount = 107 ID = 949
   2.963704 2  527             Rx   d 8 10 01 00 10 71 70 71 08  Length = 1159426 BitCount = 120 ID = 1319
   2.964724 2  571             Rx   d 6 90 1F 00 08 04 00  Length = 979445 BitCount = 102 ID = 1393
   2.972613 2  470             Rx   d 8 40 00 00 64 00 00 00 16  Length = 1179426 BitCount = 122 ID = 1136
   2.974323 2  386             Rx   d 8 00 00 00 00 00 00 00 64  Length = 1189426 BitCount = 123 ID = 902
   2.976863 2  58C             Rx   d 8 80 00 B6 C0 B9 00 00 05  Length = 1159441 BitCount = 120 ID = 1420
   2.978073 2  5AC             Rx   d 8 FE 6F 00 00 FB 00 00 00  Length = 1169426 BitCount = 121 ID = 1452
   2.982492 2  2C1             Rx   d 6 00 00 00 00 02 00  Length = 1009430 BitCount = 105 ID = 705
   2.983652 2  3C3             Rx   d 8 89 27 00 00 CE 91 00 BE  Length = 1119430 BitCount = 116 ID = 963
   2.984502 2  531             Rx   d 4 00 20 10 30  Length = 799438 BitCount = 84 ID = 1329
   2.985652 2  651             Rx   d 8 80 02 50 AF 39 59 01 00  Length = 1109430 BitCount = 115 ID = 1617
   2.987203 2  436             Rx   d 8 00 01 01 04 00 00 02 00  Length = 1189426 BitCount = 123 ID = 1078
   2.992632 2  359             Rx   d 8 FF 89 FF 00 00 6B 80 00  Length = 1159426 BitCount = 120 ID = 857
   2.993882 2  555             Rx   d 8 00 00 7C 00 01 00 00 00  Length = 1199426 BitCount = 124 ID = 1365
   3.002652 2  35B             Rx   d 8 00 00 00 00 20 19 0C 00  Length = 1179441 BitCount = 122 ID = 859
   3.003392 2  457             Rx   d 3 00 47 00  Length = 699442 BitCount = 74 ID = 1111
   3.012611 2  320             Rx   d 8 00 00 00 01 00 04 00 80  Length = 1189441 BitCount = 123 ID = 800
   3.013471 2  575             Rx   d 4 00 00 00 00  Length = 819434 BitCount = 86 ID = 1397
   3.020974 CAN 1 Status:chip status error active
   3.020974 CAN 2 Status:chip status error active
   3.022710 2  367             Rx   d 8 FC 00 00 00 7F EF 01 00  Length = 1179426 BitCount = 122 ID = 871
   3.023940 2  369             Rx   d 8 3D 00 00 D0 FF 00 00 00  Length = 1179426 BitCount = 122 ID = 873
   3.025160 2  470             Rx   d 8 40 00 00 64 00 00 00 16  Length = 1179426 BitCount = 122 ID = 1136
   3.026390 2  386             Rx   d 8 00 00 00 00 00 00 00 64  Length = 1189426 BitCount = 123 ID = 902
   3.027611 2  3E1             Rx   d 8 00 00 FF 00 00 00 84 78  Length = 1179426 BitCount = 122 ID = 993
   3.032470 2  381             Rx   d 6 00 00 00 00 00 00  Length = 1029430 BitCount = 107 ID = 897
   3.033320 2  531             Rx   d 4 00 20 20 00  Length = 799438 BitCount = 84 ID = 1329
   3.034540 2  400             Rx   d 8 0C 01 0A 04 0C 00 00 00  Length = 1179426 BitCount = 122 ID = 1024
   3.040100 2  65F             Rx   d 8 00 AA 8C 8E C0 00 00 00  Length = 1119430 BitCount = 116 ID = 1631
   3.041280 2  621             Rx   d 8 00 75 19 00 00 3B 18 00  Length = 1139430 BitCount = 118 ID = 1569
   3.042690 2  397             Rx   d 8 00 00 00 00 00 00 00 00  Length = 1199426 BitCount = 124 ID = 919
   3.043740 2  4B9             Rx   d 6 00 00 00 00 00 00  Length = 1009445 BitCount = 105 ID = 1209
   3.044980 2  591             Rx   d 8 00 00 08 00 00 00 00 00  Length = 1199441 BitCount = 124 ID = 1425
   3.045809 2  653             Rx   d 4 81 01 81 01  Length = 789438 BitCount = 83 ID = 1619
   3.047019 2  62A             Rx   d 8 40 10 00 00 00 00 2C 00  Length = 1169426 BitCount = 121 ID = 1578
   3.052419 2  4BD             Rx   d 6 00 00 00 00 00 00  Length = 999430 BitCount = 104 ID = 1213
   3.053639 2  658             Rx   d 8 78 28 00 08 00 8F 00 00  Length = 1179426 BitCount = 122 ID = 1624
   3.062478 2  3B5             Rx   d 6 00 00 00 00 00 00  Length = 1029430 BitCount = 107 ID = 949
   3.063148 2  5D1             Rx   d 2 10 00  Length = 629442 BitCount = 67 ID = 1489
   3.072618 2  470             Rx   d 8 40 00 00 64 00 00 00 16  Length = 1179426 BitCount = 122 ID = 1136
   3.074308 2  386             Rx   d 8 00 00 00 00 00 00 00 64  Length = 1189426 BitCount = 123 ID = 902
   3.077008 2  58C             Rx   d 8 80 00 B6 C0 B9 00 00 05  Length = 1159426 BitCount = 120 ID = 1420
   3.078217 2  5AC             Rx   d 8 FE 6F 00 00 FB 00 00 00  Length = 1169426 BitCount = 121 ID = 1452
   3.082477 2  2C1             Rx   d 6 00 00 00 00 02 00  Length = 1009445 BitCount = 105 ID = 705
   3.083637 2  3C3             Rx   d 8 89 27 00 00 CE 31 00 1E  Length = 1119430 BitCount = 116 ID = 963
   3.084477 2  531             Rx   d 4 00 20 30 10  Length = 789438 BitCount = 83 ID = 1329
   3.085707 2  40C             Rx   d 8 16 01 01 04 00 04 00 00  Length = 1189426 BitCount = 123 ID = 1036
   3.086857 2  651             Rx   d 8 80 02 50 AF 39 59 01 00  Length = 1109430 BitCount = 115 ID = 1617
   3.092607 2  359             Rx   d 8 FF 89 FF 00 00 6B 80 00  Length = 1159426 BitCount = 120 ID = 857
   3.093847 2  555             Rx   d 8 00 00 7C 00 01 00 00 00  Length = 1199426 BitCount = 124 ID = 1365
   3.102626 2  35B             Rx   d 8 00 00 00 00 20 19 0C 00  Length = 1179426 BitCount = 122 ID = 859
   3.103366 2  457             Rx   d 3 00 47 00  Length = 699442 BitCount = 74 ID = 1111
   3.122635 2  369             Rx   d 8 3D 00 00 D0 FF 00 00 00  Length = 1179426 BitCount = 122 ID = 873
   3.123855 2  470             Rx   d 8 40 00 00 64 00 00 00 16  Length = 1179441 BitCount = 122 ID = 1136
   3.124615 2  635             Rx   d 3 00 00 18  Length = 719438 BitCount = 76 ID = 1589
   3.125835 2  3E1             Rx   d 8 00 00 FF 00 00 00 84 78  Length = 1179426 BitCount = 122 ID = 993
   3.127065 2  386             Rx   d 8 00 00 00 00 00 00 00 64  Length = 1189426 BitCount = 123 ID = 902
   3.128315 2  3E9             Rx   d 8 00 00 00 00 00 00 00 00  Length = 1209441 BitCount = 125 ID = 1001
   3.129545 2  436             Rx   d 8 00 01 01 04 00 00 02 00  Length = 1189426 BitCount = 123 ID = 1078
   3.130685 2  5E1             Rx   d 7 80 00 00 00 00 00 00  Length = 1099430 BitCount = 114 ID = 1505
   3.131955 2  5E8             Rx   d 8 00 40 00 00 00 00 40 00  Length = 1209426 BitCount = 125 ID = 1512
   3.133025 2  381             Rx   d 6 00 00 00 00 00 00  Length = 1029430 BitCount = 107 ID = 897
   3.133884 2  531             Rx   d 4 00 20 40 60  Length = 809449 BitCount = 85 ID = 1329
   3.140114 2  621             Rx   d 8 00 75 19 00 00 3B 18 00  Length = 1139430 BitCount = 118 ID = 1569
   3.142684 2  397             Rx   d 8 00 00 00 00 00 00 00 00  Length = 1199426 BitCount = 124 ID = 919
   3.143734 2  4B9             Rx   d 6 00 00 00 00 00 00  Length = 1009430 BitCount = 105 ID = 1209
   3.144914 2  655             Rx   d 8 75 00 F0 03 18 00 80 C0  Length = 1139430 BitCount = 118 ID = 1621
   3.152443 2  4BD             Rx   d 6 00 00 00 00 00 00  Length = 999430 BitCount = 104 ID = 1213
   3.153663 2  658             Rx   d 8 78 28 00 08 00 8F 00 00  Length = 1179441 BitCount = 122 ID = 1624
   3.162493 2  3B5             Rx   d 6 00 00 00 00 00 00  Length = 1029445 BitCount = 107 ID = 949
   3.163693 2  527             Rx   d 8 10 01 00 10 71 70 71 08  Length = 1159426 BitCount = 120 ID = 1319
   3.164693 2  6B4             Rx   d 6 93 01 DF 01 61 78  Length = 959430 BitCount = 100 ID = 1716
   3.172602 2  470             Rx   d 8 40 00 00 64 00 00 00 16  Length = 1179441 BitCount = 122 ID = 1136
   3.173822 2  400             Rx   d 8 0C 01 0A 04 0C 00 00 00  Length = 1179426 BitCount = 122 ID = 1024
   3.175052 2  386             Rx   d 8 00 00 00 00 00 00 00 64  Length = 1189441 BitCount = 123 ID = 902
   3.176272 2  569             Rx   d 8 00 00 00 3A 00 00 00 00  Length = 1179426 BitCount = 122 ID = 1385
   3.177472 2  58C             Rx   d 8 80 00 B6 C0 B9 00 00 05  Length = 1159441 BitCount = 120 ID = 1420
   3.178682 2  5AC             Rx   d 8 FE 6F 00 00 FB 00 00 00  Length = 1169426 BitCount = 121 ID = 1452
   3.179882 2  61C             Rx   d 8 00 F0 07 40 FE 03 00 0B  Length = 1159426 BitCount = 120 ID = 1564
   3.182491 2  2C1             Rx   d 6 00 00 00 00 02 00  Length = 1009430 BitCount = 105 ID = 705
   3.183671 2  3C3             Rx   d 8 89 27 00 00 CE D1 00 7E  Length = 1139430 BitCount = 118 ID = 963
   3.184531 2  531             Rx   d 4 00 20 50 70  Length = 809434 BitCount = 85 ID = 1329
   3.185681 2  651             Rx   d 8 80 02 50 AF 39 59 01 00  Length = 1109430 BitCount = 115 ID = 1617
   3.189291 2  60E             Rx   d 2 08 02  Length = 629442 BitCount = 67 ID = 1550
   3.192591 2  359             Rx   d 8 FF 89 FF 00 00 6B 80 00  Length = 1159426 BitCount = 120 ID = 857
   3.193831 2  555             Rx   d 8 00 00 7C 00 01 00 00 00  Length = 1199426 BitCount = 124 ID = 1365
   3.202630 2  35B             Rx   d 8 00 00 00 00 20 19 0C 00  Length = 1179426 BitCount = 122 ID = 859
   3.203370 2  457             Rx   d 3 00 47 00  Length = 699453 BitCount = 74 ID = 1111
   3.206650 2  481             Rx   d 2 01 00  Length = 639442 BitCount = 68 ID = 1153
   3.207900 2  661             Rx   d 8 00 00 00 00 00 00 00 00  Length = 1199426 BitCount = 124 ID = 1633
   3.209040 2  665             Rx   d 7 00 00 00 00 00 00 00  Length = 1099445 BitCount = 114 ID = 1637
   3.209770 2  666             Rx   d 2 00 00  Length = 639442 BitCount = 68 ID = 1638
   3.212630 2  320             Rx   d 8 00 00 00 01 00 0C 00 80  Length = 1209426 BitCount = 125 ID = 800
   3.213490 2  575             Rx   d 4 00 00 00 00  Length = 819434 BitCount = 86 ID = 1397
   3.214660 2  65D             Rx   d 8 81 F8 26 D0 F0 DC 80 11  Length = 1119430 BitCount = 116 ID = 1629
   3.215890 2  40C             Rx   d 8 16 01 01 04 00 04 00 00  Length = 1189426 BitCount = 123 ID = 1036
   3.222609 2  367             Rx   d 8 FC 00 00 00 7F EF 01 00  Length = 1179426 BitCount = 122 ID = 871
   3.223839 2  369             Rx   d 8 3D 00 00 D0 FF 00 00 00  Length = 1179426 BitCount = 122 ID = 873
   3.225059 2  470             Rx   d 8 40 00 00 64 00 00 00 16  Length = 1179426 BitCount = 122 ID = 1136
   3.226289 2  386             Rx   d 8 00 00 00 00 00 00 00 64  Length = 1189426 BitCount = 123 ID = 902
   3.227509 2  3E1             Rx   d 8 00 00 FF 00 00 00 84 78  Length = 1179426 BitCount = 122 ID = 993
   3.232459 2  381             Rx   d 6 00 00 00 00 00 00  Length = 1029430 BitCount = 107 ID = 897
   3.233309 2  531             Rx   d 4 00 20 60 40  Length = 799449 BitCount = 84 ID = 1329
   3.240079 2  65F             Rx   d 8 01 00 00 00 00 00 00 00  Length = 1129441 BitCount = 117 ID = 1631
   3.241259 2  621             Rx   d 8 00 75 19 00 00 3B 18 00  Length = 1139430 BitCount = 118 ID = 1569
   3.242679 2  397             Rx   d 8 00 00 00 00 00 00 00 00  Length = 1199426 BitCount = 124 ID = 919
   3.243729 2  4B9             Rx   d 6 00 00 00 00 00 00  Length = 1009430 BitCount = 105 ID = 1209
   3.244968 2  591             Rx   d 8 00 00 08 00 00 00 00 00  Length = 1199426 BitCount = 124 ID = 1425
   3.246638 2  57C             Rx   d 8 60 57 03 00 00 00 00 34  Length = 1169426 BitCount = 121 ID = 1404
   3.252408 2  4BD             Rx   d 6 00 00 00 00 00 00  Length = 999430 BitCount = 104 ID = 1213
   3.253628 2  658             Rx   d 8 78 28 00 08 00 8F 00 00  Length = 1179426 BitCount = 122 ID = 1624
   3.257218 2  436             Rx   d 8 00 01 01 04 00 00 02 00  Length = 1189426 BitCount = 123 ID = 1078
   3.262468 2  3B5             Rx   d 6 00 00 00 00 00 00  Length = 1029430 BitCount = 107 ID = 949
   3.263138 2  5D1             Rx   d 2 10 00  Length = 629442 BitCount = 67 ID = 1489
   3.272597 2  470             Rx   d 8 40 00 00 64 00 00 00 16  Length = 1179426 BitCount = 122 ID = 1136
   3.274337 2  386             Rx   d 8 00 00 00 00 00 00 00 64  Length = 1189441 BitCount = 123 ID = 902
   3.276837 2  58C             Rx   d 8 80 00 B6 C0 B9 00 00 05  Length = 1159441 BitCount = 120 ID = 1420
   3.278047 2  5AC             Rx   d 8 FE 6F 00 00 FB 00 00 00  Length = 1169426 BitCount = 121 ID = 1452
   3.282457 2  2C1             Rx   d 6 00 00 00 00 02 00  Length = 1009430 BitCount = 105 ID = 705
   3.283617 2  3C3             Rx   d 8 89 27 00 00 CE 71 00 DE  Length = 1119430 BitCount = 116 ID = 963
   3.284466 2  531             Rx   d 4 00 20 70 50  Length = 799449 BitCount = 84 ID = 1329
   3.285616 2  651             Rx   d 8 80 02 50 AF 39 59 01 00  Length = 1109430 BitCount = 115 ID = 1617
   3.290276 2  629             Rx   d 8 FF 0F FF 7F F8 26 40 00  Length = 1149441 BitCount = 119 ID = 1577
   3.292576 2  359             Rx   d 8 FF 89 FF 00 00 6B 80 00  Length = 1159426 BitCount = 120 ID = 857
   3.293816 2  555             Rx   d 8 00 00 7C 00 01 00 00 00  Length = 1199441 BitCount = 124 ID = 1365
   3.302615 2  35B             Rx   d 8 00 00 00 00 20 19 0C 00  Length = 1179426 BitCount = 122 ID = 859
   3.303355 2  457             Rx   d 3 00 47 00  Length = 699442 BitCount = 74 ID = 1111
   3.304575 2  400             Rx   d 8 0C 01 0A 04 0C 00 00 00  Length = 1179426 BitCount = 122 ID = 1024
   3.315545 2  62B             Rx   d 8 00 10 00 40 1B 00 FE 7F  Length = 1149441 BitCount = 119 ID = 1579
   3.322624 2  369             Rx   d 8 3D 00 00 D0 FF 00 00 00  Length = 1179426 BitCount = 122 ID = 873
   3.323844 2  470             Rx   d 8 40 00 00 64 00 00 00 16  Length = 1179426 BitCount = 122 ID = 1136
   3.324604 2  635             Rx   d 3 00 00 18  Length = 719453 BitCount = 76 ID = 1589
   3.325824 2  3E1             Rx   d 8 00 00 FF 00 00 00 84 78  Length = 1179426 BitCount = 122 ID = 993
   3.327054 2  386             Rx   d 8 00 00 00 00 00 00 00 64  Length = 1189441 BitCount = 123 ID = 902
   3.328195 2  5E1             Rx   d 7 80 00 00 00 00 00 00  Length = 1099430 BitCount = 114 ID = 1505
   3.332444 2  381             Rx   d 6 00 00 00 00 00 00  Length = 1029430 BitCount = 107 ID = 897
   3.333294 2  531             Rx   d 4 00 20 80 A0  Length = 799438 BitCount = 84 ID = 1329
   3.340114 2  621             Rx   d 8 00 75 19 00 00 3B 18 00  Length = 1139430 BitCount = 118 ID = 1569
   3.341274 2  62D             Rx   d 8 00 10 F4 40 54 03 11 40  Length = 1119430 BitCount = 116 ID = 1581
   3.342684 2  397             Rx   d 8 00 00 00 00 00 00 00 00  Length = 1199426 BitCount = 124 ID = 919
   3.343734 2  4B9             Rx   d 6 00 00 00 00 00 00  Length = 1009445 BitCount = 105 ID = 1209
   3.344984 2  5F5             Rx   d 8 00 10 00 00 00 00 00 00  Length = 1209426 BitCount = 125 ID = 1525
   3.352433 2  4BD             Rx   d 6 00 00 00 00 00 00  Length = 999430 BitCount = 104 ID = 1213
   3.353653 2  658             Rx   d 8 78 28 00 08 00 8F 00 00  Length = 1179426 BitCount = 122 ID = 1624
   3.354823 2  61A             Rx   d 8 62 06 80 20 02 30 45 B3  Length = 1129441 BitCount = 117 ID = 1562
   3.356053 2  40C             Rx   d 8 16 01 01 04 00 04 00 00  Length = 1189426 BitCount = 123 ID = 1036
   3.362473 2  3B5             Rx   d 6 00 00 00 00 00 00  Length = 1029430 BitCount = 107 ID = 949
   3.363673 2  527             Rx   d 8 10 01 00 10 71 70 71 08  Length = 1159426 BitCount = 120 ID = 1319
   3.372592 2  470             Rx   d 8 40 00 00 64 00 00 00 16  Length = 1179426 BitCount = 122 ID = 1136
   3.373842 2  64F             Rx   d 8 3F 00 00 00 00 00 00 00  Length = 1209426 BitCount = 125 ID = 1615
   3.375072 2  386             Rx   d 8 00 00 00 00 00 00 00 64  Length = 1189426 BitCount = 123 ID = 902
   3.376992 2  58C             Rx   d 8 80 00 B6 C0 B9 00 00 05  Length = 1159426 BitCount = 120 ID = 1420
   3.378202 2  5AC             Rx   d 8 FE 6F 00 00 FB 00 00 00  Length = 1169441 BitCount = 121 ID = 1452
   3.382462 2  2C1             Rx   d 6 00 00 00 00 02 00  Length = 1009445 BitCount = 105 ID = 705
   3.383632 2  3C3             Rx   d 8 89 27 00 00 CE 11 00 3E  Length = 1129441 BitCount = 117 ID = 963
   3.384462 2  531             Rx   d 4 00 20 90 B0  Length = 779438 BitCount = 82 ID = 1329
   3.385612 2  651             Rx   d 8 80 02 50 AF 39 59 01 00  Length = 1109445 BitCount = 115 ID = 1617
   3.392581 2  359             Rx   d 8 FF 89 FF 00 00 6B 80 00  Length = 1159441 BitCount = 120 ID = 857
   3.393821 2  555             Rx   d 8 00 00 7C 00 01 00 00 00  Length = 1199426 BitCount = 124 ID = 1365
   3.402611 2  35B             Rx   d 8 00 00 00 00 20 19 0C 00  Length = 1179426 BitCount = 122 ID = 859
   3.403350 2  457             Rx   d 3 00 47 00  Length = 699442 BitCount = 74 ID = 1111
   3.407210 2  436             Rx   d 8 00 01 01 04 00 00 02 00  Length = 1189426 BitCount = 123 ID = 1078
   3.412600 2  320             Rx   d 8 00 00 00 01 00 04 00 80  Length = 1189426 BitCount = 123 ID = 800
   3.413460 2  575             Rx   d 4 00 00 00 00  Length = 819434 BitCount = 86 ID = 1397
   3.415550 2  52D             Rx   d 8 6B 40 FF 0F FF 0F FF 0F  Length = 1129430 BitCount = 117 ID = 1325
   3.422599 2  367             Rx   d 8 FC 00 00 00 7F EF 01 00  Length = 1179426 BitCount = 122 ID = 871
   3.423829 2  369             Rx   d 8 3D 00 00 D0 FF 00 00 00  Length = 1179441 BitCount = 122 ID = 873
   3.425049 2  470             Rx   d 8 40 00 00 64 00 00 00 16  Length = 1179426 BitCount = 122 ID = 1136
   3.426279 2  386             Rx   d 8 00 00 00 00 00 00 00 64  Length = 1189426 BitCount = 123 ID = 902
   3.427499 2  3E1             Rx   d 8 00 00 FF 00 00 00 84 78  Length = 1179426 BitCount = 122 ID = 993
   3.432459 2  381             Rx   d 6 00 00 00 00 00 00  Length = 1029430 BitCount = 107 ID = 897
   3.433309 2  531             Rx   d 4 00 20 A0 80  Length = 799438 BitCount = 84 ID = 1329
   3.440109 2  52F             Rx   d 8 00 00 FE 1F FE 1F FE 1F  Length = 1169426 BitCount = 121 ID = 1327
   3.441269 2  65F             Rx   d 8 02 00 00 00 00 00 00 00  Length = 1119430 BitCount = 116 ID = 1631
   3.442449 2  621             Rx   d 8 00 75 19 00 00 3B 18 00  Length = 1139430 BitCount = 118 ID = 1569
   3.443688 2  397             Rx   d 8 00 00 00 00 00 00 00 00  Length = 1199426 BitCount = 124 ID = 919
   3.444738 2  4B9             Rx   d 6 00 00 00 00 00 00  Length = 1009430 BitCount = 105 ID = 1209
   3.445978 2  591             Rx   d 8 00 00 08 00 00 00 00 00  Length = 1199426 BitCount = 124 ID = 1425
   3.452398 2  4BD             Rx   d 6 00 00 00 00 00 00  Length = 999430 BitCount = 104 ID = 1213
   3.453618 2  658             Rx   d 8 78 28 00 08 00 8F 00 00  Length = 1179426 BitCount = 122 ID = 1624
   3.454838 2  400             Rx   d 8 0C 01 0A 04 0C 00 00 00  Length = 1179426 BitCount = 122 ID = 1024
   3.462457 2  3B5             Rx   d 6 00 00 00 00 00 00  Length = 1029445 BitCount = 107 ID = 949
   3.463477 2  571             Rx   d 6 8F 1F 00 08 04 00  Length = 979430 BitCount = 102 ID = 1393
   3.464177 2  5D1             Rx   d 2 10 00  Length = 629442 BitCount = 67 ID = 1489
   3.465347 2  532             Rx   d 8 00 00 8D 10 34 10 26 10  Length = 1129430 BitCount = 117 ID = 1330
   3.472587 2  470             Rx   d 8 40 00 00 64 00 00 00 16  Length = 1179441 BitCount = 122 ID = 1136
   3.474317 2  386             Rx   d 8 00 00 00 00 00 00 00 64  Length = 1189426 BitCount = 123 ID = 902
   3.476796 2  58C             Rx   d 8 80 00 B6 C0 B9 00 00 05  Length = 1159426 BitCount = 120 ID = 1420
   3.478006 2  5AC             Rx   d 8 FE 6F 00 00 FB 00 00 00  Length = 1169441 BitCount = 121 ID = 1452
   3.482446 2  2C1             Rx   d 6 00 00 00 00 02 00  Length = 1009430 BitCount = 105 ID = 705
   3.483596 2  3C3             Rx   d 8 89 27 00 00 CE B1 00 9E  Length = 1109430 BitCount = 115 ID = 963
   3.484436 2  531             Rx   d 4 00 20 B0 90  Length = 789438 BitCount = 83 ID = 1329
   3.485586 2  651             Rx   d 8 80 02 50 AF 39 59 01 00  Length = 1109430 BitCount = 115 ID = 1617
   3.492565 2  359             Rx   d 8 FF 89 FF 00 00 6B 80 00  Length = 1159426 BitCount = 120 ID = 857
   3.493805 2  555             Rx   d 8 00 00 7C 00 01 00 00 00  Length = 1199426 BitCount = 124 ID = 1365
   3.502625 2  35B             Rx   d 8 00 00 00 00 20 19 0C 00  Length = 1179426 BitCount = 122 ID = 859
   3.503365 2  457             Rx   d 3 00 47 00  Length = 699453 BitCount = 74 ID = 1111
   3.505755 2  40C             Rx   d 8 16 01 01 04 00 04 00 00  Length = 1189441 BitCount = 123 ID = 1036
   3.522614 2  369             Rx   d 8 3D 00 00 D0 FF 00 00 00  Length = 1179426 BitCount = 122 ID = 873
   3.523833 2  470             Rx   d 8 40 00 00 64 00 00 00 16  Length = 1179426 BitCount = 122 ID = 1136
   3.524593 2  635             Rx   d 3 00 00 18  Length = 719438 BitCount = 76 ID = 1589
   3.525814 2  3E1             Rx   d 8 00 00 FF 00 00 00 84 78  Length = 1179441 BitCount = 122 ID = 993
   3.527044 2  386             Rx   d 8 00 00 00 00 00 00 00 64  Length = 1189426 BitCount = 123 ID = 902
   3.528274 2  3E3             Rx   d 8 00 00 84 00 00 00 00 00  Length = 1189426 BitCount = 123 ID = 995
   3.529434 2  5E1             Rx   d 7 80 00 00 00 00 00 00  Length = 1099430 BitCount = 114 ID = 1505
   3.532434 2  381             Rx   d 6 00 00 00 00 00 00  Length = 1029430 BitCount = 107 ID = 897
   3.533284 2  531             Rx   d 4 00 20 C0 E0  Length = 799449 BitCount = 84 ID = 1329
   3.540073 2  621             Rx   d 8 00 75 19 00 00 3B 18 00  Length = 1139441 BitCount = 118 ID = 1569
   3.542623 2  397             Rx   d 8 00 00 00 00 00 00 00 00  Length = 1199441 BitCount = 124 ID = 919
   3.543673 2  4B9             Rx   d 6 00 00 00 00 00 00  Length = 1009430 BitCount = 105 ID = 1209
   3.544503 2  653             Rx   d 4 81 01 81 01  Length = 789438 BitCount = 83 ID = 1619
   3.547213 2  436             Rx   d 8 00 01 01 04 00 00 02 00  Length = 1189441 BitCount = 123 ID = 1078
   3.552403 2  4BD             Rx   d 6 00 00 00 00 00 00  Length = 999445 BitCount = 104 ID = 1213
   3.553623 2  658             Rx   d 8 78 28 00 08 00 8F 00 00  Length = 1179426 BitCount = 122 ID = 1624
   3.562462 2  3B5             Rx   d 6 00 00 00 00 00 00  Length = 1029430 BitCount = 107 ID = 949
   3.563662 2  527             Rx   d 8 10 01 00 10 71 70 71 08  Length = 1159426 BitCount = 120 ID = 1319
   3.572581 2  470             Rx   d 8 40 00 00 64 00 00 00 16  Length = 1179426 BitCount = 122 ID = 1136
