date Thu Mar 5 01:01:32.342 pm 2020
base hex  timestamps absolute
internal events logged
// version 11.0.0
   0.004803 2  58C             Rx   d 8 80 00 B5 C0 B9 00 00 05  Length = 1159426 BitCount = 120 ID = 1420
   0.005843 2  4BD             Rx   d 6 00 00 00 00 00 00  Length = 999430 BitCount = 104 ID = 1213
   0.007043 2  658             Rx   d 8 60 28 00 09 00 9A 00 00  Length = 1159426 BitCount = 120 ID = 1624
   0.015763 2  3B5             Rx   d 6 00 00 00 00 00 00  Length = 1029430 BitCount = 107 ID = 949
   0.016943 2  527             Rx   d 8 10 01 00 10 71 73 74 08  Length = 1139430 BitCount = 118 ID = 1319
   0.022185 CAN 1 Status:chip status error active
   0.022185 CAN 2 Status:chip status error active
   0.025892 2  470             Rx   d 8 40 00 00 64 00 00 00 17  Length = 1179426 BitCount = 122 ID = 1136
   0.028672 2  569             Rx   d 8 00 00 01 3A 00 00 00 00  Length = 1179426 BitCount = 122 ID = 1385
   0.029872 2  5AC             Rx   d 8 FE 6F 00 00 91 00 00 00  Length = 1159441 BitCount = 120 ID = 1452
   0.035542 2  386             Rx   d 8 00 00 00 00 00 00 00 64  Length = 1189426 BitCount = 123 ID = 902
   0.036591 2  2C1             Rx   d 6 00 00 00 00 02 00  Length = 1009430 BitCount = 105 ID = 705
   0.037761 2  3C3             Rx   d 8 E2 87 00 00 CE 91 00 05  Length = 1129430 BitCount = 117 ID = 963
   0.038611 2  531             Rx   d 4 00 20 A0 80  Length = 799438 BitCount = 84 ID = 1329
   0.039831 2  3E1             Rx   d 8 00 00 FF 00 00 00 84 78  Length = 1179426 BitCount = 122 ID = 993
   0.040991 2  651             Rx   d 8 80 02 50 2F 39 59 01 00  Length = 1119430 BitCount = 116 ID = 1617
   0.042141 2  5E1             Rx   d 7 00 00 00 00 00 00 00  Length = 1109445 BitCount = 115 ID = 1505
   0.044501 2  43D             Rx   d 8 00 11 01 00 00 10 00 00  Length = 1179426 BitCount = 122 ID = 1085
   0.045881 2  359             Rx   d 8 FF 89 FF F1 0F 6B 80 00  Length = 1129430 BitCount = 117 ID = 857
   0.047111 2  555             Rx   d 8 00 00 79 00 01 40 00 00  Length = 1189426 BitCount = 123 ID = 1365
   0.053341 2  621             Rx   d 8 00 73 04 00 00 41 27 00  Length = 1159426 BitCount = 120 ID = 1569
   0.055951 2  35B             Rx   d 8 00 00 00 00 20 19 0C 00  Length = 1179441 BitCount = 122 ID = 859
   0.056691 2  457             Rx   d 3 00 47 00  Length = 699442 BitCount = 74 ID = 1111
   0.065880 2  320             Rx   d 8 01 00 00 01 00 01 00 80  Length = 1189426 BitCount = 123 ID = 800
   0.066740 2  575             Rx   d 4 00 00 00 00  Length = 819434 BitCount = 86 ID = 1397
   0.075880 2  367             Rx   d 8 FC 00 00 00 7E F2 01 00  Length = 1159426 BitCount = 120 ID = 871
   0.077110 2  369             Rx   d 8 3D 00 00 D0 FF 00 00 00  Length = 1179426 BitCount = 122 ID = 873
   0.078330 2  470             Rx   d 8 40 00 00 64 00 00 00 17  Length = 1179426 BitCount = 122 ID = 1136
   0.085149 2  386             Rx   d 8 00 00 00 00 00 00 00 64  Length = 1189426 BitCount = 123 ID = 902
   0.086309 2  381             Rx   d 6 00 00 00 00 00 00  Length = 1029430 BitCount = 107 ID = 897
   0.087159 2  531             Rx   d 4 00 20 B0 90  Length = 789438 BitCount = 83 ID = 1329
   0.088389 2  400             Rx   d 8 0C 01 0C 04 04 00 00 00  Length = 1189426 BitCount = 123 ID = 1024
   0.095959 2  397             Rx   d 8 00 00 00 00 00 00 00 00  Length = 1199426 BitCount = 124 ID = 919
   0.097009 2  4B9             Rx   d 6 00 00 00 00 00 00  Length = 1009430 BitCount = 105 ID = 1209
   0.098249 2  591             Rx   d 8 00 00 08 00 00 00 00 00  Length = 1199426 BitCount = 124 ID = 1425
   0.099499 2  5F5             Rx   d 8 00 10 00 00 00 00 00 00  Length = 1209426 BitCount = 125 ID = 1525
   0.104548 2  58C             Rx   d 8 80 00 B5 C0 B9 00 00 05  Length = 1159426 BitCount = 120 ID = 1420
   0.105728 2  4BD             Rx   d 6 00 00 00 00 00 00  Length = 999430 BitCount = 104 ID = 1213
   0.106928 2  658             Rx   d 8 60 28 00 09 00 9A 00 00  Length = 1159426 BitCount = 120 ID = 1624
   0.115768 2  3B5             Rx   d 6 00 00 00 00 00 00  Length = 1029430 BitCount = 107 ID = 949
   0.116438 2  5D1             Rx   d 2 10 00  Length = 629442 BitCount = 67 ID = 1489
   0.125887 2  470             Rx   d 8 40 00 00 64 00 00 00 17  Length = 1179441 BitCount = 122 ID = 1136
   0.127137 2  64F             Rx   d 8 3F 00 00 00 00 00 00 00  Length = 1209441 BitCount = 125 ID = 1615
   0.128557 2  5AC             Rx   d 8 FE 6F 00 00 91 00 00 00  Length = 1159426 BitCount = 120 ID = 1452
   0.129797 2  40C             Rx   d 8 16 11 01 00 00 00 00 00  Length = 1199426 BitCount = 124 ID = 1036
   0.135437 2  386             Rx   d 8 00 00 00 00 00 00 00 64  Length = 1189426 BitCount = 123 ID = 902
   0.136487 2  2C1             Rx   d 6 00 00 00 00 02 00  Length = 1009430 BitCount = 105 ID = 705
   0.137637 2  3C3             Rx   d 8 E2 87 00 00 CE 31 00 65  Length = 1109430 BitCount = 115 ID = 963
   0.138487 2  531             Rx   d 4 00 20 C0 E0  Length = 799438 BitCount = 84 ID = 1329
   0.139707 2  3E1             Rx   d 8 00 00 FF 00 00 00 84 78  Length = 1179426 BitCount = 122 ID = 993
   0.140867 2  651             Rx   d 8 80 02 50 2F 39 59 01 00  Length = 1119441 BitCount = 116 ID = 1617
   0.145837 2  359             Rx   d 8 FF 89 FF F1 0F 6B 80 00  Length = 1129430 BitCount = 117 ID = 857
   0.147066 2  555             Rx   d 8 00 00 79 00 01 40 00 00  Length = 1189426 BitCount = 123 ID = 1365
   0.153286 2  65F             Rx   d 8 02 00 00 00 00 00 00 00  Length = 1119430 BitCount = 116 ID = 1631
   0.154506 2  5A7             Rx   d 8 00 16 00 00 00 00 00 00  Length = 1179426 BitCount = 122 ID = 1447
   0.155766 2  5A9             Rx   d 8 00 00 00 00 00 00 00 00  Length = 1219426 BitCount = 126 ID = 1449
   0.156966 2  621             Rx   d 8 00 73 04 00 00 41 27 00  Length = 1159426 BitCount = 120 ID = 1569
   0.158186 2  35B             Rx   d 8 00 00 00 00 20 19 0C 00  Length = 1179426 BitCount = 122 ID = 859
   0.158926 2  457             Rx   d 3 00 47 00  Length = 699453 BitCount = 74 ID = 1111
   0.171046 2  436             Rx   d 8 1D 11 01 00 00 00 02 00  Length = 1169426 BitCount = 121 ID = 1078
   0.175915 2  369             Rx   d 8 3D 00 00 D0 FF 00 00 00  Length = 1179426 BitCount = 122 ID = 873
   0.177135 2  470             Rx   d 8 40 00 00 64 00 00 00 17  Length = 1179426 BitCount = 122 ID = 1136
   0.177895 2  635             Rx   d 3 00 00 27  Length = 719438 BitCount = 76 ID = 1589
   0.185135 2  386             Rx   d 8 00 00 00 00 00 00 00 64  Length = 1189426 BitCount = 123 ID = 902
   0.186205 2  381             Rx   d 6 00 00 00 00 00 00  Length = 1029430 BitCount = 107 ID = 897
   0.187055 2  531             Rx   d 4 00 20 D0 F0  Length = 799438 BitCount = 84 ID = 1329
   0.195934 2  397             Rx   d 8 00 00 00 00 00 00 00 00  Length = 1199426 BitCount = 124 ID = 919
   0.196984 2  4B9             Rx   d 6 00 00 00 00 00 00  Length = 1009430 BitCount = 105 ID = 1209
   0.204764 2  58C             Rx   d 8 80 00 B5 C0 B9 00 00 05  Length = 1159426 BitCount = 120 ID = 1420
   0.205814 2  4BD             Rx   d 6 00 00 00 00 00 00  Length = 999430 BitCount = 104 ID = 1213
   0.207014 2  658             Rx   d 8 60 28 00 09 00 9A 00 00  Length = 1159426 BitCount = 120 ID = 1624
   0.214534 2  43D             Rx   d 8 00 11 01 00 00 10 00 00  Length = 1179426 BitCount = 122 ID = 1085
   0.215774 2  3B5             Rx   d 6 00 00 00 00 00 00  Length = 1029430 BitCount = 107 ID = 949
   0.216954 2  527             Rx   d 8 10 01 00 10 71 73 74 08  Length = 1139430 BitCount = 118 ID = 1319
   0.217974 2  571             Rx   d 6 9A 1F 00 08 04 00  Length = 979430 BitCount = 102 ID = 1393
   0.225873 2  470             Rx   d 8 40 00 00 64 00 00 00 17  Length = 1179441 BitCount = 122 ID = 1136
   0.228633 2  5AC             Rx   d 8 FE 6F 00 00 91 00 00 00  Length = 1159426 BitCount = 120 ID = 1452
   0.235433 2  386             Rx   d 8 00 00 00 00 00 00 00 64  Length = 1189426 BitCount = 123 ID = 902
   0.236483 2  2C1             Rx   d 6 00 00 00 00 02 00  Length = 1009430 BitCount = 105 ID = 705
   0.237633 2  3C3             Rx   d 8 E2 87 00 00 CE D1 00 C5  Length = 1109430 BitCount = 115 ID = 963
   0.238483 2  531             Rx   d 4 00 20 E0 C0  Length = 799438 BitCount = 84 ID = 1329
   0.239702 2  3E1             Rx   d 8 00 00 FF 00 00 00 84 78  Length = 1179426 BitCount = 122 ID = 993
   0.240862 2  651             Rx   d 8 80 02 50 2F 39 59 01 00  Length = 1119441 BitCount = 116 ID = 1617
   0.242093 2  3E3             Rx   d 8 00 00 96 00 00 00 00 00  Length = 1189426 BitCount = 123 ID = 995
   0.243353 2  3E9             Rx   d 8 00 01 40 05 00 00 00 00  Length = 1199426 BitCount = 124 ID = 1001
   0.244522 2  5E1             Rx   d 7 00 00 00 00 00 00 00  Length = 1109430 BitCount = 115 ID = 1505
   0.245822 2  5E8             Rx   d 8 00 40 00 00 00 00 40 00  Length = 1209426 BitCount = 125 ID = 1512
   0.246993 2  359             Rx   d 8 FF 89 FF F1 0F 6B 80 00  Length = 1129430 BitCount = 117 ID = 857
   0.248223 2  555             Rx   d 8 00 00 79 00 01 40 00 00  Length = 1189426 BitCount = 123 ID = 1365
   0.253332 2  621             Rx   d 8 00 73 04 00 00 41 27 00  Length = 1159426 BitCount = 120 ID = 1569
   0.255912 2  35B             Rx   d 8 00 00 00 00 20 19 0C 00  Length = 1179441 BitCount = 122 ID = 859
   0.256652 2  457             Rx   d 3 00 47 00  Length = 699453 BitCount = 74 ID = 1111
   0.257882 2  400             Rx   d 8 0C 01 0C 04 04 00 00 00  Length = 1189426 BitCount = 123 ID = 1024
   0.265872 2  320             Rx   d 8 01 00 00 01 00 09 00 80  Length = 1189426 BitCount = 123 ID = 800
   0.266732 2  575             Rx   d 4 00 00 00 00  Length = 819434 BitCount = 86 ID = 1397
   0.275871 2  367             Rx   d 8 FC 00 00 00 7E F2 01 00  Length = 1159426 BitCount = 120 ID = 871
   0.277101 2  369             Rx   d 8 3D 00 00 D0 FF 00 00 00  Length = 1179426 BitCount = 122 ID = 873
   0.278321 2  470             Rx   d 8 40 00 00 64 00 00 00 17  Length = 1179426 BitCount = 122 ID = 1136
   0.285091 2  386             Rx   d 8 00 00 00 00 00 00 00 64  Length = 1189426 BitCount = 123 ID = 902
   0.286160 2  381             Rx   d 6 00 00 00 00 00 00  Length = 1029430 BitCount = 107 ID = 897
   0.287020 2  531             Rx   d 4 00 20 F0 D0  Length = 809434 BitCount = 85 ID = 1329
   0.289080 2  57C             Rx   d 8 D0 5B 03 00 00 00 00 88  Length = 1169426 BitCount = 121 ID = 1404
   0.295950 2  397             Rx   d 8 00 00 00 00 00 00 00 00  Length = 1199426 BitCount = 124 ID = 919
   0.297000 2  4B9             Rx   d 6 00 00 00 00 00 00  Length = 1009430 BitCount = 105 ID = 1209
   0.298240 2  591             Rx   d 8 00 00 08 00 00 00 00 00  Length = 1199426 BitCount = 124 ID = 1425
   0.299070 2  653             Rx   d 4 81 01 81 01  Length = 789438 BitCount = 83 ID = 1619
   0.300310 2  40C             Rx   d 8 16 11 01 00 00 00 00 00  Length = 1199426 BitCount = 124 ID = 1036
   0.302440 2  60E             Rx   d 2 08 02  Length = 629442 BitCount = 67 ID = 1550
   0.304520 2  58C             Rx   d 8 80 00 B5 C0 B9 00 00 05  Length = 1159441 BitCount = 120 ID = 1420
   0.305730 2  4BD             Rx   d 6 00 00 00 00 00 00  Length = 999430 BitCount = 104 ID = 1213
   0.306930 2  658             Rx   d 8 60 28 00 09 00 9A 00 00  Length = 1159426 BitCount = 120 ID = 1624
   0.315769 2  3B5             Rx   d 6 00 00 00 00 00 00  Length = 1029430 BitCount = 107 ID = 949
   0.316439 2  5D1             Rx   d 2 10 00  Length = 629442 BitCount = 67 ID = 1489
   0.320519 2  481             Rx   d 2 00 00  Length = 649442 BitCount = 69 ID = 1153
   0.321759 2  661             Rx   d 8 00 00 00 00 00 00 00 00  Length = 1199426 BitCount = 124 ID = 1633
   0.322899 2  665             Rx   d 7 00 00 00 00 00 00 00  Length = 1099430 BitCount = 114 ID = 1637
   0.323579 2  666             Rx   d 2 00 00  Length = 639457 BitCount = 68 ID = 1638
   0.325879 2  470             Rx   d 8 40 00 00 64 00 00 00 17  Length = 1179441 BitCount = 122 ID = 1136
   0.328549 2  5AC             Rx   d 8 FE 6F 00 00 91 00 00 00  Length = 1159426 BitCount = 120 ID = 1452
   0.335418 2  386             Rx   d 8 00 00 00 00 00 00 00 64  Length = 1189426 BitCount = 123 ID = 902
   0.336468 2  2C1             Rx   d 6 00 00 00 00 02 00  Length = 1009430 BitCount = 105 ID = 705
   0.337638 2  3C3             Rx   d 8 E2 87 00 00 CE 71 00 25  Length = 1129430 BitCount = 117 ID = 963
   0.338498 2  531             Rx   d 4 00 20 00 20  Length = 809434 BitCount = 85 ID = 1329
   0.339718 2  3E1             Rx   d 8 00 00 FF 00 00 00 84 78  Length = 1179426 BitCount = 122 ID = 993
   0.340878 2  651             Rx   d 8 80 02 50 2F 39 59 01 00  Length = 1119441 BitCount = 116 ID = 1617
   0.345828 2  359             Rx   d 8 FF 89 FF F1 0F 6B 80 00  Length = 1129430 BitCount = 117 ID = 857
   0.347058 2  555             Rx   d 8 00 00 79 00 01 40 00 00  Length = 1189426 BitCount = 123 ID = 1365
   0.351037 2  436             Rx   d 8 1D 11 01 00 00 00 02 00  Length = 1169426 BitCount = 121 ID = 1078
   0.353277 2  65F             Rx   d 8 00 AA 8C 8E C0 00 00 00  Length = 1119430 BitCount = 116 ID = 1631
   0.354477 2  621             Rx   d 8 00 73 04 00 00 41 27 00  Length = 1159426 BitCount = 120 ID = 1569
   0.355937 2  35B             Rx   d 8 00 00 00 00 20 19 0C 00  Length = 1179426 BitCount = 122 ID = 859
   0.356677 2  457             Rx   d 3 00 47 00  Length = 699453 BitCount = 74 ID = 1111
   0.375896 2  369             Rx   d 8 3D 00 00 D0 FF 00 00 00  Length = 1179426 BitCount = 122 ID = 873
   0.377116 2  470             Rx   d 8 40 00 00 64 00 00 00 17  Length = 1179426 BitCount = 122 ID = 1136
   0.377876 2  635             Rx   d 3 00 00 27  Length = 719438 BitCount = 76 ID = 1589
   0.385036 2  386             Rx   d 8 00 00 00 00 00 00 00 64  Length = 1189426 BitCount = 123 ID = 902
   0.386106 2  381             Rx   d 6 00 00 00 00 00 00  Length = 1029430 BitCount = 107 ID = 897
   0.386966 2  531             Rx   d 4 00 20 10 30  Length = 799438 BitCount = 84 ID = 1329
   0.391555 2  61A             Rx   d 8 67 2E 80 20 02 B0 2A 71  Length = 1109430 BitCount = 115 ID = 1562
   0.394485 2  43D             Rx   d 8 00 11 01 00 00 10 00 00  Length = 1179426 BitCount = 122 ID = 1085
   0.395966 2  397             Rx   d 8 00 00 00 00 00 00 00 00  Length = 1199441 BitCount = 124 ID = 919
   0.397015 2  4B9             Rx   d 6 00 00 00 00 00 00  Length = 1009430 BitCount = 105 ID = 1209
   0.398185 2  655             Rx   d 8 75 00 F0 03 18 00 80 C4  Length = 1129441 BitCount = 117 ID = 1621
   0.403845 2  629             Rx   d 8 FF 0F FF 7F 94 25 40 00  Length = 1139430 BitCount = 118 ID = 1577
   0.405045 2  58C             Rx   d 8 80 00 B5 C0 B9 00 00 05  Length = 1159426 BitCount = 120 ID = 1420
   0.406085 2  4BD             Rx   d 6 00 00 00 00 00 00  Length = 999445 BitCount = 104 ID = 1213
   0.407295 2  658             Rx   d 8 60 28 00 09 00 99 00 00  Length = 1159426 BitCount = 120 ID = 1624
   0.415734 2  3B5             Rx   d 6 00 00 00 00 00 00  Length = 1029430 BitCount = 107 ID = 949
   0.416914 2  527             Rx   d 8 10 01 00 10 71 73 74 08  Length = 1139430 BitCount = 118 ID = 1319
   0.417894 2  6B4             Rx   d 6 B2 01 31 02 71 58  Length = 939434 BitCount = 98 ID = 1716
   0.425864 2  470             Rx   d 8 40 00 00 64 00 00 00 17  Length = 1179426 BitCount = 122 ID = 1136
   0.428364 2  62B             Rx   d 8 00 10 0A 40 11 00 25 40  Length = 1139430 BitCount = 118 ID = 1579
   0.429564 2  5AC             Rx   d 8 FE 6F 00 00 91 00 00 00  Length = 1159426 BitCount = 120 ID = 1452
   0.435423 2  386             Rx   d 8 00 00 00 00 00 00 00 64  Length = 1189426 BitCount = 123 ID = 902
   0.436473 2  2C1             Rx   d 6 00 00 00 00 02 00  Length = 1009430 BitCount = 105 ID = 705
   0.437623 2  3C3             Rx   d 8 E2 87 00 00 CE 11 00 85  Length = 1109430 BitCount = 115 ID = 963
   0.438473 2  531             Rx   d 4 00 20 20 00  Length = 799438 BitCount = 84 ID = 1329
   0.439693 2  3E1             Rx   d 8 00 00 FF 00 00 00 84 78  Length = 1179426 BitCount = 122 ID = 993
   0.440853 2  651             Rx   d 8 80 02 50 2F 39 59 01 00  Length = 1119430 BitCount = 116 ID = 1617
   0.442083 2  400             Rx   d 8 0C 01 0C 04 04 00 00 00  Length = 1189426 BitCount = 123 ID = 1024
   0.443233 2  5E1             Rx   d 7 00 00 00 00 00 00 00  Length = 1109445 BitCount = 115 ID = 1505
   0.445823 2  359             Rx   d 8 FF 89 FF F1 0F 6B 80 00  Length = 1129430 BitCount = 117 ID = 857
   0.447053 2  555             Rx   d 8 00 00 79 00 01 40 00 00  Length = 1189426 BitCount = 123 ID = 1365
   0.453313 2  621             Rx   d 8 00 73 04 00 00 41 27 00  Length = 1159426 BitCount = 120 ID = 1569
   0.454473 2  62D             Rx   d 8 00 10 26 4A 50 16 1B 40  Length = 1119430 BitCount = 116 ID = 1581
   0.455933 2  35B             Rx   d 8 00 00 00 00 20 19 0C 00  Length = 1179426 BitCount = 122 ID = 859
   0.456673 2  457             Rx   d 3 00 47 00  Length = 699453 BitCount = 74 ID = 1111
   0.465872 2  320             Rx   d 8 01 00 00 01 00 01 00 80  Length = 1189441 BitCount = 123 ID = 800
   0.466732 2  575             Rx   d 4 00 00 00 00  Length = 819434 BitCount = 86 ID = 1397
   0.467862 2  65D             Rx   d 8 75 94 25 D0 F0 D2 86 09  Length = 1089430 BitCount = 113 ID = 1629
   0.475852 2  367             Rx   d 8 FC 00 00 00 7E F2 01 00  Length = 1159426 BitCount = 120 ID = 871
   0.477082 2  369             Rx   d 8 3D 00 00 D0 FF 00 00 00  Length = 1179426 BitCount = 122 ID = 873
   0.478302 2  470             Rx   d 8 40 00 00 64 00 00 00 17  Length = 1179426 BitCount = 122 ID = 1136
   0.485141 2  386             Rx   d 8 00 00 00 00 00 00 00 64  Length = 1189426 BitCount = 123 ID = 902
   0.486211 2  381             Rx   d 6 00 00 00 00 00 00  Length = 1029430 BitCount = 107 ID = 897
   0.487051 2  531             Rx   d 4 00 20 30 10  Length = 789438 BitCount = 83 ID = 1329
   0.489641 2  40C             Rx   d 8 16 11 01 00 00 00 00 00  Length = 1199426 BitCount = 124 ID = 1036
   0.495891 2  397             Rx   d 8 00 00 00 00 00 00 00 00  Length = 1199441 BitCount = 124 ID = 919
   0.496941 2  4B9             Rx   d 6 00 00 00 00 00 00  Length = 1009445 BitCount = 105 ID = 1209
   0.498181 2  591             Rx   d 8 00 00 08 00 00 00 00 00  Length = 1199441 BitCount = 124 ID = 1425
   0.498911 2  66C             Rx   d 3 3C 58 02  Length = 689442 BitCount = 73 ID = 1644
   0.504481 2  58C             Rx   d 8 80 00 B5 C0 B9 00 00 05  Length = 1159426 BitCount = 120 ID = 1420
   0.505701 2  4BD             Rx   d 6 00 00 00 00 00 00  Length = 999430 BitCount = 104 ID = 1213
   0.506901 2  658             Rx   d 8 60 28 00 09 00 99 00 00  Length = 1159441 BitCount = 120 ID = 1624
   0.515750 2  3B5             Rx   d 6 00 00 00 00 00 00  Length = 1029430 BitCount = 107 ID = 949
   0.516420 2  5D1             Rx   d 2 10 00  Length = 629442 BitCount = 67 ID = 1489
   0.525870 2  470             Rx   d 8 40 00 00 64 00 00 00 17  Length = 1179426 BitCount = 122 ID = 1136
   0.528139 2  52D             Rx   d 8 3F 40 FF 0F FF 0F FF 0F  Length = 1149426 BitCount = 119 ID = 1325
   0.529339 2  5AC             Rx   d 8 FE 6F 00 00 91 00 00 00  Length = 1159426 BitCount = 120 ID = 1452
   0.530559 2  569             Rx   d 8 00 00 01 3A 00 00 00 00  Length = 1179441 BitCount = 122 ID = 1385
   0.531769 2  436             Rx   d 8 1D 11 01 00 00 00 02 00  Length = 1169426 BitCount = 121 ID = 1078
   0.532969 2  61C             Rx   d 8 00 F0 07 40 FE 03 00 0B  Length = 1159426 BitCount = 120 ID = 1564
   0.535479 2  386             Rx   d 8 00 00 00 00 00 00 00 64  Length = 1189426 BitCount = 123 ID = 902
   0.536529 2  2C1             Rx   d 6 00 00 00 00 02 00  Length = 1009430 BitCount = 105 ID = 705
   0.537679 2  3C3             Rx   d 8 E2 87 00 00 CE B1 00 E5  Length = 1109430 BitCount = 115 ID = 963
   0.538539 2  531             Rx   d 4 00 20 40 60  Length = 809434 BitCount = 85 ID = 1329
   0.539759 2  3E1             Rx   d 8 00 00 FF 00 00 00 84 78  Length = 1179426 BitCount = 122 ID = 993
   0.540919 2  651             Rx   d 8 80 02 50 2F 39 59 01 00  Length = 1119441 BitCount = 116 ID = 1617
   0.545818 2  359             Rx   d 8 FF 89 FF F1 0F 6B 80 00  Length = 1129430 BitCount = 117 ID = 857
   0.547048 2  555             Rx   d 8 00 00 79 00 01 40 00 00  Length = 1189426 BitCount = 123 ID = 1365
   0.553278 2  52F             Rx   d 8 00 00 93 10 27 10 1E 10  Length = 1139430 BitCount = 118 ID = 1327
   0.554448 2  65F             Rx   d 8 01 00 00 00 00 00 00 00  Length = 1129430 BitCount = 117 ID = 1631
   0.555648 2  621             Rx   d 8 00 73 04 00 00 41 27 00  Length = 1159426 BitCount = 120 ID = 1569
   0.556868 2  35B             Rx   d 8 00 00 00 00 20 19 0C 00  Length = 1179426 BitCount = 122 ID = 859
   0.557608 2  457             Rx   d 3 00 47 00  Length = 699442 BitCount = 74 ID = 1111
   0.572467 2  62A             Rx   d 8 40 10 00 00 00 00 38 00  Length = 1179426 BitCount = 122 ID = 1578
   0.574487 2  43D             Rx   d 8 00 11 01 00 00 10 00 00  Length = 1179426 BitCount = 122 ID = 1085
   0.575917 2  369             Rx   d 8 3D 00 00 D0 FF 00 00 00  Length = 1179426 BitCount = 122 ID = 873
   0.577147 2  470             Rx   d 8 40 00 00 64 00 00 00 17  Length = 1179426 BitCount = 122 ID = 1136
   0.577907 2  635             Rx   d 3 00 00 27  Length = 719438 BitCount = 76 ID = 1589
   0.579077 2  532             Rx   d 8 00 00 93 10 51 10 23 10  Length = 1129441 BitCount = 117 ID = 1330
   0.585136 2  386             Rx   d 8 00 00 00 00 00 00 00 64  Length = 1189426 BitCount = 123 ID = 902
   0.586206 2  381             Rx   d 6 00 00 00 00 00 00  Length = 1029430 BitCount = 107 ID = 897
   0.587066 2  531             Rx   d 4 00 20 50 70  Length = 809434 BitCount = 85 ID = 1329
   0.595916 2  397             Rx   d 8 00 00 00 00 00 00 00 00  Length = 1199441 BitCount = 124 ID = 919
   0.596966 2  4B9             Rx   d 6 00 00 00 00 00 00  Length = 1009430 BitCount = 105 ID = 1209
   0.598216 2  5F5             Rx   d 8 00 10 00 00 00 00 00 00  Length = 1209441 BitCount = 125 ID = 1525
   0.604775 2  58C             Rx   d 8 80 00 B5 C0 B9 00 00 05  Length = 1159426 BitCount = 120 ID = 1420
   0.605815 2  4BD             Rx   d 6 00 00 00 00 00 00  Length = 999430 BitCount = 104 ID = 1213
   0.607015 2  658             Rx   d 8 60 28 00 09 00 99 00 00  Length = 1159426 BitCount = 120 ID = 1624
   0.615725 2  3B5             Rx   d 6 00 00 00 00 00 00  Length = 1029430 BitCount = 107 ID = 949
   0.616905 2  527             Rx   d 8 10 01 00 10 71 73 74 08  Length = 1139430 BitCount = 118 ID = 1319
   0.618135 2  400             Rx   d 8 0C 01 0C 04 04 00 00 00  Length = 1189426 BitCount = 123 ID = 1024
   0.625854 2  470             Rx   d 8 40 00 00 64 00 00 00 17  Length = 1179426 BitCount = 122 ID = 1136
   0.627104 2  64F             Rx   d 8 3F 00 00 00 00 00 00 00  Length = 1209426 BitCount = 125 ID = 1615
   0.628594 2  5AC             Rx   d 8 FE 6F 00 00 91 00 00 00  Length = 1159426 BitCount = 120 ID = 1452
   0.635374 2  386             Rx   d 8 00 00 00 00 00 00 00 64  Length = 1189426 BitCount = 123 ID = 902
   0.636424 2  2C1             Rx   d 6 00 00 00 00 02 00  Length = 1009430 BitCount = 105 ID = 705
   0.637613 2  3C3             Rx   d 8 E2 87 00 00 CE 51 00 45  Length = 1129430 BitCount = 117 ID = 963
   0.638463 2  531             Rx   d 4 00 20 60 40  Length = 799438 BitCount = 84 ID = 1329
   0.639683 2  3E1             Rx   d 8 00 00 FF 00 00 00 84 78  Length = 1179426 BitCount = 122 ID = 993
   0.640843 2  651             Rx   d 8 80 02 50 2F 39 59 01 00  Length = 1119430 BitCount = 116 ID = 1617
   0.641993 2  5E1             Rx   d 7 00 00 00 00 00 00 00  Length = 1109430 BitCount = 115 ID = 1505
   0.645814 2  359             Rx   d 8 FF 89 FF F1 0F 6B 80 00  Length = 1129430 BitCount = 117 ID = 857
   0.647043 2  555             Rx   d 8 00 00 79 00 01 40 00 00  Length = 1189426 BitCount = 123 ID = 1365
   0.653303 2  621             Rx   d 8 00 73 04 00 00 41 27 00  Length = 1159426 BitCount = 120 ID = 1569
   0.655893 2  35B             Rx   d 8 00 00 00 00 20 19 0C 00  Length = 1179426 BitCount = 122 ID = 859
   0.656633 2  457             Rx   d 3 00 47 00  Length = 699442 BitCount = 74 ID = 1111
   0.665852 2  320             Rx   d 8 01 00 00 01 00 09 00 80  Length = 1189426 BitCount = 123 ID = 800
   0.666712 2  575             Rx   d 4 00 00 00 00  Length = 819449 BitCount = 86 ID = 1397
   0.669632 2  40C             Rx   d 8 16 11 01 00 00 00 00 00  Length = 1199426 BitCount = 124 ID = 1036
   0.670422 2  679             Rx   d 3 37 4D 10  Length = 699442 BitCount = 74 ID = 1657
   0.675872 2  367             Rx   d 8 FC 00 00 00 7E F2 01 00  Length = 1159426 BitCount = 120 ID = 871
   0.677102 2  369             Rx   d 8 3D 00 00 D0 FF 00 00 00  Length = 1179426 BitCount = 122 ID = 873
   0.678322 2  470             Rx   d 8 40 00 00 64 00 00 00 17  Length = 1179426 BitCount = 122 ID = 1136
   0.685061 2  386             Rx   d 8 00 00 00 00 00 00 00 64  Length = 1189426 BitCount = 123 ID = 902
   0.686131 2  381             Rx   d 6 00 00 00 00 00 00  Length = 1029430 BitCount = 107 ID = 897
   0.686981 2  531             Rx   d 4 00 20 70 50  Length = 799438 BitCount = 84 ID = 1329
   0.695931 2  397             Rx   d 8 00 00 00 00 00 00 00 00  Length = 1199426 BitCount = 124 ID = 919
   0.696981 2  4B9             Rx   d 6 00 00 00 00 00 00  Length = 1009430 BitCount = 105 ID = 1209
   0.698221 2  591             Rx   d 8 00 00 08 00 00 00 00 00  Length = 1199426 BitCount = 124 ID = 1425
   0.704510 2  58C             Rx   d 8 80 00 B5 C0 B9 00 00 05  Length = 1159426 BitCount = 120 ID = 1420
   0.705710 2  4BD             Rx   d 6 00 00 00 00 00 00  Length = 999430 BitCount = 104 ID = 1213
   0.706910 2  658             Rx   d 8 60 28 00 09 00 99 00 00  Length = 1159441 BitCount = 120 ID = 1624
   0.711040 2  436             Rx   d 8 1D 11 01 00 00 00 02 00  Length = 1169426 BitCount = 121 ID = 1078
   0.715730 2  3B5             Rx   d 6 00 00 00 00 00 00  Length = 1029430 BitCount = 107 ID = 949
   0.716750 2  571             Rx   d 6 9A 1F 00 08 04 00  Length = 979430 BitCount = 102 ID = 1393
   0.717420 2  5D1             Rx   d 2 10 00  Length = 629457 BitCount = 67 ID = 1489
   0.720569 2  679             Rx   d 4 47 53 00 00  Length = 789438 BitCount = 83 ID = 1657
   0.725859 2  470             Rx   d 8 40 00 00 64 00 00 00 17  Length = 1179426 BitCount = 122 ID = 1136
   0.728559 2  5AC             Rx   d 8 FE 6F 00 00 91 00 00 00  Length = 1159426 BitCount = 120 ID = 1452
   0.735399 2  386             Rx   d 8 00 00 00 00 00 00 00 64  Length = 1189426 BitCount = 123 ID = 902
   0.736449 2  2C1             Rx   d 6 00 00 00 00 02 00  Length = 1009430 BitCount = 105 ID = 705
   0.737599 2  3C3             Rx   d 8 E2 87 00 00 CE F1 00 A5  Length = 1109430 BitCount = 115 ID = 963
   0.738529 2  531             Rx   d 4 00 20 80 A0  Length = 799438 BitCount = 84 ID = 1329
   0.739748 2  3E1             Rx   d 8 00 00 FF 00 00 00 84 78  Length = 1179426 BitCount = 122 ID = 993
   0.740908 2  651             Rx   d 8 80 02 50 2F 39 59 01 00  Length = 1119430 BitCount = 116 ID = 1617
   0.742149 2  3E9             Rx   d 8 00 01 40 05 00 00 00 00  Length = 1199426 BitCount = 124 ID = 1001
   0.743418 2  5E8             Rx   d 8 00 40 00 00 00 00 40 00  Length = 1209426 BitCount = 125 ID = 1512
   0.745799 2  359             Rx   d 8 FF 89 FF F1 0F 6B 80 00  Length = 1129430 BitCount = 117 ID = 857
   0.747029 2  555             Rx   d 8 00 00 79 00 01 40 00 00  Length = 1189426 BitCount = 123 ID = 1365
   0.753238 2  65F             Rx   d 8 02 00 00 00 00 00 00 00  Length = 1119430 BitCount = 116 ID = 1631
   0.754438 2  621             Rx   d 8 00 73 04 00 00 41 27 00  Length = 1159426 BitCount = 120 ID = 1569
   0.755658 2  43D             Rx   d 8 00 11 01 00 00 10 00 00  Length = 1179426 BitCount = 122 ID = 1085
   0.756879 2  35B             Rx   d 8 00 00 00 00 20 19 0C 00  Length = 1179426 BitCount = 122 ID = 859
   0.757618 2  457             Rx   d 3 00 47 00  Length = 699442 BitCount = 74 ID = 1111
   0.775898 2  369             Rx   d 8 3D 00 00 D0 FF 00 00 00  Length = 1179426 BitCount = 122 ID = 873
   0.777117 2  470             Rx   d 8 40 00 00 64 00 00 00 17  Length = 1179426 BitCount = 122 ID = 1136
   0.777877 2  635             Rx   d 3 00 00 27  Length = 719438 BitCount = 76 ID = 1589
   0.785117 2  386             Rx   d 8 00 00 00 00 00 00 00 64  Length = 1189426 BitCount = 123 ID = 902
   0.786187 2  381             Rx   d 6 00 00 00 00 00 00  Length = 1029430 BitCount = 107 ID = 897
   0.787017 2  531             Rx   d 4 00 20 90 B0  Length = 779438 BitCount = 82 ID = 1329
   0.789077 2  57C             Rx   d 8 E0 5B 03 00 00 00 00 B8  Length = 1179441 BitCount = 122 ID = 1404
   0.795906 2  397             Rx   d 8 00 00 00 00 00 00 00 00  Length = 1199426 BitCount = 124 ID = 919
   0.796956 2  4B9             Rx   d 6 00 00 00 00 00 00  Length = 1009445 BitCount = 105 ID = 1209
   0.797786 2  653             Rx   d 4 81 01 81 01  Length = 789438 BitCount = 83 ID = 1619
   0.804716 2  58C             Rx   d 8 80 00 B5 C0 B9 00 00 05  Length = 1159426 BitCount = 120 ID = 1420
   0.805756 2  4BD             Rx   d 6 00 00 00 00 00 00  Length = 999430 BitCount = 104 ID = 1213
   0.806956 2  658             Rx   d 8 60 28 00 09 00 99 00 00  Length = 1159441 BitCount = 120 ID = 1624
   0.808186 2  400             Rx   d 8 0C 01 0C 04 04 00 00 00  Length = 1189441 BitCount = 123 ID = 1024
   0.815715 2  3B5             Rx   d 6 00 00 00 00 00 00  Length = 1029430 BitCount = 107 ID = 949
   0.816895 2  527             Rx   d 8 10 01 00 10 71 73 74 08  Length = 1139430 BitCount = 118 ID = 1319
   0.817625 2  6E7             Rx   d 3 34 44 0A  Length = 689442 BitCount = 73 ID = 1767
   0.825845 2  470             Rx   d 8 40 00 00 64 00 00 00 17  Length = 1179426 BitCount = 122 ID = 1136
   0.828575 2  5AC             Rx   d 8 FE 6F 00 00 91 00 00 00  Length = 1159426 BitCount = 120 ID = 1452
   0.835394 2  386             Rx   d 8 00 00 00 00 00 00 00 64  Length = 1189426 BitCount = 123 ID = 902
   0.836444 2  2C1             Rx   d 6 00 00 00 00 02 00  Length = 1009430 BitCount = 105 ID = 705
   0.837614 2  3C3             Rx   d 8 E2 87 00 00 CE 91 00 05  Length = 1129430 BitCount = 117 ID = 963
   0.838464 2  531             Rx   d 4 00 20 A0 80  Length = 799438 BitCount = 84 ID = 1329
   0.839684 2  3E1             Rx   d 8 00 00 FF 00 00 00 84 78  Length = 1179441 BitCount = 122 ID = 993
   0.840844 2  651             Rx   d 8 80 02 50 2F 39 59 01 00  Length = 1119430 BitCount = 116 ID = 1617
   0.841994 2  5E1             Rx   d 7 00 00 00 00 00 00 00  Length = 1109430 BitCount = 115 ID = 1505
   0.845814 2  359             Rx   d 8 FF 89 FF F1 0F 6B 80 00  Length = 1129430 BitCount = 117 ID = 857
   0.847044 2  555             Rx   d 8 00 00 79 00 01 40 00 00  Length = 1189426 BitCount = 123 ID = 1365
   0.848244 2  69C             Rx   d 8 39 42 03 00 25 00 04 00  Length = 1159426 BitCount = 120 ID = 1692
   0.849644 2  40C             Rx   d 8 16 11 01 00 00 00 00 00  Length = 1199426 BitCount = 124 ID = 1036
   0.853304 2  621             Rx   d 8 00 73 04 00 00 41 27 00  Length = 1159426 BitCount = 120 ID = 1569
   0.855904 2  35B             Rx   d 8 00 00 00 00 20 19 0C 00  Length = 1179426 BitCount = 122 ID = 859
   0.856644 2  457             Rx   d 3 00 47 00  Length = 699442 BitCount = 74 ID = 1111
   0.865844 2  320             Rx   d 8 01 00 00 01 00 01 00 80  Length = 1189426 BitCount = 123 ID = 800
   0.866704 2  575             Rx   d 4 00 00 00 00  Length = 819449 BitCount = 86 ID = 1397
   0.867594 2  6E7             Rx   d 5 44 51 0C 01 10  Length = 849434 BitCount = 89 ID = 1767
   0.875863 2  367             Rx   d 8 FC 00 00 00 7E F2 01 00  Length = 1159426 BitCount = 120 ID = 871
   0.877093 2  369             Rx   d 8 3D 00 00 D0 FF 00 00 00  Length = 1179426 BitCount = 122 ID = 873
   0.878313 2  470             Rx   d 8 40 00 00 64 00 00 00 17  Length = 1179426 BitCount = 122 ID = 1136
   0.885033 2  386             Rx   d 8 00 00 00 00 00 00 00 64  Length = 1189441 BitCount = 123 ID = 902
   0.886103 2  381             Rx   d 6 00 00 00 00 00 00  Length = 1029430 BitCount = 107 ID = 897
   0.886942 2  531             Rx   d 4 00 20 B0 90  Length = 789449 BitCount = 83 ID = 1329
   0.891042 2  436             Rx   d 8 1D 11 01 00 00 00 02 00  Length = 1169426 BitCount = 121 ID = 1078
   0.892222 2  61A             Rx   d 8 66 2F 80 20 02 B0 2A 71  Length = 1139430 BitCount = 118 ID = 1562
   0.895882 2  397             Rx   d 8 00 00 00 00 00 00 00 00  Length = 1199426 BitCount = 124 ID = 919
   0.896932 2  4B9             Rx   d 6 00 00 00 00 00 00  Length = 1009445 BitCount = 105 ID = 1209
   0.898172 2  591             Rx   d 8 00 00 08 00 00 00 00 00  Length = 1199426 BitCount = 124 ID = 1425
   0.899342 2  655             Rx   d 8 75 00 F0 03 18 00 80 C4  Length = 1129430 BitCount = 117 ID = 1621
   0.904492 2  58C             Rx   d 8 80 00 B5 C0 B9 00 00 05  Length = 1159426 BitCount = 120 ID = 1420
   0.905681 2  4BD             Rx   d 6 00 00 00 00 00 00  Length = 999445 BitCount = 104 ID = 1213
   0.906881 2  658             Rx   d 8 60 28 00 09 00 99 00 00  Length = 1159426 BitCount = 120 ID = 1624
   0.915721 2  3B5             Rx   d 6 00 00 00 00 00 00  Length = 1029430 BitCount = 107 ID = 949
   0.916391 2  5D1             Rx   d 2 10 00  Length = 629442 BitCount = 67 ID = 1489
   0.917371 2  6B4             Rx   d 6 B2 01 31 02 71 58  Length = 939434 BitCount = 98 ID = 1716
   0.925840 2  470             Rx   d 8 40 00 00 64 00 00 00 17  Length = 1179426 BitCount = 122 ID = 1136
   0.928520 2  5AC             Rx   d 8 FE 6F 00 00 91 00 00 00  Length = 1159426 BitCount = 120 ID = 1452
   0.934480 2  43D             Rx   d 8 00 11 01 00 00 10 00 00  Length = 1179426 BitCount = 122 ID = 1085
   0.935710 2  386             Rx   d 8 00 00 00 00 00 00 00 64  Length = 1189426 BitCount = 123 ID = 902
   0.936760 2  2C1             Rx   d 6 00 00 00 00 02 00  Length = 1009430 BitCount = 105 ID = 705
   0.937910 2  3C3             Rx   d 8 E2 87 00 00 CE 31 00 65  Length = 1109430 BitCount = 115 ID = 963
   0.938770 2  531             Rx   d 4 00 20 C0 E0  Length = 799438 BitCount = 84 ID = 1329
   0.939990 2  3E1             Rx   d 8 00 00 FF 00 00 00 84 78  Length = 1179426 BitCount = 122 ID = 993
   0.941150 2  651             Rx   d 8 80 02 50 2F 39 59 01 00  Length = 1119430 BitCount = 116 ID = 1617
   0.945789 2  359             Rx   d 8 FF 89 FF F1 0F 6B 80 00  Length = 1129430 BitCount = 117 ID = 857
   0.947019 2  555             Rx   d 8 00 00 79 00 01 40 00 00  Length = 1189426 BitCount = 123 ID = 1365
   0.953219 2  65F             Rx   d 8 00 AA 8C 8E C0 00 00 00  Length = 1119441 BitCount = 116 ID = 1631
   0.954419 2  621             Rx   d 8 00 73 04 00 00 41 27 00  Length = 1159441 BitCount = 120 ID = 1569
   0.955889 2  35B             Rx   d 8 00 00 00 00 20 19 0C 00  Length = 1179426 BitCount = 122 ID = 859
   0.956629 2  457             Rx   d 3 00 47 00  Length = 699442 BitCount = 74 ID = 1111
   0.975868 2  369             Rx   d 8 3D 00 00 D0 FF 00 00 00  Length = 1179426 BitCount = 122 ID = 873
   0.977088 2  470             Rx   d 8 40 00 00 64 00 00 00 17  Length = 1179426 BitCount = 122 ID = 1136
   0.977848 2  635             Rx   d 3 00 00 27  Length = 719438 BitCount = 76 ID = 1589
   0.979088 2  400             Rx   d 8 0C 01 0C 04 04 00 00 00  Length = 1189426 BitCount = 123 ID = 1024
   0.985087 2  386             Rx   d 8 00 00 00 00 00 00 00 64  Length = 1189441 BitCount = 123 ID = 902
   0.986167 2  381             Rx   d 6 00 00 00 00 00 00  Length = 1029430 BitCount = 107 ID = 897
   0.987017 2  531             Rx   d 4 00 20 D0 F0  Length = 799438 BitCount = 84 ID = 1329
   0.995897 2  397             Rx   d 8 00 00 00 00 00 00 00 00  Length = 1199426 BitCount = 124 ID = 919
   0.997157 2  4B9             Rx   d 6 00 00 00 00 00 00  Length = 1009430 BitCount = 105 ID = 1209
   1.004706 2  58C             Rx   d 8 80 00 B5 C0 B9 00 00 05  Length = 1159441 BitCount = 120 ID = 1420
   1.005746 2  4BD             Rx   d 6 00 00 00 00 00 00  Length = 999430 BitCount = 104 ID = 1213
   1.006946 2  658             Rx   d 8 60 28 00 09 00 99 00 00  Length = 1159441 BitCount = 120 ID = 1624
   1.015706 2  3B5             Rx   d 6 00 00 00 00 00 00  Length = 1029430 BitCount = 107 ID = 949
   1.016885 2  527             Rx   d 8 10 01 00 10 71 73 74 08  Length = 1139430 BitCount = 118 ID = 1319
   1.022186 CAN 1 Status:chip status error active
   1.022186 CAN 2 Status:chip status error active
   1.025835 2  470             Rx   d 8 40 00 00 64 00 00 00 17  Length = 1179426 BitCount = 122 ID = 1136
   1.028585 2  569             Rx   d 8 00 00 01 3A 00 00 00 00  Length = 1179426 BitCount = 122 ID = 1385
   1.029825 2  40C             Rx   d 8 16 11 01 00 00 00 00 00  Length = 1199426 BitCount = 124 ID = 1036
   1.031025 2  5AC             Rx   d 8 FE 6F 00 00 91 00 00 00  Length = 1159426 BitCount = 120 ID = 1452
   1.035384 2  386             Rx   d 8 00 00 00 00 00 00 00 64  Length = 1189441 BitCount = 123 ID = 902
   1.036434 2  2C1             Rx   d 6 00 00 00 00 02 00  Length = 1009430 BitCount = 105 ID = 705
   1.037584 2  3C3             Rx   d 8 E2 87 00 00 CE D1 00 C5  Length = 1109445 BitCount = 115 ID = 963
   1.038434 2  531             Rx   d 4 00 20 E0 C0  Length = 799449 BitCount = 84 ID = 1329
   1.039654 2  3E1             Rx   d 8 00 00 FF 00 00 00 84 78  Length = 1179426 BitCount = 122 ID = 993
   1.040814 2  651             Rx   d 8 80 02 50 2F 39 59 01 00  Length = 1119430 BitCount = 116 ID = 1617
   1.042044 2  3E3             Rx   d 8 00 00 96 00 00 00 00 00  Length = 1189426 BitCount = 123 ID = 995
   1.043214 2  5E1             Rx   d 7 00 00 00 00 00 00 00  Length = 1109445 BitCount = 115 ID = 1505
   1.045804 2  359             Rx   d 8 FF 89 FF F1 0F 6B 80 00  Length = 1129430 BitCount = 117 ID = 857
   1.047034 2  555             Rx   d 8 00 00 79 00 01 40 00 00  Length = 1189426 BitCount = 123 ID = 1365
   1.053474 2  621             Rx   d 8 00 73 04 00 00 41 27 00  Length = 1159426 BitCount = 120 ID = 1569
   1.055914 2  35B             Rx   d 8 00 00 00 00 20 19 0C 00  Length = 1179426 BitCount = 122 ID = 859
   1.056654 2  457             Rx   d 3 00 47 00  Length = 699442 BitCount = 74 ID = 1111
   1.065823 2  320             Rx   d 8 01 00 00 01 00 09 00 80  Length = 1189426 BitCount = 123 ID = 800
   1.066683 2  575             Rx   d 4 00 00 00 00  Length = 819434 BitCount = 86 ID = 1397
   1.071043 2  436             Rx   d 8 1D 11 01 00 00 00 02 00  Length = 1169441 BitCount = 121 ID = 1078
   1.076213 2  367             Rx   d 8 FC 00 00 00 7E F2 01 00  Length = 1159426 BitCount = 120 ID = 871
   1.077443 2  369             Rx   d 8 3D 00 00 D0 FF 00 00 00  Length = 1179426 BitCount = 122 ID = 873
   1.078663 2  470             Rx   d 8 40 00 00 64 00 00 00 17  Length = 1179441 BitCount = 122 ID = 1136
   1.085043 2  386             Rx   d 8 00 00 00 00 00 00 00 64  Length = 1189441 BitCount = 123 ID = 902
   1.086113 2  381             Rx   d 6 00 00 00 00 00 00  Length = 1029445 BitCount = 107 ID = 897
   1.086973 2  531             Rx   d 4 00 20 F0 D0  Length = 809449 BitCount = 85 ID = 1329
   1.095902 2  397             Rx   d 8 00 00 00 00 00 00 00 00  Length = 1199426 BitCount = 124 ID = 919
   1.096952 2  4B9             Rx   d 6 00 00 00 00 00 00  Length = 1009430 BitCount = 105 ID = 1209
   1.098192 2  591             Rx   d 8 00 00 08 00 00 00 00 00  Length = 1199426 BitCount = 124 ID = 1425
   1.099442 2  5F5             Rx   d 8 00 10 00 00 00 00 00 00  Length = 1209426 BitCount = 125 ID = 1525
   1.104462 2  58C             Rx   d 8 80 00 B5 C0 B9 00 00 05  Length = 1159426 BitCount = 120 ID = 1420
   1.105672 2  4BD             Rx   d 6 00 00 00 00 00 00  Length = 999445 BitCount = 104 ID = 1213
   1.106872 2  658             Rx   d 8 60 28 00 09 00 99 00 00  Length = 1159426 BitCount = 120 ID = 1624
   1.114522 2  43D             Rx   d 8 00 11 01 00 00 10 00 00  Length = 1179426 BitCount = 122 ID = 1085
   1.115742 2  3B5             Rx   d 6 00 00 00 00 00 00  Length = 1029430 BitCount = 107 ID = 949
   1.116422 2  5D1             Rx   d 2 10 00  Length = 629442 BitCount = 67 ID = 1489
   1.125831 2  470             Rx   d 8 40 00 00 64 00 00 00 17  Length = 1179426 BitCount = 122 ID = 1136
   1.127081 2  64F             Rx   d 8 3F 00 00 00 00 00 00 00  Length = 1209426 BitCount = 125 ID = 1615
   1.128501 2  5AC             Rx   d 8 FE 6F 00 00 91 00 00 00  Length = 1159426 BitCount = 120 ID = 1452
   1.135281 2  386             Rx   d 8 00 00 00 00 00 00 00 64  Length = 1189426 BitCount = 123 ID = 902
   1.136341 2  2C1             Rx   d 6 00 00 00 00 02 00  Length = 1009445 BitCount = 105 ID = 705
   1.137510 2  3C3             Rx   d 8 E2 87 00 00 CE 71 00 25  Length = 1129430 BitCount = 117 ID = 963
   1.138370 2  531             Rx   d 4 00 20 00 20  Length = 809434 BitCount = 85 ID = 1329
   1.139590 2  3E1             Rx   d 8 00 00 FF 00 00 00 84 78  Length = 1179426 BitCount = 122 ID = 993
   1.140750 2  651             Rx   d 8 80 02 50 2F 39 59 01 00  Length = 1119430 BitCount = 116 ID = 1617
   1.145780 2  359             Rx   d 8 FF 89 FF F1 0F 6B 80 00  Length = 1129441 BitCount = 117 ID = 857
   1.147010 2  555             Rx   d 8 00 00 79 00 01 40 00 00  Length = 1189426 BitCount = 123 ID = 1365
   1.153220 2  65F             Rx   d 8 01 00 00 00 00 00 00 00  Length = 1129441 BitCount = 117 ID = 1631
   1.154460 2  5A7             Rx   d 8 00 16 00 00 00 00 00 00  Length = 1179426 BitCount = 122 ID = 1447
   1.155720 2  5A9             Rx   d 8 00 00 00 00 00 00 00 00  Length = 1219441 BitCount = 126 ID = 1449
   1.156920 2  621             Rx   d 8 00 73 04 00 00 41 27 00  Length = 1159426 BitCount = 120 ID = 1569
   1.158140 2  35B             Rx   d 8 00 00 00 00 20 19 0C 00  Length = 1179426 BitCount = 122 ID = 859
   1.158880 2  457             Rx   d 3 00 47 00  Length = 699442 BitCount = 74 ID = 1111
   1.160110 2  400             Rx   d 8 0C 01 0C 04 04 00 00 00  Length = 1189426 BitCount = 123 ID = 1024
   1.175859 2  369             Rx   d 8 3D 00 00 D0 FF 00 00 00  Length = 1179441 BitCount = 122 ID = 873
   1.177079 2  470             Rx   d 8 40 00 00 64 00 00 00 17  Length = 1179426 BitCount = 122 ID = 1136
   1.177839 2  635             Rx   d 3 00 00 27  Length = 719438 BitCount = 76 ID = 1589
   1.185088 2  386             Rx   d 8 00 00 00 00 00 00 00 64  Length = 1189441 BitCount = 123 ID = 902
   1.186158 2  381             Rx   d 6 00 00 00 00 00 00  Length = 1029430 BitCount = 107 ID = 897
   1.187008 2  531             Rx   d 4 00 20 10 30  Length = 799449 BitCount = 84 ID = 1329
   1.195888 2  397             Rx   d 8 00 00 00 00 00 00 00 00  Length = 1199426 BitCount = 124 ID = 919
   1.196938 2  4B9             Rx   d 6 00 00 00 00 00 00  Length = 1009430 BitCount = 105 ID = 1209
   1.204727 2  58C             Rx   d 8 80 00 B5 C0 B9 00 00 05  Length = 1159441 BitCount = 120 ID = 1420
   1.205767 2  4BD             Rx   d 6 00 00 00 00 00 00  Length = 999445 BitCount = 104 ID = 1213
   1.206967 2  658             Rx   d 8 60 28 00 09 00 99 00 00  Length = 1159426 BitCount = 120 ID = 1624
   1.209497 2  40C             Rx   d 8 16 11 01 00 00 00 00 00  Length = 1199426 BitCount = 124 ID = 1036
   1.215697 2  3B5             Rx   d 6 00 00 00 00 00 00  Length = 1029430 BitCount = 107 ID = 949
   1.216877 2  527             Rx   d 8 10 01 00 10 71 73 74 08  Length = 1139441 BitCount = 118 ID = 1319
   1.217897 2  571             Rx   d 6 99 1F 00 08 04 00  Length = 979430 BitCount = 102 ID = 1393
   1.225827 2  470             Rx   d 8 40 00 00 64 00 00 00 17  Length = 1179426 BitCount = 122 ID = 1136
   1.228547 2  5AC             Rx   d 8 FE 6F 00 00 91 00 00 00  Length = 1159426 BitCount = 120 ID = 1452
   1.235276 2  386             Rx   d 8 00 00 00 00 00 00 00 64  Length = 1189426 BitCount = 123 ID = 902
   1.236326 2  2C1             Rx   d 6 00 00 00 00 02 00  Length = 1009445 BitCount = 105 ID = 705
   1.237476 2  3C3             Rx   d 8 E2 87 00 00 CE 11 00 85  Length = 1109430 BitCount = 115 ID = 963
   1.238326 2  531             Rx   d 4 00 20 20 00  Length = 799438 BitCount = 84 ID = 1329
   1.239546 2  3E1             Rx   d 8 00 00 FF 00 00 00 84 78  Length = 1179426 BitCount = 122 ID = 993
   1.240706 2  651             Rx   d 8 80 02 50 2F 39 59 01 00  Length = 1119430 BitCount = 116 ID = 1617
   1.241946 2  3E9             Rx   d 8 00 01 40 05 00 00 00 00  Length = 1199426 BitCount = 124 ID = 1001
   1.243156 2  5E1             Rx   d 7 00 00 00 00 00 00 00  Length = 1109430 BitCount = 115 ID = 1505
   1.244426 2  5E8             Rx   d 8 00 40 00 00 00 00 40 00  Length = 1209426 BitCount = 125 ID = 1512
   1.245826 2  359             Rx   d 8 FF 89 FF F1 0F 6B 80 00  Length = 1129430 BitCount = 117 ID = 857
   1.247056 2  555             Rx   d 8 00 00 79 00 01 40 00 00  Length = 1189426 BitCount = 123 ID = 1365
   1.251046 2  436             Rx   d 8 1D 11 01 00 00 00 02 00  Length = 1169426 BitCount = 121 ID = 1078
   1.253246 2  621             Rx   d 8 00 73 04 00 00 41 27 00  Length = 1159441 BitCount = 120 ID = 1569
   1.256086 2  35B             Rx   d 8 00 00 00 00 20 19 0C 00  Length = 1179426 BitCount = 122 ID = 859
   1.256826 2  457             Rx   d 3 00 47 00  Length = 699453 BitCount = 74 ID = 1111
   1.265816 2  320             Rx   d 8 01 00 00 01 00 01 00 80  Length = 1189426 BitCount = 123 ID = 800
   1.266675 2  575             Rx   d 4 00 00 00 00  Length = 819434 BitCount = 86 ID = 1397
   1.275815 2  367             Rx   d 8 FC 00 00 00 7E F2 01 00  Length = 1159441 BitCount = 120 ID = 871
   1.277045 2  369             Rx   d 8 3D 00 00 D0 FF 00 00 00  Length = 1179441 BitCount = 122 ID = 873
   1.278265 2  470             Rx   d 8 40 00 00 64 00 00 00 17  Length = 1179426 BitCount = 122 ID = 1136
   1.285074 2  386             Rx   d 8 00 00 00 00 00 00 00 64  Length = 1189441 BitCount = 123 ID = 902
   1.286144 2  381             Rx   d 6 00 00 00 00 00 00  Length = 1029445 BitCount = 107 ID = 897
   1.286984 2  531             Rx   d 4 00 20 30 10  Length = 789449 BitCount = 83 ID = 1329
   1.289024 2  57C             Rx   d 8 F0 5B 03 00 00 00 00 A8  Length = 1169426 BitCount = 121 ID = 1404
   1.294474 2  43D             Rx   d 8 00 11 01 00 00 10 00 00  Length = 1179441 BitCount = 122 ID = 1085
   1.295914 2  397             Rx   d 8 00 00 00 00 00 00 00 00  Length = 1199426 BitCount = 124 ID = 919
   1.296974 2  4B9             Rx   d 6 00 00 00 00 00 00  Length = 1009430 BitCount = 105 ID = 1209
   1.298214 2  591             Rx   d 8 00 00 08 00 00 00 00 00  Length = 1199426 BitCount = 124 ID = 1425
   1.299044 2  653             Rx   d 4 81 01 81 01  Length = 789438 BitCount = 83 ID = 1619
   1.302364 2  60E             Rx   d 2 08 02  Length = 629442 BitCount = 67 ID = 1550
   1.304424 2  58C             Rx   d 8 80 00 B5 C0 B9 00 00 05  Length = 1159426 BitCount = 120 ID = 1420
   1.305674 2  4BD             Rx   d 6 00 00 00 00 00 00  Length = 999430 BitCount = 104 ID = 1213
   1.306874 2  658             Rx   d 8 60 28 00 09 00 99 00 00  Length = 1159426 BitCount = 120 ID = 1624
   1.315713 2  3B5             Rx   d 6 00 00 00 00 00 00  Length = 1029430 BitCount = 107 ID = 949
   1.316383 2  5D1             Rx   d 2 10 00  Length = 629457 BitCount = 67 ID = 1489
   1.320513 2  481             Rx   d 2 00 00  Length = 649442 BitCount = 69 ID = 1153
   1.321753 2  661             Rx   d 8 00 00 00 00 00 00 00 00  Length = 1199441 BitCount = 124 ID = 1633
   1.322893 2  665             Rx   d 7 00 00 00 00 00 00 00  Length = 1099430 BitCount = 114 ID = 1637
   1.323613 2  666             Rx   d 2 00 00  Length = 639442 BitCount = 68 ID = 1638
   1.325823 2  470             Rx   d 8 40 00 00 64 00 00 00 17  Length = 1179426 BitCount = 122 ID = 1136
   1.328483 2  5AC             Rx   d 8 FE 6F 00 00 91 00 00 00  Length = 1159441 BitCount = 120 ID = 1452
   1.335353 2  386             Rx   d 8 00 00 00 00 00 00 00 64  Length = 1189441 BitCount = 123 ID = 902
   1.336403 2  2C1             Rx   d 6 00 00 00 00 02 00  Length = 1009445 BitCount = 105 ID = 705
   1.337563 2  3C3             Rx   d 8 E2 87 00 00 CE B1 00 E5  Length = 1109430 BitCount = 115 ID = 963
   1.338423 2  531             Rx   d 4 00 20 40 60  Length = 809434 BitCount = 85 ID = 1329
   1.339643 2  3E1             Rx   d 8 00 00 FF 00 00 00 84 78  Length = 1179426 BitCount = 122 ID = 993
   1.340802 2  651             Rx   d 8 80 02 50 2F 39 59 01 00  Length = 1119430 BitCount = 116 ID = 1617
   1.342032 2  400             Rx   d 8 0C 01 0C 04 04 00 00 00  Length = 1189426 BitCount = 123 ID = 1024
   1.345882 2  359             Rx   d 8 FF 89 FF F1 0F 6B 80 00  Length = 1129430 BitCount = 117 ID = 857
   1.347112 2  555             Rx   d 8 00 00 79 00 01 40 00 00  Length = 1189426 BitCount = 123 ID = 1365
   1.353192 2  65F             Rx   d 8 02 00 00 00 00 00 00 00  Length = 1119430 BitCount = 116 ID = 1631
   1.354392 2  621             Rx   d 8 00 73 04 00 00 41 27 00  Length = 1159426 BitCount = 120 ID = 1569
   1.355872 2  35B             Rx   d 8 00 00 00 00 20 19 0C 00  Length = 1179426 BitCount = 122 ID = 859
   1.356612 2  457             Rx   d 3 00 47 00  Length = 699442 BitCount = 74 ID = 1111
   1.375851 2  369             Rx   d 8 3D 00 00 D0 FF 00 00 00  Length = 1179441 BitCount = 122 ID = 873
   1.377071 2  470             Rx   d 8 40 00 00 64 00 00 00 17  Length = 1179441 BitCount = 122 ID = 1136
   1.377830 2  635             Rx   d 3 00 00 27  Length = 719438 BitCount = 76 ID = 1589
   1.385050 2  386             Rx   d 8 00 00 00 00 00 00 00 64  Length = 1189426 BitCount = 123 ID = 902
   1.386120 2  381             Rx   d 6 00 00 00 00 00 00  Length = 1029445 BitCount = 107 ID = 897
   1.386980 2  531             Rx   d 4 00 20 50 70  Length = 809434 BitCount = 85 ID = 1329
   1.389540 2  40C             Rx   d 8 16 11 01 00 00 00 00 00  Length = 1199426 BitCount = 124 ID = 1036
   1.391450 2  61A             Rx   d 8 69 20 80 20 02 B0 2A 71  Length = 1119441 BitCount = 116 ID = 1562
   1.395880 2  397             Rx   d 8 00 00 00 00 00 00 00 00  Length = 1199426 BitCount = 124 ID = 919
   1.396930 2  4B9             Rx   d 6 00 00 00 00 00 00  Length = 1009430 BitCount = 105 ID = 1209
   1.398100 2  655             Rx   d 8 75 00 F0 03 18 00 80 C4  Length = 1129430 BitCount = 117 ID = 1621
   1.403760 2  629             Rx   d 8 FF 0F FF 7F 94 25 40 00  Length = 1139430 BitCount = 118 ID = 1577
   1.404970 2  58C             Rx   d 8 80 00 B5 C0 B9 00 00 05  Length = 1159426 BitCount = 120 ID = 1420
   1.406009 2  4BD             Rx   d 6 00 00 00 00 00 00  Length = 999430 BitCount = 104 ID = 1213
   1.407209 2  658             Rx   d 8 60 28 00 09 00 99 00 00  Length = 1159426 BitCount = 120 ID = 1624
   1.415689 2  3B5             Rx   d 6 00 00 00 00 00 00  Length = 1029430 BitCount = 107 ID = 949
   1.416869 2  527             Rx   d 8 10 01 00 10 71 73 74 08  Length = 1139441 BitCount = 118 ID = 1319
   1.417849 2  6B4             Rx   d 6 B2 01 31 02 71 58  Length = 939445 BitCount = 98 ID = 1716
   1.425818 2  470             Rx   d 8 40 00 00 64 00 00 00 17  Length = 1179426 BitCount = 122 ID = 1136
   1.428288 2  62B             Rx   d 8 00 10 0A 40 11 00 25 40  Length = 1139430 BitCount = 118 ID = 1579
   1.429488 2  5AC             Rx   d 8 FE 6F 00 00 91 00 00 00  Length = 1159426 BitCount = 120 ID = 1452
   1.431048 2  436             Rx   d 8 1D 11 01 00 00 00 02 00  Length = 1169426 BitCount = 121 ID = 1078
   1.435498 2  386             Rx   d 8 00 00 00 00 00 00 00 64  Length = 1189426 BitCount = 123 ID = 902
   1.436548 2  2C1             Rx   d 6 00 00 00 00 02 00  Length = 1009430 BitCount = 105 ID = 705
   1.437718 2  3C3             Rx   d 8 E2 87 00 00 CE 51 00 45  Length = 1129441 BitCount = 117 ID = 963
   1.438568 2  531             Rx   d 4 00 20 60 40  Length = 799449 BitCount = 84 ID = 1329
   1.439788 2  3E1             Rx   d 8 00 00 FF 00 00 00 84 78  Length = 1179426 BitCount = 122 ID = 993
   1.440948 2  651             Rx   d 8 80 02 50 2F 39 59 01 00  Length = 1119430 BitCount = 116 ID = 1617
   1.442098 2  5E1             Rx   d 7 00 00 00 00 00 00 00  Length = 1109430 BitCount = 115 ID = 1505
   1.445768 2  359             Rx   d 8 FF 89 FF F1 0F 6B 80 00  Length = 1129441 BitCount = 117 ID = 857
   1.446998 2  555             Rx   d 8 00 00 79 00 01 40 00 00  Length = 1189441 BitCount = 123 ID = 1365
   1.453188 2  621             Rx   d 8 00 73 04 00 00 41 27 00  Length = 1159426 BitCount = 120 ID = 1569
   1.454348 2  62D             Rx   d 8 00 10 26 4A 50 16 1B 40  Length = 1119430 BitCount = 116 ID = 1581
   1.455878 2  35B             Rx   d 8 00 00 00 00 20 19 0C 00  Length = 1179426 BitCount = 122 ID = 859
   1.456618 2  457             Rx   d 3 00 47 00  Length = 699442 BitCount = 74 ID = 1111
   1.465817 2  320             Rx   d 8 01 00 00 01 00 09 00 80  Length = 1189426 BitCount = 123 ID = 800
   1.466677 2  575             Rx   d 4 00 00 00 00  Length = 819434 BitCount = 86 ID = 1397
   1.467817 2  65D             Rx   d 8 75 94 25 D0 F0 D2 06 0A  Length = 1099430 BitCount = 114 ID = 1629
   1.474547 2  43D             Rx   d 8 00 11 01 00 00 10 00 00  Length = 1179426 BitCount = 122 ID = 1085
   1.475827 2  367             Rx   d 8 FC 00 00 00 7E F2 01 00  Length = 1159441 BitCount = 120 ID = 871
   1.477057 2  369             Rx   d 8 3D 00 00 D0 FF 00 00 00  Length = 1179441 BitCount = 122 ID = 873
   1.478277 2  470             Rx   d 8 40 00 00 64 00 00 00 17  Length = 1179441 BitCount = 122 ID = 1136
   1.485067 2  386             Rx   d 8 00 00 00 00 00 00 00 64  Length = 1189426 BitCount = 123 ID = 902
   1.486137 2  381             Rx   d 6 00 00 00 00 00 00  Length = 1029445 BitCount = 107 ID = 897
   1.486987 2  531             Rx   d 4 00 20 70 50  Length = 799438 BitCount = 84 ID = 1329
   1.495856 2  397             Rx   d 8 00 00 00 00 00 00 00 00  Length = 1199426 BitCount = 124 ID = 919
   1.496906 2  4B9             Rx   d 6 00 00 00 00 00 00  Length = 1009430 BitCount = 105 ID = 1209
   1.498146 2  591             Rx   d 8 00 00 08 00 00 00 00 00  Length = 1199426 BitCount = 124 ID = 1425
   1.499166 2  66C             Rx   d 6 80 02 3C 5A 00 00  Length = 979430 BitCount = 102 ID = 1644
   1.504396 2  58C             Rx   d 8 80 00 B5 C0 B9 00 00 05  Length = 1159426 BitCount = 120 ID = 1420
   1.505646 2  4BD             Rx   d 6 00 00 00 00 00 00  Length = 999430 BitCount = 104 ID = 1213
   1.506845 2  658             Rx   d 8 60 28 00 09 00 99 00 00  Length = 1159426 BitCount = 120 ID = 1624
   1.515695 2  3B5             Rx   d 6 00 00 00 00 00 00  Length = 1029445 BitCount = 107 ID = 949
   1.516365 2  5D1             Rx   d 2 10 00  Length = 629457 BitCount = 67 ID = 1489
   1.517605 2  400             Rx   d 8 0C 01 0C 04 04 00 00 00  Length = 1189441 BitCount = 123 ID = 1024
   1.525904 2  470             Rx   d 8 40 00 00 64 00 00 00 17  Length = 1179426 BitCount = 122 ID = 1136
   1.528024 2  52D             Rx   d 8 3F 40 FF 0F FF 0F FF 0F  Length = 1149426 BitCount = 119 ID = 1325
   1.529224 2  5AC             Rx   d 8 FE 6F 00 00 91 00 00 00  Length = 1159426 BitCount = 120 ID = 1452
   1.530454 2  569             Rx   d 8 00 00 01 3A 00 00 00 00  Length = 1179426 BitCount = 122 ID = 1385
   1.531654 2  61C             Rx   d 8 00 F0 07 40 FE 03 00 0B  Length = 1159426 BitCount = 120 ID = 1564
   1.535454 2  386             Rx   d 8 00 00 00 00 00 00 00 64  Length = 1189441 BitCount = 123 ID = 902
   1.536594 2  2C1             Rx   d 6 00 00 00 00 02 00  Length = 1009430 BitCount = 105 ID = 705
   1.537744 2  3C3             Rx   d 8 E2 87 00 00 CE F1 00 A5  Length = 1109445 BitCount = 115 ID = 963
   1.538594 2  531             Rx   d 4 00 20 80 A0  Length = 799449 BitCount = 84 ID = 1329
   1.539814 2  3E1             Rx   d 8 00 00 FF 00 00 00 84 78  Length = 1179426 BitCount = 122 ID = 993
   1.540974 2  651             Rx   d 8 80 02 50 2F 39 59 01 00  Length = 1119430 BitCount = 116 ID = 1617
   1.545763 2  359             Rx   d 8 FF 89 FF F1 0F 6B 80 00  Length = 1129430 BitCount = 117 ID = 857
   1.546993 2  555             Rx   d 8 00 00 79 00 01 40 00 00  Length = 1189426 BitCount = 123 ID = 1365
   1.553193 2  52F             Rx   d 8 00 00 93 10 27 10 1E 10  Length = 1139430 BitCount = 118 ID = 1327
   1.554353 2  65F             Rx   d 8 00 AA 8C 8E C0 00 00 00  Length = 1119430 BitCount = 116 ID = 1631
   1.555553 2  621             Rx   d 8 00 73 04 00 00 41 27 00  Length = 1159426 BitCount = 120 ID = 1569
   1.556773 2  35B             Rx   d 8 00 00 00 00 20 19 0C 00  Length = 1179426 BitCount = 122 ID = 859
   1.557513 2  457             Rx   d 3 00 47 00  Length = 699453 BitCount = 74 ID = 1111
   1.559683 2  40C             Rx   d 8 16 11 01 00 00 00 00 00  Length = 1199426 BitCount = 124 ID = 1036
   1.572222 2  62A             Rx   d 8 40 10 00 00 00 00 38 00  Length = 1179426 BitCount = 122 ID = 1578
   1.575842 2  369             Rx   d 8 3D 00 00 D0 FF 00 00 00  Length = 1179426 BitCount = 122 ID = 873
   1.577062 2  470             Rx   d 8 40 00 00 64 00 00 00 17  Length = 1179426 BitCount = 122 ID = 1136
   1.577822 2  635             Rx   d 3 00 00 27  Length = 719453 BitCount = 76 ID = 1589
   1.578992 2  532             Rx   d 8 00 00 93 10 51 10 23 10  Length = 1129430 BitCount = 117 ID = 1330
   1.585042 2  386             Rx   d 8 00 00 00 00 00 00 00 64  Length = 1189426 BitCount = 123 ID = 902
   1.586112 2  381             Rx   d 6 00 00 00 00 00 00  Length = 1029430 BitCount = 107 ID = 897
   1.586942 2  531             Rx   d 4 00 20 90 B0  Length = 779438 BitCount = 82 ID = 1329
   1.595861 2  397             Rx   d 8 00 00 00 00 00 00 00 00  Length = 1199426 BitCount = 124 ID = 919
   1.596911 2  4B9             Rx   d 6 00 00 00 00 00 00  Length = 1009430 BitCount = 105 ID = 1209
   1.598161 2  5F5             Rx   d 8 00 10 00 00 00 00 00 00  Length = 1209426 BitCount = 125 ID = 1525
   1.601041 2  436             Rx   d 8 1D 11 01 00 00 00 02 00  Length = 1169426 BitCount = 121 ID = 1078
   1.604701 2  58C             Rx   d 8 80 00 B5 C0 B9 00 00 05  Length = 1159426 BitCount = 120 ID = 1420
   1.605751 2  4BD             Rx   d 6 00 00 00 00 00 00  Length = 999430 BitCount = 104 ID = 1213
   1.606951 2  658             Rx   d 8 60 28 00 09 00 99 00 00  Length = 1159426 BitCount = 120 ID = 1624
   1.615750 2  3B5             Rx   d 6 00 00 00 00 00 00  Length = 1029445 BitCount = 107 ID = 949
   1.616930 2  527             Rx   d 8 10 01 00 10 71 73 74 08  Length = 1139441 BitCount = 118 ID = 1319
   1.625800 2  470             Rx   d 8 40 00 00 64 00 00 00 17  Length = 1179426 BitCount = 122 ID = 1136
   1.627050 2  64F             Rx   d 8 3F 00 00 00 00 00 00 00  Length = 1209426 BitCount = 125 ID = 1615
   1.628519 2  5AC             Rx   d 8 FE 6F 00 00 91 00 00 00  Length = 1159441 BitCount = 120 ID = 1452
   1.635349 2  386             Rx   d 8 00 00 00 00 00 00 00 64  Length = 1189426 BitCount = 123 ID = 902
   1.636399 2  2C1             Rx   d 6 00 00 00 00 02 00  Length = 1009430 BitCount = 105 ID = 705
   1.637579 2  3C3             Rx   d 8 E2 87 00 00 CE 91 00 05  Length = 1129430 BitCount = 117 ID = 963
   1.638429 2  531             Rx   d 4 00 20 A0 80  Length = 799438 BitCount = 84 ID = 1329
   1.639649 2  3E1             Rx   d 8 00 00 FF 00 00 00 84 78  Length = 1179426 BitCount = 122 ID = 993
   1.640809 2  651             Rx   d 8 80 02 50 2F 39 59 01 00  Length = 1119430 BitCount = 116 ID = 1617
   1.641959 2  5E1             Rx   d 7 00 00 00 00 00 00 00  Length = 1109430 BitCount = 115 ID = 1505
   1.644499 2  43D             Rx   d 8 00 11 01 00 00 10 00 00  Length = 1179441 BitCount = 122 ID = 1085
   1.645799 2  359             Rx   d 8 FF 89 FF F1 0F 6B 80 00  Length = 1129441 BitCount = 117 ID = 857
   1.647029 2  555             Rx   d 8 00 00 79 00 01 40 00 00  Length = 1189441 BitCount = 123 ID = 1365
   1.653209 2  621             Rx   d 8 00 73 04 00 00 41 27 00  Length = 1159426 BitCount = 120 ID = 1569
   1.655838 2  35B             Rx   d 8 00 00 00 00 20 19 0C 00  Length = 1179426 BitCount = 122 ID = 859
   1.656578 2  457             Rx   d 3 00 47 00  Length = 699442 BitCount = 74 ID = 1111
   1.665798 2  320             Rx   d 8 01 00 00 01 00 01 00 80  Length = 1189426 BitCount = 123 ID = 800
   1.666658 2  575             Rx   d 4 00 00 00 00  Length = 819434 BitCount = 86 ID = 1397
   1.670338 2  679             Rx   d 3 37 4E 00  Length = 699453 BitCount = 74 ID = 1657
   1.675817 2  367             Rx   d 8 FC 00 00 00 7E F2 01 00  Length = 1159426 BitCount = 120 ID = 871
   1.677047 2  369             Rx   d 8 3D 00 00 D0 FF 00 00 00  Length = 1179426 BitCount = 122 ID = 873
   1.678267 2  470             Rx   d 8 40 00 00 64 00 00 00 17  Length = 1179441 BitCount = 122 ID = 1136
   1.685037 2  386             Rx   d 8 00 00 00 00 00 00 00 64  Length = 1189426 BitCount = 123 ID = 902
   1.686107 2  381             Rx   d 6 00 00 00 00 00 00  Length = 1029430 BitCount = 107 ID = 897
   1.686947 2  531             Rx   d 4 00 20 B0 90  Length = 789438 BitCount = 83 ID = 1329
   1.688177 2  400             Rx   d 8 0C 01 0C 04 04 00 00 00  Length = 1189441 BitCount = 123 ID = 1024
   1.695876 2  397             Rx   d 8 00 00 00 00 00 00 00 00  Length = 1199426 BitCount = 124 ID = 919
   1.696926 2  4B9             Rx   d 6 00 00 00 00 00 00  Length = 1009430 BitCount = 105 ID = 1209
   1.698166 2  591             Rx   d 8 00 00 08 00 00 00 00 00  Length = 1199426 BitCount = 124 ID = 1425
   1.704376 2  58C             Rx   d 8 80 00 B5 C0 B9 00 00 05  Length = 1159426 BitCount = 120 ID = 1420
   1.705626 2  4BD             Rx   d 6 00 00 00 00 00 00  Length = 999430 BitCount = 104 ID = 1213
   1.706826 2  658             Rx   d 8 60 28 00 09 00 99 00 00  Length = 1159426 BitCount = 120 ID = 1624
   1.715675 2  3B5             Rx   d 6 00 00 00 00 00 00  Length = 1029445 BitCount = 107 ID = 949
   1.716695 2  571             Rx   d 6 99 1F 00 08 04 00  Length = 979430 BitCount = 102 ID = 1393
   1.717365 2  5D1             Rx   d 2 10 00  Length = 629442 BitCount = 67 ID = 1489
   1.725805 2  470             Rx   d 8 40 00 00 64 00 00 00 17  Length = 1179426 BitCount = 122 ID = 1136
   1.728455 2  5AC             Rx   d 8 FE 6F 00 00 91 00 00 00  Length = 1159426 BitCount = 120 ID = 1452
   1.729695 2  40C             Rx   d 8 16 11 01 00 00 00 00 00  Length = 1199426 BitCount = 124 ID = 1036
   1.735335 2  386             Rx   d 8 00 00 00 00 00 00 00 64  Length = 1189426 BitCount = 123 ID = 902
   1.736385 2  2C1             Rx   d 6 00 00 00 00 02 00  Length = 1009430 BitCount = 105 ID = 705
   1.737545 2  3C3             Rx   d 8 E2 87 00 00 CE 31 00 65  Length = 1109430 BitCount = 115 ID = 963
   1.738394 2  531             Rx   d 4 00 20 C0 E0  Length = 799438 BitCount = 84 ID = 1329
   1.739614 2  3E1             Rx   d 8 00 00 FF 00 00 00 84 78  Length = 1179426 BitCount = 122 ID = 993
   1.740774 2  651             Rx   d 8 80 02 50 2F 39 59 01 00  Length = 1119430 BitCount = 116 ID = 1617
   1.742015 2  3E9             Rx   d 8 00 01 40 05 00 00 00 00  Length = 1199426 BitCount = 124 ID = 1001
   1.743284 2  5E8             Rx   d 8 00 40 00 00 00 00 40 00  Length = 1209426 BitCount = 125 ID = 1512
   1.745745 2  359             Rx   d 8 FF 89 FF F1 0F 6B 80 00  Length = 1129430 BitCount = 117 ID = 857
   1.746975 2  555             Rx   d 8 00 00 79 00 01 40 00 00  Length = 1189426 BitCount = 123 ID = 1365
   1.753164 2  65F             Rx   d 8 01 00 00 00 00 00 00 00  Length = 1129430 BitCount = 117 ID = 1631
   1.754364 2  621             Rx   d 8 00 73 04 00 00 41 27 00  Length = 1159426 BitCount = 120 ID = 1569
   1.755844 2  35B             Rx   d 8 00 00 00 00 20 19 0C 00  Length = 1179441 BitCount = 122 ID = 859
   1.756584 2  457             Rx   d 3 00 47 00  Length = 699442 BitCount = 74 ID = 1111
   1.771044 2  436             Rx   d 8 1D 11 01 00 00 00 02 00  Length = 1169441 BitCount = 121 ID = 1078
   1.775843 2  369             Rx   d 8 3D 00 00 D0 FF 00 00 00  Length = 1179426 BitCount = 122 ID = 873
   1.777073 2  470             Rx   d 8 40 00 00 64 00 00 00 17  Length = 1179426 BitCount = 122 ID = 1136
   1.777833 2  635             Rx   d 3 00 00 27  Length = 719453 BitCount = 76 ID = 1589
   1.785073 2  386             Rx   d 8 00 00 00 00 00 00 00 64  Length = 1189426 BitCount = 123 ID = 902
   1.786143 2  381             Rx   d 6 00 00 00 00 00 00  Length = 1029430 BitCount = 107 ID = 897
   1.786993 2  531             Rx   d 4 00 20 D0 F0  Length = 799438 BitCount = 84 ID = 1329
   1.789013 2  57C             Rx   d 8 00 5B 03 00 00 00 00 58  Length = 1179426 BitCount = 122 ID = 1404
   1.795852 2  397             Rx   d 8 00 00 00 00 00 00 00 00  Length = 1199426 BitCount = 124 ID = 919
   1.796902 2  4B9             Rx   d 6 00 00 00 00 00 00  Length = 1009430 BitCount = 105 ID = 1209
   1.797732 2  653             Rx   d 4 81 01 81 01  Length = 789438 BitCount = 83 ID = 1619
   1.804612 2  58C             Rx   d 8 80 00 B5 C0 B9 00 00 05  Length = 1159426 BitCount = 120 ID = 1420
   1.805662 2  4BD             Rx   d 6 00 00 00 00 00 00  Length = 999430 BitCount = 104 ID = 1213
   1.806862 2  658             Rx   d 8 60 28 00 09 00 99 00 00  Length = 1159426 BitCount = 120 ID = 1624
   1.814532 2  43D             Rx   d 8 00 11 01 00 00 10 00 00  Length = 1179426 BitCount = 122 ID = 1085
   1.815692 2  3B5             Rx   d 6 00 00 00 00 00 00  Length = 1029430 BitCount = 107 ID = 949
   1.816872 2  527             Rx   d 8 10 01 00 10 71 73 74 08  Length = 1139430 BitCount = 118 ID = 1319
   1.825791 2  470             Rx   d 8 40 00 00 64 00 00 00 17  Length = 1179441 BitCount = 122 ID = 1136
   1.826521 2  6E7             Rx   d 3 34 4F 00  Length = 689442 BitCount = 73 ID = 1767
   1.828521 2  5AC             Rx   d 8 FE 6F 00 00 91 00 00 00  Length = 1159426 BitCount = 120 ID = 1452
   1.835331 2  386             Rx   d 8 00 00 00 00 00 00 00 64  Length = 1189426 BitCount = 123 ID = 902
   1.836381 2  2C1             Rx   d 6 00 00 00 00 02 00  Length = 1009430 BitCount = 105 ID = 705
   1.837531 2  3C3             Rx   d 8 E2 87 00 00 CE D1 00 C5  Length = 1109430 BitCount = 115 ID = 963
   1.838381 2  531             Rx   d 4 00 20 E0 C0  Length = 799438 BitCount = 84 ID = 1329
   1.839601 2  3E1             Rx   d 8 00 00 FF 00 00 00 84 78  Length = 1179441 BitCount = 122 ID = 993
   1.840760 2  651             Rx   d 8 80 02 50 2F 39 59 01 00  Length = 1119441 BitCount = 116 ID = 1617
   1.841991 2  3E3             Rx   d 8 00 00 96 00 00 00 00 00  Length = 1189426 BitCount = 123 ID = 995
   1.843161 2  5E1             Rx   d 7 00 00 00 00 00 00 00  Length = 1109430 BitCount = 115 ID = 1505
   1.845761 2  359             Rx   d 8 FF 89 FF F1 0F 6B 80 00  Length = 1129430 BitCount = 117 ID = 857
   1.846991 2  555             Rx   d 8 00 00 79 00 01 40 00 00  Length = 1189426 BitCount = 123 ID = 1365
   1.848191 2  69C             Rx   d 8 80 08 39 43 78 07 FE E0  Length = 1159426 BitCount = 120 ID = 1692
   1.853190 2  621             Rx   d 8 00 73 04 00 00 41 27 00  Length = 1159426 BitCount = 120 ID = 1569
   1.855870 2  35B             Rx   d 8 00 00 00 00 20 19 0C 00  Length = 1179441 BitCount = 122 ID = 859
   1.856610 2  457             Rx   d 3 00 47 00  Length = 699442 BitCount = 74 ID = 1111
   1.857840 2  400             Rx   d 8 0C 01 0C 04 04 00 00 00  Length = 1189426 BitCount = 123 ID = 1024
   1.865790 2  320             Rx   d 8 01 00 00 01 00 09 00 80  Length = 1189426 BitCount = 123 ID = 800
   1.866650 2  575             Rx   d 4 00 00 00 00  Length = 819434 BitCount = 86 ID = 1397
   1.875779 2  367             Rx   d 8 FC 00 00 00 7E F2 01 00  Length = 1159426 BitCount = 120 ID = 871
   1.877009 2  369             Rx   d 8 3D 00 00 D0 FF 00 00 00  Length = 1179426 BitCount = 122 ID = 873
   1.878229 2  470             Rx   d 8 40 00 00 64 00 00 00 17  Length = 1179426 BitCount = 122 ID = 1136
   1.885169 2  386             Rx   d 8 00 00 00 00 00 00 00 64  Length = 1189426 BitCount = 123 ID = 902
   1.886248 2  381             Rx   d 6 00 00 00 00 00 00  Length = 1029430 BitCount = 107 ID = 897
   1.887108 2  531             Rx   d 4 00 20 F0 D0  Length = 809434 BitCount = 85 ID = 1329
   1.891368 2  61A             Rx   d 8 68 21 80 20 02 B0 2A 71  Length = 1119430 BitCount = 116 ID = 1562
   1.895848 2  397             Rx   d 8 00 00 00 00 00 00 00 00  Length = 1199426 BitCount = 124 ID = 919
   1.896898 2  4B9             Rx   d 6 00 00 00 00 00 00  Length = 1009430 BitCount = 105 ID = 1209
   1.898138 2  591             Rx   d 8 00 00 08 00 00 00 00 00  Length = 1199426 BitCount = 124 ID = 1425
   1.899308 2  655             Rx   d 8 75 00 F0 03 18 00 80 C4  Length = 1129430 BitCount = 117 ID = 1621
   1.900548 2  40C             Rx   d 8 16 11 01 00 00 00 00 00  Length = 1199426 BitCount = 124 ID = 1036
   1.901508 2  69C             Rx   d 5 C0 00 00 00 00  Length = 919434 BitCount = 96 ID = 1692
   1.904348 2  58C             Rx   d 8 80 00 B5 C0 B9 00 00 05  Length = 1159441 BitCount = 120 ID = 1420
   1.905617 2  4BD             Rx   d 6 00 00 00 00 00 00  Length = 999430 BitCount = 104 ID = 1213
   1.906817 2  658             Rx   d 8 60 28 00 09 00 99 00 00  Length = 1159426 BitCount = 120 ID = 1624
   1.915667 2  3B5             Rx   d 6 00 00 00 00 00 00  Length = 1029430 BitCount = 107 ID = 949
   1.916337 2  5D1             Rx   d 2 10 00  Length = 629442 BitCount = 67 ID = 1489
   1.917317 2  6B4             Rx   d 6 B2 01 31 02 71 58  Length = 939434 BitCount = 98 ID = 1716
   1.925786 2  470             Rx   d 8 40 00 00 64 00 00 00 17  Length = 1179441 BitCount = 122 ID = 1136
   1.928486 2  5AC             Rx   d 8 FE 6F 00 00 91 00 00 00  Length = 1159426 BitCount = 120 ID = 1452
   1.935326 2  386             Rx   d 8 00 00 00 00 00 00 00 64  Length = 1189426 BitCount = 123 ID = 902
   1.936376 2  2C1             Rx   d 6 00 00 00 00 02 00  Length = 1009430 BitCount = 105 ID = 705
   1.937546 2  3C3             Rx   d 8 E2 87 00 00 CE 71 00 25  Length = 1129430 BitCount = 117 ID = 963
   1.938406 2  531             Rx   d 4 00 20 00 20  Length = 809434 BitCount = 85 ID = 1329
   1.939626 2  3E1             Rx   d 8 00 00 FF 00 00 00 84 78  Length = 1179441 BitCount = 122 ID = 993
   1.940786 2  651             Rx   d 8 80 02 50 2F 39 59 01 00  Length = 1119441 BitCount = 116 ID = 1617
   1.945735 2  359             Rx   d 8 FF 89 FF F1 0F 6B 80 00  Length = 1129430 BitCount = 117 ID = 857
   1.946965 2  555             Rx   d 8 00 00 79 00 01 40 00 00  Length = 1189426 BitCount = 123 ID = 1365
   1.951045 2  436             Rx   d 8 1D 11 01 00 00 00 02 00  Length = 1169441 BitCount = 121 ID = 1078
   1.953145 2  65F             Rx   d 8 02 00 00 00 00 00 00 00  Length = 1119430 BitCount = 116 ID = 1631
   1.954345 2  621             Rx   d 8 00 73 04 00 00 41 27 00  Length = 1159426 BitCount = 120 ID = 1569
   1.955845 2  35B             Rx   d 8 00 00 00 00 20 19 0C 00  Length = 1179441 BitCount = 122 ID = 859
   1.956595 2  457             Rx   d 3 00 47 00  Length = 699442 BitCount = 74 ID = 1111
   1.975814 2  369             Rx   d 8 3D 00 00 D0 FF 00 00 00  Length = 1179426 BitCount = 122 ID = 873
   1.977034 2  470             Rx   d 8 40 00 00 64 00 00 00 17  Length = 1179426 BitCount = 122 ID = 1136
   1.977794 2  635             Rx   d 3 00 00 27  Length = 719438 BitCount = 76 ID = 1589
   1.985064 2  386             Rx   d 8 00 00 00 00 00 00 00 64  Length = 1189426 BitCount = 123 ID = 902
   1.986194 2  381             Rx   d 6 00 00 00 00 00 00  Length = 1029430 BitCount = 107 ID = 897
   1.987044 2  531             Rx   d 4 00 20 10 30  Length = 799438 BitCount = 84 ID = 1329
   1.994494 2  43D             Rx   d 8 00 11 01 00 00 10 00 00  Length = 1179441 BitCount = 122 ID = 1085
   1.995864 2  397             Rx   d 8 00 00 00 00 00 00 00 00  Length = 1199426 BitCount = 124 ID = 919
   1.996914 2  4B9             Rx   d 6 00 00 00 00 00 00  Length = 1009430 BitCount = 105 ID = 1209
   2.004603 2  58C             Rx   d 8 80 00 B5 C0 B9 00 00 05  Length = 1159426 BitCount = 120 ID = 1420
   2.005643 2  4BD             Rx   d 6 00 00 00 00 00 00  Length = 999430 BitCount = 104 ID = 1213
   2.006843 2  658             Rx   d 8 60 28 00 09 00 99 00 00  Length = 1159426 BitCount = 120 ID = 1624
   2.015652 2  3B5             Rx   d 6 00 00 00 00 00 00  Length = 1029430 BitCount = 107 ID = 949
   2.016832 2  527             Rx   d 8 10 01 00 10 71 73 74 08  Length = 1139430 BitCount = 118 ID = 1319
   2.022186 CAN 1 Status:chip status error active
   2.022186 CAN 2 Status:chip status error active
   2.025782 2  470             Rx   d 8 40 00 00 64 00 00 00 17  Length = 1179441 BitCount = 122 ID = 1136
   2.028542 2  5AC             Rx   d 8 FE 6F 00 00 91 00 00 00  Length = 1159426 BitCount = 120 ID = 1452
   2.029762 2  569             Rx   d 8 00 00 01 3A 00 00 00 00  Length = 1179426 BitCount = 122 ID = 1385
   2.035411 2  386             Rx   d 8 00 00 00 00 00 00 00 64  Length = 1189426 BitCount = 123 ID = 902
   2.036461 2  2C1             Rx   d 6 00 00 00 00 02 00  Length = 1009430 BitCount = 105 ID = 705
   2.037611 2  3C3             Rx   d 8 E2 87 00 00 CE 11 00 85  Length = 1109430 BitCount = 115 ID = 963
   2.038461 2  531             Rx   d 4 00 20 20 00  Length = 799438 BitCount = 84 ID = 1329
   2.039681 2  3E1             Rx   d 8 00 00 FF 00 00 00 84 78  Length = 1179441 BitCount = 122 ID = 993
   2.040841 2  651             Rx   d 8 80 02 50 2F 39 59 01 00  Length = 1119441 BitCount = 116 ID = 1617
   2.042071 2  400             Rx   d 8 0C 01 0C 04 04 00 00 00  Length = 1189441 BitCount = 123 ID = 1024
   2.043221 2  5E1             Rx   d 7 00 00 00 00 00 00 00  Length = 1109445 BitCount = 115 ID = 1505
   2.045741 2  359             Rx   d 8 FF 89 FF F1 0F 6B 80 00  Length = 1129430 BitCount = 117 ID = 857
   2.046971 2  555             Rx   d 8 00 00 79 00 01 40 00 00  Length = 1189426 BitCount = 123 ID = 1365
   2.053181 2  621             Rx   d 8 00 73 04 00 00 41 27 00  Length = 1159426 BitCount = 120 ID = 1569
   2.055851 2  35B             Rx   d 8 00 00 00 00 20 19 0C 00  Length = 1179441 BitCount = 122 ID = 859
   2.056591 2  457             Rx   d 3 00 47 00  Length = 699453 BitCount = 74 ID = 1111
   2.065770 2  320             Rx   d 8 01 00 00 01 00 01 00 80  Length = 1189441 BitCount = 123 ID = 800
   2.066630 2  575             Rx   d 4 00 00 00 00  Length = 819434 BitCount = 86 ID = 1397
   2.075770 2  367             Rx   d 8 FC 00 00 00 7E F2 01 00  Length = 1159426 BitCount = 120 ID = 871
   2.077000 2  369             Rx   d 8 3D 00 00 D0 FF 00 00 00  Length = 1179426 BitCount = 122 ID = 873
   2.078220 2  470             Rx   d 8 40 00 00 64 00 00 00 17  Length = 1179426 BitCount = 122 ID = 1136
   2.084969 2  386             Rx   d 8 00 00 00 00 00 00 00 64  Length = 1189426 BitCount = 123 ID = 902
   2.086039 2  381             Rx   d 6 00 00 00 00 00 00  Length = 1029430 BitCount = 107 ID = 897
   2.086879 2  531             Rx   d 4 00 20 30 10  Length = 789438 BitCount = 83 ID = 1329
   2.089639 2  40C             Rx   d 8 16 11 01 00 00 00 00 00  Length = 1199426 BitCount = 124 ID = 1036
   2.095839 2  397             Rx   d 8 00 00 00 00 00 00 00 00  Length = 1199441 BitCount = 124 ID = 919
   2.096889 2  4B9             Rx   d 6 00 00 00 00 00 00  Length = 1009430 BitCount = 105 ID = 1209
   2.098129 2  591             Rx   d 8 00 00 08 00 00 00 00 00  Length = 1199441 BitCount = 124 ID = 1425
   2.099379 2  5F5             Rx   d 8 00 10 00 00 00 00 00 00  Length = 1209426 BitCount = 125 ID = 1525
   2.104339 2  58C             Rx   d 8 80 00 B5 C0 B9 00 00 05  Length = 1159426 BitCount = 120 ID = 1420
   2.105609 2  4BD             Rx   d 6 00 00 00 00 00 00  Length = 999430 BitCount = 104 ID = 1213
   2.106819 2  658             Rx   d 8 60 28 00 09 00 98 00 00  Length = 1169441 BitCount = 121 ID = 1624
   2.115658 2  3B5             Rx   d 6 00 00 00 00 00 00  Length = 1029430 BitCount = 107 ID = 949
   2.116328 2  5D1             Rx   d 2 10 00  Length = 629442 BitCount = 67 ID = 1489
   2.125778 2  470             Rx   d 8 40 00 00 64 00 00 00 17  Length = 1179426 BitCount = 122 ID = 1136
   2.127027 2  64F             Rx   d 8 3F 00 00 00 00 00 00 00  Length = 1209441 BitCount = 125 ID = 1615
   2.128447 2  5AC             Rx   d 8 FE 6F 00 00 91 00 00 00  Length = 1159426 BitCount = 120 ID = 1452
   2.131048 2  436             Rx   d 8 1D 11 01 00 00 00 02 00  Length = 1169426 BitCount = 121 ID = 1078
   2.135238 2  386             Rx   d 8 00 00 00 00 00 00 00 64  Length = 1189426 BitCount = 123 ID = 902
   2.136287 2  2C1             Rx   d 6 00 00 00 00 02 00  Length = 1009430 BitCount = 105 ID = 705
   2.137437 2  3C3             Rx   d 8 E2 87 00 00 CE B1 00 E5  Length = 1109430 BitCount = 115 ID = 963
   2.138297 2  531             Rx   d 4 00 20 40 60  Length = 809434 BitCount = 85 ID = 1329
   2.139517 2  3E1             Rx   d 8 00 00 FF 00 00 00 84 78  Length = 1179426 BitCount = 122 ID = 993
   2.140677 2  651             Rx   d 8 80 02 50 2F 39 59 01 00  Length = 1119430 BitCount = 116 ID = 1617
   2.145727 2  359             Rx   d 8 FF 89 FF F1 0F 6B 80 00  Length = 1129430 BitCount = 117 ID = 857
   2.146957 2  555             Rx   d 8 00 00 79 00 01 40 00 00  Length = 1189426 BitCount = 123 ID = 1365
   2.153147 2  65F             Rx   d 8 00 AA 8C 8E C0 00 00 00  Length = 1119430 BitCount = 116 ID = 1631
   2.154347 2  621             Rx   d 8 00 73 04 00 00 41 27 00  Length = 1159426 BitCount = 120 ID = 1569
   2.155567 2  5A7             Rx   d 8 00 16 00 00 00 00 00 00  Length = 1179441 BitCount = 122 ID = 1447
   2.156787 2  35B             Rx   d 8 00 00 00 00 20 19 0C 00  Length = 1179426 BitCount = 122 ID = 859
   2.157527 2  457             Rx   d 3 00 47 00  Length = 699442 BitCount = 74 ID = 1111
   2.158787 2  5A9             Rx   d 8 00 00 00 00 00 00 00 00  Length = 1219426 BitCount = 126 ID = 1449
   2.174506 2  43D             Rx   d 8 00 11 01 00 00 10 00 00  Length = 1179426 BitCount = 122 ID = 1085
   2.175826 2  369             Rx   d 8 3D 00 00 D0 FF 00 00 00  Length = 1179426 BitCount = 122 ID = 873
   2.177046 2  470             Rx   d 8 40 00 00 64 00 00 00 17  Length = 1179426 BitCount = 122 ID = 1136
   2.177806 2  635             Rx   d 3 00 00 27  Length = 719438 BitCount = 76 ID = 1589
   2.185006 2  386             Rx   d 8 00 00 00 00 00 00 00 64  Length = 1189426 BitCount = 123 ID = 902
   2.186076 2  381             Rx   d 6 00 00 00 00 00 00  Length = 1029430 BitCount = 107 ID = 897
   2.186936 2  531             Rx   d 4 00 20 50 70  Length = 809434 BitCount = 85 ID = 1329
   2.195825 2  397             Rx   d 8 00 00 00 00 00 00 00 00  Length = 1199441 BitCount = 124 ID = 919
   2.196875 2  4B9             Rx   d 6 00 00 00 00 00 00  Length = 1009445 BitCount = 105 ID = 1209
   2.204585 2  58C             Rx   d 8 80 00 B5 C0 B9 00 00 05  Length = 1159426 BitCount = 120 ID = 1420
   2.205625 2  4BD             Rx   d 6 00 00 00 00 00 00  Length = 999430 BitCount = 104 ID = 1213
   2.206835 2  658             Rx   d 8 60 28 00 09 00 98 00 00  Length = 1169441 BitCount = 121 ID = 1624
   2.215644 2  3B5             Rx   d 6 00 00 00 00 00 00  Length = 1029430 BitCount = 107 ID = 949
   2.216824 2  527             Rx   d 8 10 01 00 10 71 73 74 08  Length = 1139430 BitCount = 118 ID = 1319
   2.217844 2  571             Rx   d 6 99 1F 00 08 04 00  Length = 979430 BitCount = 102 ID = 1393
   2.219074 2  400             Rx   d 8 0C 01 0C 04 04 00 00 00  Length = 1189426 BitCount = 123 ID = 1024
   2.225774 2  470             Rx   d 8 40 00 00 64 00 00 00 17  Length = 1179426 BitCount = 122 ID = 1136
   2.228464 2  5AC             Rx   d 8 FE 6F 00 00 91 00 00 00  Length = 1159426 BitCount = 120 ID = 1452
   2.235213 2  386             Rx   d 8 00 00 00 00 00 00 00 64  Length = 1189426 BitCount = 123 ID = 902
   2.236263 2  2C1             Rx   d 6 00 00 00 00 02 00  Length = 1009430 BitCount = 105 ID = 705
   2.237433 2  3C3             Rx   d 8 E2 87 00 00 CE 51 00 45  Length = 1129441 BitCount = 117 ID = 963
   2.238283 2  531             Rx   d 4 00 20 60 40  Length = 799449 BitCount = 84 ID = 1329
   2.239503 2  3E1             Rx   d 8 00 00 FF 00 00 00 84 78  Length = 1179426 BitCount = 122 ID = 993
   2.240663 2  651             Rx   d 8 80 02 50 2F 39 59 01 00  Length = 1119430 BitCount = 116 ID = 1617
   2.241903 2  3E9             Rx   d 8 00 01 40 05 00 00 00 00  Length = 1199426 BitCount = 124 ID = 1001
   2.243073 2  5E1             Rx   d 7 00 00 00 00 00 00 00  Length = 1109430 BitCount = 115 ID = 1505
   2.244343 2  5E8             Rx   d 8 00 40 00 00 00 00 40 00  Length = 1209426 BitCount = 125 ID = 1512
   2.245783 2  359             Rx   d 8 FF 89 FF F1 0F 6B 80 00  Length = 1129430 BitCount = 117 ID = 857
   2.247013 2  555             Rx   d 8 00 00 79 00 01 40 00 00  Length = 1189426 BitCount = 123 ID = 1365
   2.253163 2  621             Rx   d 8 00 73 04 00 00 41 27 00  Length = 1159426 BitCount = 120 ID = 1569
   2.255803 2  35B             Rx   d 8 00 00 00 00 20 19 0C 00  Length = 1179426 BitCount = 122 ID = 859
   2.256542 2  457             Rx   d 3 00 47 00  Length = 699442 BitCount = 74 ID = 1111
   2.265762 2  320             Rx   d 8 01 00 00 01 00 09 00 80  Length = 1189426 BitCount = 123 ID = 800
   2.266622 2  575             Rx   d 4 00 00 00 00  Length = 819449 BitCount = 86 ID = 1397
   2.269852 2  40C             Rx   d 8 16 11 01 00 00 00 00 00  Length = 1199441 BitCount = 124 ID = 1036
   2.275761 2  367             Rx   d 8 FC 00 00 00 7E F2 01 00  Length = 1159426 BitCount = 120 ID = 871
   2.276991 2  369             Rx   d 8 3D 00 00 D0 FF 00 00 00  Length = 1179426 BitCount = 122 ID = 873
   2.278211 2  470             Rx   d 8 40 00 00 64 00 00 00 17  Length = 1179426 BitCount = 122 ID = 1136
   2.285021 2  386             Rx   d 8 00 00 00 00 00 00 00 64  Length = 1189426 BitCount = 123 ID = 902
   2.286091 2  381             Rx   d 6 00 00 00 00 00 00  Length = 1029430 BitCount = 107 ID = 897
   2.286941 2  531             Rx   d 4 00 20 70 50  Length = 799438 BitCount = 84 ID = 1329
   2.289021 2  57C             Rx   d 8 10 5B 03 00 00 00 00 48  Length = 1189441 BitCount = 123 ID = 1404
   2.295840 2  397             Rx   d 8 00 00 00 00 00 00 00 00  Length = 1199441 BitCount = 124 ID = 919
   2.296890 2  4B9             Rx   d 6 00 00 00 00 00 00  Length = 1009445 BitCount = 105 ID = 1209
   2.298130 2  591             Rx   d 8 00 00 08 00 00 00 00 00  Length = 1199426 BitCount = 124 ID = 1425
   2.298960 2  653             Rx   d 4 81 01 81 01  Length = 789449 BitCount = 83 ID = 1619
   2.302500 2  60E             Rx   d 2 08 02  Length = 629442 BitCount = 67 ID = 1550
   2.304310 2  58C             Rx   d 8 80 00 B5 C0 B9 00 00 05  Length = 1159426 BitCount = 120 ID = 1420
   2.305590 2  4BD             Rx   d 6 00 00 00 00 00 00  Length = 999430 BitCount = 104 ID = 1213
   2.306800 2  658             Rx   d 8 60 28 00 09 00 98 00 00  Length = 1169441 BitCount = 121 ID = 1624
   2.315659 2  3B5             Rx   d 6 00 00 00 00 00 00  Length = 1029430 BitCount = 107 ID = 949
   2.316329 2  5D1             Rx   d 2 10 00  Length = 629442 BitCount = 67 ID = 1489
   2.320519 2  481             Rx   d 2 00 00  Length = 649457 BitCount = 69 ID = 1153
   2.321729 2  436             Rx   d 8 1D 11 01 00 00 00 02 00  Length = 1169426 BitCount = 121 ID = 1078
   2.322969 2  661             Rx   d 8 00 00 00 00 00 00 00 00  Length = 1199426 BitCount = 124 ID = 1633
   2.324109 2  665             Rx   d 7 00 00 00 00 00 00 00  Length = 1099430 BitCount = 114 ID = 1637
   2.324789 2  666             Rx   d 2 00 00  Length = 639442 BitCount = 68 ID = 1638
   2.326009 2  470             Rx   d 8 40 00 00 64 00 00 00 17  Length = 1179426 BitCount = 122 ID = 1136
   2.328419 2  5AC             Rx   d 8 FE 6F 00 00 91 00 00 00  Length = 1159426 BitCount = 120 ID = 1452
   2.335249 2  386             Rx   d 8 00 00 00 00 00 00 00 64  Length = 1189441 BitCount = 123 ID = 902
   2.336299 2  2C1             Rx   d 6 00 00 00 00 02 00  Length = 1009430 BitCount = 105 ID = 705
   2.337449 2  3C3             Rx   d 8 E2 87 00 00 CE F1 00 A5  Length = 1109445 BitCount = 115 ID = 963
   2.338299 2  531             Rx   d 4 00 20 80 A0  Length = 799449 BitCount = 84 ID = 1329
   2.339518 2  3E1             Rx   d 8 00 00 FF 00 00 00 84 78  Length = 1179426 BitCount = 122 ID = 993
   2.340678 2  651             Rx   d 8 80 02 50 2F 39 59 01 00  Length = 1119430 BitCount = 116 ID = 1617
   2.345718 2  359             Rx   d 8 FF 89 FF F1 0F 6B 80 00  Length = 1129430 BitCount = 117 ID = 857
   2.346948 2  555             Rx   d 8 00 00 79 00 01 40 00 00  Length = 1189426 BitCount = 123 ID = 1365
   2.353098 2  65F             Rx   d 8 01 00 00 00 00 00 00 00  Length = 1129441 BitCount = 117 ID = 1631
   2.354298 2  621             Rx   d 8 00 73 04 00 00 41 27 00  Length = 1159441 BitCount = 120 ID = 1569
   2.355828 2  35B             Rx   d 8 00 00 00 00 20 19 0C 00  Length = 1179426 BitCount = 122 ID = 859
   2.356568 2  457             Rx   d 3 00 47 00  Length = 699442 BitCount = 74 ID = 1111
   2.364537 2  43D             Rx   d 8 00 11 01 00 00 10 00 00  Length = 1179426 BitCount = 122 ID = 1085
   2.375797 2  369             Rx   d 8 3D 00 00 D0 FF 00 00 00  Length = 1179426 BitCount = 122 ID = 873
   2.377026 2  470             Rx   d 8 40 00 00 64 00 00 00 17  Length = 1179426 BitCount = 122 ID = 1136
   2.377786 2  635             Rx   d 3 00 00 27  Length = 719438 BitCount = 76 ID = 1589
   2.385016 2  386             Rx   d 8 00 00 00 00 00 00 00 64  Length = 1189426 BitCount = 123 ID = 902
   2.386086 2  381             Rx   d 6 00 00 00 00 00 00  Length = 1029430 BitCount = 107 ID = 897
   2.386916 2  531             Rx   d 4 00 20 90 B0  Length = 779438 BitCount = 82 ID = 1329
   2.391316 2  61A             Rx   d 8 6B 22 80 20 02 B0 2A 71  Length = 1119430 BitCount = 116 ID = 1562
   2.395825 2  397             Rx   d 8 00 00 00 00 00 00 00 00  Length = 1199426 BitCount = 124 ID = 919
   2.396875 2  4B9             Rx   d 6 00 00 00 00 00 00  Length = 1009445 BitCount = 105 ID = 1209
   2.398045 2  655             Rx   d 8 75 00 F0 03 18 00 80 C4  Length = 1129430 BitCount = 117 ID = 1621
   2.403685 2  629             Rx   d 8 FF 0F FF 7F 94 25 40 00  Length = 1139430 BitCount = 118 ID = 1577
   2.404885 2  58C             Rx   d 8 80 00 B5 C0 B9 00 00 05  Length = 1159426 BitCount = 120 ID = 1420
   2.405925 2  4BD             Rx   d 6 00 00 00 00 00 00  Length = 999430 BitCount = 104 ID = 1213
   2.407135 2  658             Rx   d 8 60 28 00 09 00 98 00 00  Length = 1169426 BitCount = 121 ID = 1624
   2.408365 2  400             Rx   d 8 0C 01 0C 04 04 00 00 00  Length = 1189426 BitCount = 123 ID = 1024
   2.415634 2  3B5             Rx   d 6 00 00 00 00 00 00  Length = 1029430 BitCount = 107 ID = 949
   2.416814 2  527             Rx   d 8 10 01 00 10 71 73 74 08  Length = 1139430 BitCount = 118 ID = 1319
   2.417794 2  6B4             Rx   d 6 B2 01 31 02 71 58  Length = 939434 BitCount = 98 ID = 1716
   2.425764 2  470             Rx   d 8 40 00 00 64 00 00 00 17  Length = 1179426 BitCount = 122 ID = 1136
   2.428204 2  62B             Rx   d 8 00 10 0A 40 11 00 25 40  Length = 1139441 BitCount = 118 ID = 1579
   2.429404 2  5AC             Rx   d 8 FE 6F 00 00 91 00 00 00  Length = 1159441 BitCount = 120 ID = 1452
   2.435223 2  386             Rx   d 8 00 00 00 00 00 00 00 64  Length = 1189441 BitCount = 123 ID = 902
   2.436273 2  2C1             Rx   d 6 00 00 00 00 02 00  Length = 1009445 BitCount = 105 ID = 705
   2.437443 2  3C3             Rx   d 8 E2 87 00 00 CE 91 00 05  Length = 1129430 BitCount = 117 ID = 963
   2.438293 2  531             Rx   d 4 00 20 A0 80  Length = 799449 BitCount = 84 ID = 1329
   2.439453 2  651             Rx   d 8 80 02 50 2F 39 59 01 00  Length = 1119430 BitCount = 116 ID = 1617
   2.440673 2  3E1             Rx   d 8 00 00 FF 00 00 00 84 78  Length = 1179426 BitCount = 122 ID = 993
   2.441843 2  5E1             Rx   d 7 00 00 00 00 00 00 00  Length = 1109430 BitCount = 115 ID = 1505
   2.445733 2  359             Rx   d 8 FF 89 FF F1 0F 6B 80 00  Length = 1129430 BitCount = 117 ID = 857
   2.446963 2  555             Rx   d 8 00 00 79 00 01 40 00 00  Length = 1189426 BitCount = 123 ID = 1365
   2.453153 2  621             Rx   d 8 00 73 04 00 00 41 27 00  Length = 1159441 BitCount = 120 ID = 1569
   2.454313 2  62D             Rx   d 8 00 10 26 4A 50 16 1B 40  Length = 1119430 BitCount = 116 ID = 1581
   2.455813 2  35B             Rx   d 8 00 00 00 00 20 19 0C 00  Length = 1179426 BitCount = 122 ID = 859
   2.456553 2  457             Rx   d 3 00 47 00  Length = 699442 BitCount = 74 ID = 1111
   2.459513 2  40C             Rx   d 8 16 11 01 00 00 00 00 00  Length = 1199426 BitCount = 124 ID = 1036
   2.465763 2  320             Rx   d 8 01 00 00 01 00 01 00 80  Length = 1189426 BitCount = 123 ID = 800
   2.466623 2  575             Rx   d 4 00 00 00 00  Length = 819434 BitCount = 86 ID = 1397
   2.467743 2  65D             Rx   d 8 75 94 25 D0 F0 D2 86 0A  Length = 1079430 BitCount = 112 ID = 1629
   2.475752 2  367             Rx   d 8 FC 00 00 00 7E F2 01 00  Length = 1159426 BitCount = 120 ID = 871
   2.476982 2  369             Rx   d 8 3D 00 00 D0 FF 00 00 00  Length = 1179426 BitCount = 122 ID = 873
   2.478202 2  470             Rx   d 8 40 00 00 64 00 00 00 17  Length = 1179426 BitCount = 122 ID = 1136
   2.485012 2  386             Rx   d 8 00 00 00 00 00 00 00 64  Length = 1189441 BitCount = 123 ID = 902
   2.486082 2  381             Rx   d 6 00 00 00 00 00 00  Length = 1029430 BitCount = 107 ID = 897
   2.486922 2  531             Rx   d 4 00 20 B0 90  Length = 789449 BitCount = 83 ID = 1329
   2.495781 2  397             Rx   d 8 00 00 00 00 00 00 00 00  Length = 1199426 BitCount = 124 ID = 919
   2.496831 2  4B9             Rx   d 6 00 00 00 00 00 00  Length = 1009430 BitCount = 105 ID = 1209
   2.498071 2  591             Rx   d 8 00 00 08 00 00 00 00 00  Length = 1199441 BitCount = 124 ID = 1425
   2.498801 2  66C             Rx   d 3 3C 5C 16  Length = 689442 BitCount = 73 ID = 1644
   2.501051 2  436             Rx   d 8 1D 11 01 00 00 00 02 00  Length = 1169426 BitCount = 121 ID = 1078
   2.504291 2  58C             Rx   d 8 80 00 B5 C0 B9 00 00 05  Length = 1159426 BitCount = 120 ID = 1420
   2.505581 2  4BD             Rx   d 6 00 00 00 00 00 00  Length = 999445 BitCount = 104 ID = 1213
   2.506790 2  658             Rx   d 8 60 28 00 09 00 98 00 00  Length = 1169426 BitCount = 121 ID = 1624
   2.515640 2  3B5             Rx   d 6 00 00 00 00 00 00  Length = 1029430 BitCount = 107 ID = 949
   2.516310 2  5D1             Rx   d 2 10 00  Length = 629442 BitCount = 67 ID = 1489
   2.526159 2  470             Rx   d 8 40 00 00 64 00 00 00 17  Length = 1179426 BitCount = 122 ID = 1136
   2.527949 2  52D             Rx   d 8 3F 40 FF 0F FF 0F FF 0F  Length = 1149426 BitCount = 119 ID = 1325
   2.529149 2  5AC             Rx   d 8 FE 6F 00 00 91 00 00 00  Length = 1159426 BitCount = 120 ID = 1452
   2.530379 2  569             Rx   d 8 00 00 01 3A 00 00 00 00  Length = 1179426 BitCount = 122 ID = 1385
   2.531579 2  61C             Rx   d 8 00 F0 07 40 FE 03 00 0B  Length = 1159426 BitCount = 120 ID = 1564
   2.535369 2  386             Rx   d 8 00 00 00 00 00 00 00 64  Length = 1189426 BitCount = 123 ID = 902
   2.536419 2  2C1             Rx   d 6 00 00 00 00 02 00  Length = 1009430 BitCount = 105 ID = 705
   2.537569 2  3C3             Rx   d 8 E2 87 00 00 CE 31 00 65  Length = 1109430 BitCount = 115 ID = 963
   2.538419 2  531             Rx   d 4 00 20 C0 E0  Length = 799438 BitCount = 84 ID = 1329
   2.539579 2  651             Rx   d 8 80 02 50 2F 39 59 01 00  Length = 1119430 BitCount = 116 ID = 1617
   2.540799 2  3E1             Rx   d 8 00 00 FF 00 00 00 84 78  Length = 1179426 BitCount = 122 ID = 993
   2.544479 2  43D             Rx   d 8 00 11 01 00 00 10 00 00  Length = 1179441 BitCount = 122 ID = 1085
   2.545729 2  359             Rx   d 8 FF 89 FF F1 0F 6B 80 00  Length = 1129430 BitCount = 117 ID = 857
   2.546959 2  555             Rx   d 8 00 00 79 00 01 40 00 00  Length = 1189426 BitCount = 123 ID = 1365
   2.553108 2  52F             Rx   d 8 00 00 93 10 27 10 1E 10  Length = 1139430 BitCount = 118 ID = 1327
   2.554268 2  65F             Rx   d 8 02 00 00 00 00 00 00 00  Length = 1119441 BitCount = 116 ID = 1631
   2.555468 2  621             Rx   d 8 00 73 04 00 00 41 27 00  Length = 1159441 BitCount = 120 ID = 1569
   2.556688 2  35B             Rx   d 8 00 00 00 00 20 19 0C 00  Length = 1179441 BitCount = 122 ID = 859
   2.557428 2  457             Rx   d 3 00 47 00  Length = 699442 BitCount = 74 ID = 1111
   2.572117 2  62A             Rx   d 8 40 10 00 00 00 00 38 00  Length = 1179426 BitCount = 122 ID = 1578
   2.575797 2  369             Rx   d 8 3D 00 00 D0 FF 00 00 00  Length = 1179441 BitCount = 122 ID = 873
   2.577017 2  470             Rx   d 8 40 00 00 64 00 00 00 17  Length = 1179426 BitCount = 122 ID = 1136
   2.577777 2  635             Rx   d 3 00 00 27  Length = 719438 BitCount = 76 ID = 1589
   2.578957 2  532             Rx   d 8 00 00 93 10 51 10 23 10  Length = 1129430 BitCount = 117 ID = 1330
   2.584977 2  386             Rx   d 8 00 00 00 00 00 00 00 64  Length = 1189441 BitCount = 123 ID = 902
   2.586047 2  381             Rx   d 6 00 00 00 00 00 00  Length = 1029445 BitCount = 107 ID = 897
   2.586897 2  531             Rx   d 4 00 20 D0 F0  Length = 799449 BitCount = 84 ID = 1329
   2.588127 2  400             Rx   d 8 0C 01 0C 04 04 00 00 00  Length = 1189426 BitCount = 123 ID = 1024
   2.595806 2  397             Rx   d 8 00 00 00 00 00 00 00 00  Length = 1199426 BitCount = 124 ID = 919
   2.596856 2  4B9             Rx   d 6 00 00 00 00 00 00  Length = 1009430 BitCount = 105 ID = 1209
   2.598106 2  5F5             Rx   d 8 00 10 00 00 00 00 00 00  Length = 1209426 BitCount = 125 ID = 1525
   2.604606 2  58C             Rx   d 8 80 00 B5 C0 B9 00 00 05  Length = 1159441 BitCount = 120 ID = 1420
   2.605646 2  4BD             Rx   d 6 00 00 00 00 00 00  Length = 999445 BitCount = 104 ID = 1213
   2.606856 2  658             Rx   d 8 60 28 00 09 00 98 00 00  Length = 1169426 BitCount = 121 ID = 1624
   2.616005 2  3B5             Rx   d 6 00 00 00 00 00 00  Length = 1029430 BitCount = 107 ID = 949
   2.617185 2  527             Rx   d 8 10 01 00 10 71 73 74 08  Length = 1139430 BitCount = 118 ID = 1319
   2.625745 2  470             Rx   d 8 40 00 00 64 00 00 00 17  Length = 1179426 BitCount = 122 ID = 1136
   2.627104 2  64F             Rx   d 8 3F 00 00 00 00 00 00 00  Length = 1209426 BitCount = 125 ID = 1615
   2.628434 2  5AC             Rx   d 8 FE 6F 00 00 91 00 00 00  Length = 1159426 BitCount = 120 ID = 1452
   2.629845 2  40C             Rx   d 8 16 11 01 00 00 00 00 00  Length = 1199426 BitCount = 124 ID = 1036
   2.635265 2  386             Rx   d 8 00 00 00 00 00 00 00 64  Length = 1189426 BitCount = 123 ID = 902
   2.636314 2  2C1             Rx   d 6 00 00 00 00 02 00  Length = 1009445 BitCount = 105 ID = 705
   2.637464 2  3C3             Rx   d 8 E2 87 00 00 CE D1 00 C5  Length = 1109430 BitCount = 115 ID = 963
   2.638314 2  531             Rx   d 4 00 20 E0 C0  Length = 799438 BitCount = 84 ID = 1329
   2.639534 2  3E1             Rx   d 8 00 00 FF 00 00 00 84 78  Length = 1179426 BitCount = 122 ID = 993
   2.640694 2  651             Rx   d 8 80 02 50 2F 39 59 01 00  Length = 1119430 BitCount = 116 ID = 1617
   2.641924 2  3E3             Rx   d 8 00 00 96 00 00 00 00 00  Length = 1189426 BitCount = 123 ID = 995
   2.643094 2  5E1             Rx   d 7 00 00 00 00 00 00 00  Length = 1109430 BitCount = 115 ID = 1505
   2.645714 2  359             Rx   d 8 FF 89 FF F1 0F 6B 80 00  Length = 1129441 BitCount = 117 ID = 857
   2.646944 2  555             Rx   d 8 00 00 79 00 01 40 00 00  Length = 1189441 BitCount = 123 ID = 1365
   2.653134 2  621             Rx   d 8 00 73 04 00 00 41 27 00  Length = 1159426 BitCount = 120 ID = 1569
   2.655784 2  35B             Rx   d 8 00 00 00 00 20 19 0C 00  Length = 1179426 BitCount = 122 ID = 859
   2.656524 2  457             Rx   d 3 00 47 00  Length = 699442 BitCount = 74 ID = 1111
   2.665743 2  320             Rx   d 8 01 00 00 01 00 09 00 80  Length = 1189426 BitCount = 123 ID = 800
   2.666603 2  575             Rx   d 4 00 00 00 00  Length = 819434 BitCount = 86 ID = 1397
   2.670213 2  679             Rx   d 3 37 4F 00  Length = 709438 BitCount = 75 ID = 1657
   2.671423 2  436             Rx   d 8 1D 11 01 00 00 00 02 00  Length = 1169426 BitCount = 121 ID = 1078
   2.675763 2  367             Rx   d 8 FC 00 00 00 7E F2 01 00  Length = 1159441 BitCount = 120 ID = 871
   2.676993 2  369             Rx   d 8 3D 00 00 D0 FF 00 00 00  Length = 1179441 BitCount = 122 ID = 873
   2.678213 2  470             Rx   d 8 40 00 00 64 00 00 00 17  Length = 1179426 BitCount = 122 ID = 1136
   2.684972 2  386             Rx   d 8 00 00 00 00 00 00 00 64  Length = 1189426 BitCount = 123 ID = 902
   2.686042 2  381             Rx   d 6 00 00 00 00 00 00  Length = 1029445 BitCount = 107 ID = 897
   2.686902 2  531             Rx   d 4 00 20 F0 D0  Length = 809434 BitCount = 85 ID = 1329
   2.695822 2  397             Rx   d 8 00 00 00 00 00 00 00 00  Length = 1199426 BitCount = 124 ID = 919
   2.696872 2  4B9             Rx   d 6 00 00 00 00 00 00  Length = 1009430 BitCount = 105 ID = 1209
   2.698112 2  591             Rx   d 8 00 00 08 00 00 00 00 00  Length = 1199426 BitCount = 124 ID = 1425
   2.704261 2  58C             Rx   d 8 80 00 B5 C0 B9 00 00 05  Length = 1159426 BitCount = 120 ID = 1420
