date Tue Apr 7 05:10:17.337 pm 2020
base hex  timestamps absolute
internal events logged
// version 11.0.0
   0.048522 CAN 1 Status:chip status error active
   0.048522 CAN 2 Status:chip status error active
   1.048522 CAN 1 Status:chip status error active
   1.048522 CAN 2 Status:chip status error active
   2.048522 CAN 1 Status:chip status error active
   2.048522 CAN 2 Status:chip status error active
   3.048523 CAN 1 Status:chip status error active
   3.048523 CAN 2 Status:chip status error active
   4.048523 CAN 1 Status:chip status error active
   4.048523 CAN 2 Status:chip status error active
   5.048523 CAN 1 Status:chip status error active
   5.048523 CAN 2 Status:chip status error active
   6.048524 CAN 1 Status:chip status error active
   6.048524 CAN 2 Status:chip status error active
   7.048524 CAN 1 Status:chip status error active
   7.048524 CAN 2 Status:chip status error active
   8.048524 CAN 1 Status:chip status error active
   8.048524 CAN 2 Status:chip status error active
   9.048525 CAN 1 Status:chip status error active
   9.048525 CAN 2 Status:chip status error active
  10.048525 CAN 1 Status:chip status error active
  10.048525 CAN 2 Status:chip status error active
  11.048525 CAN 1 Status:chip status error active
  11.048525 CAN 2 Status:chip status error active
  12.048526 CAN 1 Status:chip status error active
  12.048526 CAN 2 Status:chip status error active
  13.048526 CAN 1 Status:chip status error active
  13.048526 CAN 2 Status:chip status error active
  14.048526 CAN 1 Status:chip status error active
  14.048526 CAN 2 Status:chip status error active
  15.048526 CAN 1 Status:chip status error active
  15.048526 CAN 2 Status:chip status error active
  16.048527 CAN 1 Status:chip status error active
  16.048527 CAN 2 Status:chip status error active
  17.048527 CAN 1 Status:chip status error active
  17.048527 CAN 2 Status:chip status error active
  18.048527 CAN 1 Status:chip status error active
  18.048527 CAN 2 Status:chip status error active
  19.048528 CAN 1 Status:chip status error active
  19.048528 CAN 2 Status:chip status error active
  20.048528 CAN 1 Status:chip status error active
  20.048528 CAN 2 Status:chip status error active
  21.048528 CAN 1 Status:chip status error active
  21.048528 CAN 2 Status:chip status error active
  22.048529 CAN 1 Status:chip status error active
  22.048529 CAN 2 Status:chip status error active
  22.531398 2  ErrorFrame	Flags = 0xfffe	CodeExt = 0x20a2	Code = 0x82	ID = 0	DLC = 0	Position = 5	Length = 59375
  22.531406 CAN 2 Status:chip status error active  - TxErr: 0 RxErr: 1
  22.532673 CAN 2 Status:chip status error active
  22.532745 2  43D             Rx   d 8 1D 02 02 00 00 14 00 00  Length = 1179426 BitCount = 122 ID = 1085
  22.533594 2  ErrorFrame	Flags = 0xfffe	CodeExt = 0x20aa	Code = 0x82	ID = 0x367	DLC = 8	Position = 49	Length = 539390	Data = 0xff  0  0  0  0  0x14  0  0
  22.533602 CAN 2 Status:chip status error active  - TxErr: 0 RxErr: 1
  22.534862 CAN 2 Status:chip status error active
  22.534934 2  367             Rx   d 8 FF 00 00 00 7E F0 01 00  Length = 1169426 BitCount = 121 ID = 871
  22.536174 2  400             Rx   d 8 00 02 01 04 04 04 00 00  Length = 1199441 BitCount = 124 ID = 1024
  22.542184 2  5A7             Rx   d 8 60 19 00 00 00 00 00 00  Length = 1169426 BitCount = 121 ID = 1447
  22.543454 2  5A9             Rx   d 8 00 00 00 00 00 00 00 00  Length = 1219426 BitCount = 126 ID = 1449
  22.544524 2  381             Rx   d 6 00 00 00 00 00 00  Length = 1029430 BitCount = 107 ID = 897
  22.545374 2  69E             Rx   d 4 40 00 01 02  Length = 809434 BitCount = 85 ID = 1694
  22.546224 2  531             Rx   d 4 00 00 B0 B0  Length = 809434 BitCount = 85 ID = 1329
  22.549044 2  69E             Rx   d 2 14 42  Length = 599461 BitCount = 64 ID = 1694
  22.554164 2  397             Rx   d 8 00 00 00 00 00 00 00 00  Length = 1199441 BitCount = 124 ID = 919
  22.555214 2  4B9             Rx   d 6 00 00 00 00 00 00  Length = 1009445 BitCount = 105 ID = 1209
  22.556454 2  591             Rx   d 8 00 00 08 00 00 00 00 00  Length = 1199426 BitCount = 124 ID = 1425
  22.557704 2  5F5             Rx   d 8 00 10 00 00 00 00 00 00  Length = 1209426 BitCount = 125 ID = 1525
  22.563974 2  4BD             Rx   d 6 00 00 00 00 00 00  Length = 999430 BitCount = 104 ID = 1213
  22.565184 2  658             Rx   d 8 60 28 00 07 00 8E 00 00  Length = 1169426 BitCount = 121 ID = 1624
  22.573964 2  3B5             Rx   d 6 01 00 00 00 00 00  Length = 999445 BitCount = 104 ID = 949
  22.574633 2  5D1             Rx   d 2 10 00  Length = 629442 BitCount = 67 ID = 1489
  22.582293 2  43D             Rx   d 8 00 01 02 04 00 14 00 00  Length = 1179426 BitCount = 122 ID = 1085
  22.584184 2  470             Rx   d 8 40 02 00 64 00 00 00 15  Length = 1169426 BitCount = 121 ID = 1136
  22.585433 2  64F             Rx   d 8 3F 00 00 00 00 00 00 00  Length = 1209426 BitCount = 125 ID = 1615
  22.591913 2  67C             Rx   d 2 1C 42  Length = 609446 BitCount = 65 ID = 1660
  22.594233 2  2C1             Rx   d 6 00 00 00 00 02 00  Length = 1009430 BitCount = 105 ID = 705
  22.595083 2  531             Rx   d 4 00 00 C0 C0  Length = 799438 BitCount = 84 ID = 1329
  22.596233 2  651             Rx   d 8 80 02 50 AF 39 59 01 00  Length = 1109430 BitCount = 115 ID = 1617
  22.604383 2  359             Rx   d 8 FF 89 FF 00 10 6B 80 00  Length = 1149441 BitCount = 119 ID = 857
  22.614132 2  35B             Rx   d 8 0F 00 00 00 20 19 0C 00  Length = 1169426 BitCount = 121 ID = 859
  22.614942 2  457             Rx   d 3 00 47 00  Length = 699442 BitCount = 74 ID = 1111
  22.622582 2  62A             Rx   d 8 40 10 00 00 00 00 00 00  Length = 1179426 BitCount = 122 ID = 1578
  22.624132 2  679             Rx   d 4 40 00 01 1E  Length = 799438 BitCount = 84 ID = 1657
  22.625352 2  400             Rx   d 8 1D 01 01 04 04 04 00 00  Length = 1179426 BitCount = 122 ID = 1024
  22.626631 2  35B             Rx   d 8 0E 00 00 00 20 19 0C 00  Length = 1159426 BitCount = 120 ID = 859
  22.627851 2  367             Rx   d 8 FC 00 00 00 7E F0 01 00  Length = 1179426 BitCount = 122 ID = 871
  22.629051 2  359             Rx   d 8 FF 89 FF 00 00 6B 80 00  Length = 1159426 BitCount = 120 ID = 857
  22.630251 2  35B             Rx   d 8 06 00 00 00 20 19 0C 00  Length = 1159426 BitCount = 120 ID = 859
  22.631451 2  35B             Rx   d 8 04 00 00 00 20 19 0C 00  Length = 1159426 BitCount = 120 ID = 859
  22.632661 2  35B             Rx   d 8 00 00 00 00 20 19 08 00  Length = 1169426 BitCount = 121 ID = 859
  22.633881 2  58C             Rx   d 8 80 00 B6 C0 00 00 00 04  Length = 1179426 BitCount = 122 ID = 1420
  22.634521 2  69E             Rx   d 2 19 42  Length = 599446 BitCount = 64 ID = 1694
  22.635742 2  369             Rx   d 8 3D 00 00 D0 FF 00 00 00  Length = 1179426 BitCount = 122 ID = 873
  22.636951 2  470             Rx   d 8 40 02 00 64 00 00 00 15  Length = 1169426 BitCount = 121 ID = 1136
  22.637701 2  635             Rx   d 3 00 00 1D  Length = 709438 BitCount = 75 ID = 1589
  22.638911 2  679             Rx   d 8 07 42 03 00 1D 00 04 00  Length = 1169426 BitCount = 121 ID = 1657
  22.644051 2  381             Rx   d 6 00 00 00 00 00 00  Length = 1029445 BitCount = 107 ID = 897
  22.644891 2  531             Rx   d 4 00 00 D0 D0  Length = 789438 BitCount = 83 ID = 1329
  22.652231 2  5A7             Rx   d 8 E0 19 00 00 00 00 00 00  Length = 1179441 BitCount = 122 ID = 1447
  22.654161 2  397             Rx   d 8 00 00 00 00 00 00 00 00  Length = 1199426 BitCount = 124 ID = 919
  22.655211 2  4B9             Rx   d 6 00 00 00 00 00 00  Length = 1009430 BitCount = 105 ID = 1209
  22.663991 2  4BD             Rx   d 6 00 00 00 00 00 00  Length = 999445 BitCount = 104 ID = 1213
  22.665201 2  658             Rx   d 8 60 28 00 07 00 8E 00 00  Length = 1169426 BitCount = 121 ID = 1624
  22.666371 2  61A             Rx   d 8 6D 01 80 00 23 30 FF 00  Length = 1129430 BitCount = 117 ID = 1562
  22.667800 2  621             Rx   d 8 00 76 54 00 00 3D 1D 00  Length = 1159426 BitCount = 120 ID = 1569
  22.669371 2  3E1             Rx   d 8 80 00 00 00 00 00 04 F8  Length = 1199426 BitCount = 124 ID = 993
  22.670641 2  3E3             Rx   d 8 00 00 FF 00 00 00 00 00  Length = 1209441 BitCount = 125 ID = 995
  22.671882 2  3E9             Rx   d 8 FE F8 DF FF 00 00 00 00  Length = 1179441 BitCount = 122 ID = 1001
  22.673102 2  43D             Rx   d 8 00 01 02 04 00 14 00 00  Length = 1179426 BitCount = 122 ID = 1085
  22.674142 2  3B5             Rx   d 6 01 00 00 00 00 00  Length = 999430 BitCount = 104 ID = 949
  22.675382 2  40C             Rx   d 8 0C 02 01 04 00 04 00 00  Length = 1199426 BitCount = 124 ID = 1036
  22.676562 2  527             Rx   d 8 00 01 00 10 71 8E 90 08  Length = 1139430 BitCount = 118 ID = 1319
  22.677582 2  571             Rx   d 6 8F 1F 00 08 04 00  Length = 979430 BitCount = 102 ID = 1393
  22.678732 2  5E1             Rx   d 7 00 00 00 00 00 00 00  Length = 1109430 BitCount = 115 ID = 1505
  22.681203 2  5E8             Rx   d 8 00 00 FF FF 00 0C 00 00  Length = 1189426 BitCount = 123 ID = 1512
  22.684213 2  470             Rx   d 8 40 02 00 64 00 00 00 15  Length = 1169426 BitCount = 121 ID = 1136
  22.694232 2  2C1             Rx   d 6 00 00 00 00 02 00  Length = 1009445 BitCount = 105 ID = 705
  22.695392 2  3C3             Rx   d 8 52 02 00 00 CE 21 00 8A  Length = 1119430 BitCount = 116 ID = 963
  22.696242 2  531             Rx   d 4 00 00 E0 E0  Length = 799438 BitCount = 84 ID = 1329
  22.697392 2  651             Rx   d 8 80 02 50 AF 39 59 01 00  Length = 1109430 BitCount = 115 ID = 1617
  22.704172 2  359             Rx   d 8 FF 89 FF 00 00 6B 80 00  Length = 1159426 BitCount = 120 ID = 857
  22.705412 2  555             Rx   d 8 00 00 7C 00 01 00 00 00  Length = 1199426 BitCount = 124 ID = 1365
  22.706142 2  679             Rx   d 3 47 4D 10  Length = 689453 BitCount = 73 ID = 1657
  22.714171 2  35B             Rx   d 8 00 00 00 00 20 19 08 00  Length = 1169426 BitCount = 121 ID = 859
  22.714911 2  457             Rx   d 3 00 47 00  Length = 699442 BitCount = 74 ID = 1111
  22.716141 2  400             Rx   d 8 0C 01 01 04 04 04 00 00  Length = 1189426 BitCount = 123 ID = 1024
  22.716841 2  60E             Rx   d 2 08 02  Length = 629442 BitCount = 67 ID = 1550
  22.724191 2  320             Rx   d 8 00 00 00 01 00 01 00 80  Length = 1189426 BitCount = 123 ID = 800
  22.725041 2  575             Rx   d 4 01 00 00 00  Length = 809434 BitCount = 85 ID = 1397
  22.726281 2  386             Rx   d 8 00 00 00 00 00 00 00 64  Length = 1189426 BitCount = 123 ID = 902
  22.727521 2  569             Rx   d 8 00 00 00 3E 00 10 00 00  Length = 1199441 BitCount = 124 ID = 1385
  22.728741 2  58C             Rx   d 8 80 00 B6 C0 00 00 00 04  Length = 1179441 BitCount = 122 ID = 1420
  22.729950 2  5AC             Rx   d 8 FE 6F 05 05 28 00 00 00  Length = 1169441 BitCount = 121 ID = 1452
  22.731170 2  61C             Rx   d 8 00 90 01 00 FE 03 00 1E  Length = 1179426 BitCount = 122 ID = 1564
  22.732440 2  436             Rx   d 8 16 02 01 04 00 00 02 00  Length = 1169426 BitCount = 121 ID = 1078
  22.734251 2  367             Rx   d 8 FC 00 00 00 7E F0 01 00  Length = 1179426 BitCount = 122 ID = 871
  22.735481 2  369             Rx   d 8 3D 00 00 D0 FF 00 00 00  Length = 1179426 BitCount = 122 ID = 873
  22.736691 2  470             Rx   d 8 40 02 00 64 00 00 00 15  Length = 1169426 BitCount = 121 ID = 1136
  22.737380 2  481             Rx   d 2 00 00  Length = 649442 BitCount = 69 ID = 1153
  22.738670 2  661             Rx   d 8 00 00 00 00 00 00 00 00  Length = 1199426 BitCount = 124 ID = 1633
  22.739840 2  665             Rx   d 7 00 00 00 00 00 00 00  Length = 1099430 BitCount = 114 ID = 1637
  22.740520 2  666             Rx   d 2 00 00  Length = 639442 BitCount = 68 ID = 1638
  22.744080 2  381             Rx   d 6 00 00 00 00 00 00  Length = 1029430 BitCount = 107 ID = 897
  22.744920 2  531             Rx   d 4 00 00 F0 F0  Length = 789438 BitCount = 83 ID = 1329
  22.754180 2  397             Rx   d 8 00 00 00 00 00 00 00 00  Length = 1199426 BitCount = 124 ID = 919
  22.755230 2  4B9             Rx   d 6 00 00 00 00 00 00  Length = 1009430 BitCount = 105 ID = 1209
  22.756470 2  591             Rx   d 8 00 00 08 00 00 00 00 00  Length = 1199426 BitCount = 124 ID = 1425
  22.757300 2  653             Rx   d 4 81 01 81 01  Length = 789449 BitCount = 83 ID = 1619
  22.758030 2  679             Rx   d 3 47 52 00  Length = 689442 BitCount = 73 ID = 1657
  22.763999 2  4BD             Rx   d 6 00 00 00 00 00 00  Length = 999445 BitCount = 104 ID = 1213
  22.765209 2  658             Rx   d 8 60 28 00 07 00 8E 00 00  Length = 1169426 BitCount = 121 ID = 1624
  22.766069 2  69C             Rx   d 4 40 00 01 0A  Length = 819434 BitCount = 86 ID = 1692
  22.767300 2  3E1             Rx   d 8 80 00 00 00 00 00 84 F8  Length = 1189426 BitCount = 123 ID = 993
  22.768460 2  65F             Rx   d 8 00 AA 8C 8E C0 00 00 00  Length = 1119430 BitCount = 116 ID = 1631
  22.769690 2  40C             Rx   d 8 16 01 01 04 00 04 00 00  Length = 1189426 BitCount = 123 ID = 1036
  22.770889 2  621             Rx   d 8 00 76 54 00 00 3D 1D 00  Length = 1159426 BitCount = 120 ID = 1569
  22.773649 2  69C             Rx   d 8 09 42 03 00 25 00 04 00  Length = 1159426 BitCount = 120 ID = 1692
  22.774829 2  6E7             Rx   d 8 04 42 03 00 11 00 04 01  Length = 1139430 BitCount = 118 ID = 1767
  22.775869 2  3B5             Rx   d 6 01 00 00 00 00 00  Length = 999430 BitCount = 104 ID = 949
  22.776539 2  5D1             Rx   d 2 10 00  Length = 629442 BitCount = 67 ID = 1489
  22.777769 2  386             Rx   d 8 00 00 00 00 00 00 00 64  Length = 1189426 BitCount = 123 ID = 902
  22.778989 2  569             Rx   d 8 00 00 00 3A 00 00 00 00  Length = 1179441 BitCount = 122 ID = 1385
  22.782529 2  69E             Rx   d 2 14 42  Length = 599446 BitCount = 64 ID = 1694
  22.784439 2  470             Rx   d 8 40 02 00 64 00 00 00 15  Length = 1169426 BitCount = 121 ID = 1136
  22.794009 2  2C1             Rx   d 6 00 00 00 00 02 00  Length = 1009430 BitCount = 105 ID = 705
  22.795179 2  3C3             Rx   d 8 52 02 00 00 CE C1 00 EA  Length = 1129430 BitCount = 117 ID = 963
  22.796059 2  531             Rx   d 4 00 00 00 00  Length = 829434 BitCount = 87 ID = 1329
  22.797209 2  651             Rx   d 8 80 02 50 AF 39 59 01 00  Length = 1109430 BitCount = 115 ID = 1617
  22.798449 2  57C             Rx   d 8 20 FE 03 00 00 00 00 DD  Length = 1199426 BitCount = 124 ID = 1404
  22.804168 2  359             Rx   d 8 FF 89 FF 00 00 6B 80 00  Length = 1159426 BitCount = 120 ID = 857
  22.805408 2  555             Rx   d 8 00 00 7C 00 01 00 00 00  Length = 1199441 BitCount = 124 ID = 1365
  22.806228 2  679             Rx   d 4 47 54 04 00  Length = 779453 BitCount = 82 ID = 1657
  22.814148 2  35B             Rx   d 8 00 00 00 00 20 19 08 00  Length = 1169426 BitCount = 121 ID = 859
  22.814888 2  457             Rx   d 3 00 47 00  Length = 699442 BitCount = 74 ID = 1111
  22.816098 2  436             Rx   d 8 0C 01 01 04 00 00 02 00  Length = 1169426 BitCount = 121 ID = 1078
  22.817638 2  629             Rx   d 8 FF 0F FF 7F 47 27 40 00  Length = 1139430 BitCount = 118 ID = 1577
  22.822238 2  43D             Rx   d 8 00 02 02 04 00 14 00 00  Length = 1169426 BitCount = 121 ID = 1085
  22.823408 2  6E7             Rx   d 8 44 42 03 00 11 00 04 01  Length = 1129430 BitCount = 117 ID = 1767
  22.824858 2  400             Rx   d 8 0C 02 01 04 04 04 00 00  Length = 1189426 BitCount = 123 ID = 1024
  22.826308 2  386             Rx   d 8 00 00 00 00 00 00 00 64  Length = 1189426 BitCount = 123 ID = 902
  22.828198 2  58C             Rx   d 8 80 00 B6 C0 00 00 00 E4  Length = 1169426 BitCount = 121 ID = 1420
  22.829438 2  5AC             Rx   d 8 FE 6F 00 00 00 00 00 00  Length = 1199426 BitCount = 124 ID = 1452
  22.834168 2  369             Rx   d 8 3D 00 00 D0 FF 00 00 00  Length = 1179426 BitCount = 122 ID = 873
  22.835378 2  470             Rx   d 8 40 02 00 64 00 00 00 15  Length = 1169426 BitCount = 121 ID = 1136
  22.836128 2  635             Rx   d 3 00 00 1D  Length = 709438 BitCount = 75 ID = 1589
  22.842627 2  62B             Rx   d 8 00 10 00 40 00 00 FE 7F  Length = 1169441 BitCount = 121 ID = 1579
  22.844057 2  381             Rx   d 6 00 00 00 00 00 00  Length = 1029430 BitCount = 107 ID = 897
  22.844937 2  531             Rx   d 4 00 00 10 10  Length = 829449 BitCount = 87 ID = 1329
  22.854187 2  397             Rx   d 8 00 00 00 00 00 00 00 00  Length = 1199426 BitCount = 124 ID = 919
  22.855237 2  4B9             Rx   d 6 00 00 00 00 00 00  Length = 1009430 BitCount = 105 ID = 1209
  22.856407 2  655             Rx   d 8 75 00 F0 03 18 00 80 C4  Length = 1129430 BitCount = 117 ID = 1621
  22.864006 2  4BD             Rx   d 6 00 00 00 00 00 00  Length = 999430 BitCount = 104 ID = 1213
  22.864657 2  69E             Rx   d 2 14 43  Length = 609446 BitCount = 65 ID = 1694
  22.865867 2  658             Rx   d 8 60 28 00 07 00 8E 00 00  Length = 1169441 BitCount = 121 ID = 1624
  22.867097 2  3E1             Rx   d 8 80 00 00 00 00 00 84 F8  Length = 1189426 BitCount = 123 ID = 993
  22.868297 2  621             Rx   d 8 00 76 54 00 00 3D 1D 00  Length = 1159426 BitCount = 120 ID = 1569
  22.869527 2  40C             Rx   d 8 16 01 01 04 00 04 00 00  Length = 1189426 BitCount = 123 ID = 1036
  22.870707 2  62D             Rx   d 8 00 10 43 41 28 04 12 40  Length = 1139430 BitCount = 118 ID = 1581
  22.871858 2  5E1             Rx   d 7 00 00 00 00 00 00 00  Length = 1109445 BitCount = 115 ID = 1505
  22.873787 2  6E7             Rx   d 8 80 08 44 43 78 01 C0 00  Length = 1139430 BitCount = 118 ID = 1767
  22.874827 2  3B5             Rx   d 6 01 00 00 00 00 00  Length = 999430 BitCount = 104 ID = 949
  22.876007 2  527             Rx   d 8 00 01 00 10 71 8E 90 08  Length = 1139430 BitCount = 118 ID = 1319
  22.877257 2  5E8             Rx   d 8 00 40 00 00 00 00 40 00  Length = 1209426 BitCount = 125 ID = 1512
  22.878267 2  6B4             Rx   d 6 BA 01 6E 02 7D 3F  Length = 969430 BitCount = 101 ID = 1716
  22.879497 2  386             Rx   d 8 00 00 00 00 00 00 00 64  Length = 1189426 BitCount = 123 ID = 902
  22.884207 2  470             Rx   d 8 40 02 00 64 00 00 00 15  Length = 1169426 BitCount = 121 ID = 1136
  22.893986 2  2C1             Rx   d 6 00 00 00 00 02 00  Length = 1009445 BitCount = 105 ID = 705
  22.895176 2  3C3             Rx   d 8 52 02 00 00 CE 61 00 4A  Length = 1129430 BitCount = 117 ID = 963
  22.896056 2  531             Rx   d 4 00 00 20 20  Length = 829434 BitCount = 87 ID = 1329
  22.897196 2  5E1             Rx   d 7 80 00 00 00 00 00 00  Length = 1099430 BitCount = 114 ID = 1505
  22.898346 2  651             Rx   d 8 80 02 50 AF 39 59 01 00  Length = 1109430 BitCount = 115 ID = 1617
  22.904186 2  359             Rx   d 8 FF 89 FF 00 00 6B 80 00  Length = 1159426 BitCount = 120 ID = 857
  22.905426 2  555             Rx   d 8 00 00 7C 00 01 00 00 00  Length = 1199426 BitCount = 124 ID = 1365
  22.906586 2  61A             Rx   d 8 4F 02 80 20 22 30 FF 00  Length = 1119430 BitCount = 116 ID = 1562
  22.907806 2  35B             Rx   d 8 00 00 00 00 20 19 0C 00  Length = 1179426 BitCount = 122 ID = 859
  22.914166 2  35B             Rx   d 8 00 00 00 00 20 19 0C 00  Length = 1179441 BitCount = 122 ID = 859
  22.914905 2  457             Rx   d 3 00 47 00  Length = 699453 BitCount = 74 ID = 1111
  22.919536 2  436             Rx   d 8 1D 01 01 04 00 00 02 00  Length = 1169426 BitCount = 121 ID = 1078
  22.923076 2  6E7             Rx   d 5 C0 00 00 00 00  Length = 899434 BitCount = 94 ID = 1767
  22.924306 2  320             Rx   d 8 00 00 00 01 00 09 00 80  Length = 1189426 BitCount = 123 ID = 800
  22.925165 2  575             Rx   d 4 01 00 00 00  Length = 809434 BitCount = 85 ID = 1397
  22.926315 2  65D             Rx   d 8 82 47 27 E0 70 13 95 0E  Length = 1109445 BitCount = 115 ID = 1629
  22.927545 2  386             Rx   d 8 00 00 00 00 00 00 00 64  Length = 1189426 BitCount = 123 ID = 902
  22.928755 2  58C             Rx   d 8 80 00 B6 C0 00 00 00 E5  Length = 1169426 BitCount = 121 ID = 1420
  22.930005 2  5AC             Rx   d 8 FE 6F 00 00 00 00 00 00  Length = 1199426 BitCount = 124 ID = 1452
  22.934405 2  367             Rx   d 8 FC 00 00 00 7E F0 01 00  Length = 1179426 BitCount = 122 ID = 871
  22.935635 2  369             Rx   d 8 3D 00 00 D0 FF 00 00 00  Length = 1179426 BitCount = 122 ID = 873
  22.936845 2  470             Rx   d 8 40 02 00 64 00 00 00 15  Length = 1169426 BitCount = 121 ID = 1136
  22.942705 2  52D             Rx   d 8 FE 7F FF 0F FF 0F FF 0F  Length = 1169426 BitCount = 121 ID = 1325
  22.944065 2  381             Rx   d 6 00 00 00 00 00 00  Length = 1029430 BitCount = 107 ID = 897
  22.944925 2  531             Rx   d 4 00 00 30 30  Length = 809434 BitCount = 85 ID = 1329
  22.945774 2  69E             Rx   d 2 19 42  Length = 599461 BitCount = 64 ID = 1694
  22.953424 2  69C             Rx   d 8 49 42 03 00 25 00 04 00  Length = 1149441 BitCount = 119 ID = 1692
  22.954664 2  397             Rx   d 8 00 00 00 00 00 00 00 00  Length = 1199441 BitCount = 124 ID = 919
  22.955724 2  4B9             Rx   d 6 00 00 00 00 00 00  Length = 1009430 BitCount = 105 ID = 1209
  22.956964 2  591             Rx   d 8 00 00 08 00 00 00 00 00  Length = 1199426 BitCount = 124 ID = 1425
  22.962154 2  5A7             Rx   d 8 E0 16 00 00 00 00 00 00  Length = 1169441 BitCount = 121 ID = 1447
  22.963374 2  43D             Rx   d 8 00 01 02 04 00 14 00 00  Length = 1179426 BitCount = 122 ID = 1085
  22.964415 2  4BD             Rx   d 6 00 00 00 00 00 00  Length = 999430 BitCount = 104 ID = 1213
  22.965625 2  658             Rx   d 8 60 28 00 07 00 8E 00 00  Length = 1169441 BitCount = 121 ID = 1624
  22.966855 2  3E1             Rx   d 8 80 00 00 00 00 00 84 F8  Length = 1189426 BitCount = 123 ID = 993
  22.968065 2  52F             Rx   d 8 00 00 FE 1F FE 1F FE 1F  Length = 1169426 BitCount = 121 ID = 1327
  22.969235 2  65F             Rx   d 8 01 00 00 00 00 00 00 00  Length = 1129430 BitCount = 117 ID = 1631
  22.970435 2  621             Rx   d 8 00 76 54 00 00 3D 1D 00  Length = 1159426 BitCount = 120 ID = 1569
  22.973975 2  3B5             Rx   d 6 01 00 00 00 00 00  Length = 999430 BitCount = 104 ID = 949
  22.974645 2  5D1             Rx   d 2 10 00  Length = 629442 BitCount = 67 ID = 1489
  22.976215 2  386             Rx   d 8 00 00 00 00 00 00 00 64  Length = 1189426 BitCount = 123 ID = 902
  22.984194 2  470             Rx   d 8 40 02 00 64 00 00 00 15  Length = 1169426 BitCount = 121 ID = 1136
  22.992524 2  532             Rx   d 8 00 00 8F 10 31 10 26 10  Length = 1149426 BitCount = 119 ID = 1330
  22.994014 2  2C1             Rx   d 6 00 00 00 00 02 00  Length = 1009430 BitCount = 105 ID = 705
  22.995194 2  3C3             Rx   d 8 52 02 00 00 CE 01 00 AA  Length = 1139441 BitCount = 118 ID = 963
  22.996054 2  531             Rx   d 4 00 00 40 40  Length = 809434 BitCount = 85 ID = 1329
  22.997283 2  651             Rx   d 8 80 02 50 AF 39 59 01 00  Length = 1109430 BitCount = 115 ID = 1617
  23.004173 2  359             Rx   d 8 FF 89 FF 00 00 6B 80 00  Length = 1159426 BitCount = 120 ID = 857
  23.005413 2  555             Rx   d 8 00 00 7C 00 01 00 00 00  Length = 1199426 BitCount = 124 ID = 1365
  23.006643 2  400             Rx   d 8 0C 01 01 04 04 04 00 00  Length = 1189426 BitCount = 123 ID = 1024
  23.014153 2  35B             Rx   d 8 00 00 00 00 20 19 0C 00  Length = 1179426 BitCount = 122 ID = 859
  23.014893 2  457             Rx   d 3 00 47 00  Length = 699442 BitCount = 74 ID = 1111
  23.026232 2  386             Rx   d 8 00 00 00 00 00 00 00 64  Length = 1189426 BitCount = 123 ID = 902
  23.026882 2  69E             Rx   d 2 19 43  Length = 609446 BitCount = 65 ID = 1694
  23.028122 2  58C             Rx   d 8 80 00 B6 C0 00 00 00 E5  Length = 1169441 BitCount = 121 ID = 1420
  23.029362 2  5AC             Rx   d 8 FE 6F 00 00 00 00 00 00  Length = 1199441 BitCount = 124 ID = 1452
  23.033392 2  69C             Rx   d 8 80 08 49 43 78 07 FE E0  Length = 1139430 BitCount = 118 ID = 1692
  23.034622 2  369             Rx   d 8 3D 00 00 D0 FF 00 00 00  Length = 1179426 BitCount = 122 ID = 873
  23.035832 2  470             Rx   d 8 40 02 00 64 00 00 00 15  Length = 1169426 BitCount = 121 ID = 1136
  23.036582 2  635             Rx   d 3 00 00 1D  Length = 709453 BitCount = 75 ID = 1589
  23.044031 2  381             Rx   d 6 00 00 00 00 00 00  Length = 1029445 BitCount = 107 ID = 897
  23.044871 2  531             Rx   d 4 00 00 50 50  Length = 789438 BitCount = 83 ID = 1329
  23.048529 CAN 1 Status:chip status error active
  23.048529 CAN 2 Status:chip status error active
  23.054171 2  397             Rx   d 8 00 00 00 00 00 00 00 00  Length = 1199426 BitCount = 124 ID = 919
  23.055221 2  4B9             Rx   d 6 00 00 00 00 00 00  Length = 1009430 BitCount = 105 ID = 1209
  23.056471 2  5F5             Rx   d 8 00 10 00 00 00 00 00 00  Length = 1209441 BitCount = 125 ID = 1525
  23.057701 2  40C             Rx   d 8 16 01 01 04 00 04 00 00  Length = 1189426 BitCount = 123 ID = 1036
  23.064001 2  4BD             Rx   d 6 00 00 00 00 00 00  Length = 999445 BitCount = 104 ID = 1213
  23.065221 2  658             Rx   d 8 60 28 00 07 00 8E 00 00  Length = 1169426 BitCount = 121 ID = 1624
  23.066941 2  3E1             Rx   d 8 80 00 00 00 00 00 84 F8  Length = 1189426 BitCount = 123 ID = 993
  23.068141 2  621             Rx   d 8 00 76 54 00 00 3D 1D 00  Length = 1159426 BitCount = 120 ID = 1569
  23.069281 2  5E1             Rx   d 7 80 00 00 00 00 00 00  Length = 1099430 BitCount = 114 ID = 1505
  23.073971 2  3B5             Rx   d 6 01 00 00 00 00 00  Length = 999430 BitCount = 104 ID = 949
  23.075151 2  527             Rx   d 8 10 01 00 10 71 8E 90 08  Length = 1139430 BitCount = 118 ID = 1319
  23.076381 2  386             Rx   d 8 00 00 00 00 00 00 00 64  Length = 1189441 BitCount = 123 ID = 902
  23.083081 2  69C             Rx   d 5 C0 00 00 00 00  Length = 919434 BitCount = 96 ID = 1692
  23.084291 2  470             Rx   d 8 40 02 00 64 00 00 00 15  Length = 1169426 BitCount = 121 ID = 1136
  23.085541 2  64F             Rx   d 8 3F 00 00 00 00 00 00 00  Length = 1209426 BitCount = 125 ID = 1615
  23.091860 2  67C             Rx   d 2 1C 42  Length = 609457 BitCount = 65 ID = 1660
  23.093980 2  2C1             Rx   d 6 00 00 00 00 02 00  Length = 1009430 BitCount = 105 ID = 705
  23.095160 2  3C3             Rx   d 8 52 02 00 00 CE A1 00 0A  Length = 1129430 BitCount = 117 ID = 963
  23.096020 2  531             Rx   d 4 00 00 60 60  Length = 809434 BitCount = 85 ID = 1329
  23.097170 2  651             Rx   d 8 80 02 50 AF 39 59 01 00  Length = 1109430 BitCount = 115 ID = 1617
  23.099520 2  436             Rx   d 8 1D 01 01 04 00 00 02 00  Length = 1169441 BitCount = 121 ID = 1078
  23.104170 2  359             Rx   d 8 FF 89 FF 00 00 6B 80 00  Length = 1159426 BitCount = 120 ID = 857
  23.105410 2  555             Rx   d 8 00 00 7C 00 01 00 00 00  Length = 1199441 BitCount = 124 ID = 1365
  23.106060 2  69E             Rx   d 2 14 41  Length = 609446 BitCount = 65 ID = 1694
  23.113420 2  6E7             Rx   d 8 80 18 44 41 03 00 11 00  Length = 1139430 BitCount = 118 ID = 1767
  23.114640 2  35B             Rx   d 8 00 00 00 00 20 19 0C 00  Length = 1179426 BitCount = 122 ID = 859
  23.115380 2  457             Rx   d 3 00 47 00  Length = 699442 BitCount = 74 ID = 1111
  23.124170 2  320             Rx   d 8 00 00 00 01 00 01 00 80  Length = 1189426 BitCount = 123 ID = 800
  23.125020 2  575             Rx   d 4 01 00 00 00  Length = 809434 BitCount = 85 ID = 1397
  23.126260 2  386             Rx   d 8 00 00 00 00 00 00 00 64  Length = 1189426 BitCount = 123 ID = 902
  23.128120 2  58C             Rx   d 8 80 00 B6 C0 00 00 00 E5  Length = 1169426 BitCount = 121 ID = 1420
  23.129360 2  5AC             Rx   d 8 FE 6F 00 00 00 00 00 00  Length = 1199426 BitCount = 124 ID = 1452
  23.134159 2  367             Rx   d 8 FC 00 00 00 7E F0 01 00  Length = 1179426 BitCount = 122 ID = 871
  23.135389 2  369             Rx   d 8 3D 00 00 D0 FF 00 00 00  Length = 1179426 BitCount = 122 ID = 873
  23.136599 2  470             Rx   d 8 40 02 00 64 00 00 00 15  Length = 1169426 BitCount = 121 ID = 1136
  23.142369 2  43D             Rx   d 8 00 01 02 04 00 14 00 00  Length = 1179426 BitCount = 122 ID = 1085
  23.144039 2  381             Rx   d 6 00 00 00 00 00 00  Length = 1029430 BitCount = 107 ID = 897
  23.144879 2  531             Rx   d 4 00 00 70 70  Length = 789449 BitCount = 83 ID = 1329
  23.154159 2  397             Rx   d 8 00 00 00 00 00 00 00 00  Length = 1199426 BitCount = 124 ID = 919
  23.155209 2  4B9             Rx   d 6 00 00 00 00 00 00  Length = 1009430 BitCount = 105 ID = 1209
  23.156449 2  591             Rx   d 8 00 00 08 00 00 00 00 00  Length = 1199426 BitCount = 124 ID = 1425
  23.163368 2  6E7             Rx   d 8 C0 04 01 08 00 78 01 C0  Length = 1159426 BitCount = 120 ID = 1767
  23.164408 2  4BD             Rx   d 6 00 00 00 00 00 00  Length = 999445 BitCount = 104 ID = 1213
  23.165618 2  658             Rx   d 8 60 28 00 07 00 8E 00 00  Length = 1169426 BitCount = 121 ID = 1624
  23.166969 2  3E1             Rx   d 8 80 00 00 00 00 00 84 F8  Length = 1189426 BitCount = 123 ID = 993
  23.168129 2  65F             Rx   d 8 02 00 00 00 00 00 00 00  Length = 1119430 BitCount = 116 ID = 1631
  23.169379 2  3E9             Rx   d 8 00 00 00 00 00 00 00 00  Length = 1209426 BitCount = 125 ID = 1001
  23.170579 2  621             Rx   d 8 00 76 54 00 00 3D 1D 00  Length = 1159426 BitCount = 120 ID = 1569
  23.171829 2  5E8             Rx   d 8 00 40 00 00 00 00 40 00  Length = 1209426 BitCount = 125 ID = 1512
  23.173929 2  3B5             Rx   d 6 01 00 00 00 00 00  Length = 999430 BitCount = 104 ID = 949
  23.174949 2  571             Rx   d 6 8F 1F 00 08 04 00  Length = 979430 BitCount = 102 ID = 1393
  23.175619 2  5D1             Rx   d 2 10 00  Length = 629457 BitCount = 67 ID = 1489
  23.176849 2  386             Rx   d 8 00 00 00 00 00 00 00 64  Length = 1189441 BitCount = 123 ID = 902
  23.184188 2  470             Rx   d 8 40 02 00 64 00 00 00 15  Length = 1169426 BitCount = 121 ID = 1136
  23.185418 2  400             Rx   d 8 0C 01 01 04 04 00 00 00  Length = 1189426 BitCount = 123 ID = 1024
  23.186969 2  3E1             Rx   d 8 00 00 FF 00 00 00 84 78  Length = 1179426 BitCount = 122 ID = 993
  23.189039 2  69E             Rx   d 2 19 41  Length = 609446 BitCount = 65 ID = 1694
  23.193458 2  69C             Rx   d 8 80 4F 49 41 03 00 25 00  Length = 1149441 BitCount = 119 ID = 1692
  23.194508 2  2C1             Rx   d 6 00 00 00 00 02 00  Length = 1009430 BitCount = 105 ID = 705
  23.195678 2  3C3             Rx   d 8 53 02 00 00 CE 41 00 69  Length = 1129430 BitCount = 117 ID = 963
  23.196538 2  531             Rx   d 4 00 00 80 80  Length = 809434 BitCount = 85 ID = 1329
  23.197688 2  651             Rx   d 8 80 02 50 AF 39 59 01 00  Length = 1109430 BitCount = 115 ID = 1617
  23.204168 2  359             Rx   d 8 FF 89 FF 00 00 6B 80 00  Length = 1159426 BitCount = 120 ID = 857
  23.205408 2  555             Rx   d 8 00 00 7C 00 01 00 00 00  Length = 1199426 BitCount = 124 ID = 1365
  23.213397 2  6E7             Rx   d 8 C1 00 00 00 00 00 0A 00  Length = 1179426 BitCount = 122 ID = 1767
  23.214617 2  35B             Rx   d 8 00 00 00 00 20 19 0C 00  Length = 1179426 BitCount = 122 ID = 859
  23.215357 2  457             Rx   d 3 00 47 00  Length = 699442 BitCount = 74 ID = 1111
  23.216198 2  67D             Rx   d 4 40 00 01 14  Length = 799438 BitCount = 84 ID = 1661
  23.220958 2  66C             Rx   d 8 0C 42 03 00 31 00 03 01  Length = 1159426 BitCount = 120 ID = 1644
  23.226137 2  386             Rx   d 8 00 00 00 00 00 00 00 64  Length = 1189426 BitCount = 123 ID = 902
  23.227368 2  40C             Rx   d 8 16 01 01 04 00 04 00 00  Length = 1189426 BitCount = 123 ID = 1036
  23.228588 2  569             Rx   d 8 00 00 00 3A 00 00 00 00  Length = 1179426 BitCount = 122 ID = 1385
  23.229788 2  58C             Rx   d 8 80 00 B6 C0 B9 00 00 E5  Length = 1159426 BitCount = 120 ID = 1420
  23.231028 2  5AC             Rx   d 8 FE 6F 00 00 00 00 00 00  Length = 1199426 BitCount = 124 ID = 1452
  23.234147 2  369             Rx   d 8 3D 00 00 D0 FF 00 00 00  Length = 1179441 BitCount = 122 ID = 873
  23.235357 2  470             Rx   d 8 40 02 00 64 00 00 00 15  Length = 1169441 BitCount = 121 ID = 1136
  23.236107 2  635             Rx   d 3 00 00 1D  Length = 709438 BitCount = 75 ID = 1589
  23.240127 2  69D             Rx   d 2 14 42  Length = 619442 BitCount = 66 ID = 1693
  23.243468 2  69C             Rx   d 8 C0 04 00 08 00 78 07 FE  Length = 1179426 BitCount = 122 ID = 1692
  23.244537 2  381             Rx   d 6 00 00 00 00 00 00  Length = 1029430 BitCount = 107 ID = 897
  23.245387 2  531             Rx   d 4 00 00 90 90  Length = 799438 BitCount = 84 ID = 1329
  23.253077 2  67A             Rx   d 2 17 42  Length = 599446 BitCount = 64 ID = 1658
  23.254318 2  397             Rx   d 8 00 00 00 00 00 00 00 00  Length = 1199426 BitCount = 124 ID = 919
  23.255367 2  4B9             Rx   d 6 00 00 00 00 00 00  Length = 1009430 BitCount = 105 ID = 1209
  23.256197 2  653             Rx   d 4 81 01 81 01  Length = 789449 BitCount = 83 ID = 1619
  23.263327 2  6E7             Rx   d 8 44 42 03 00 11 00 04 01  Length = 1129430 BitCount = 117 ID = 1767
  23.264367 2  4BD             Rx   d 6 00 00 00 00 00 00  Length = 999430 BitCount = 104 ID = 1213
  23.265577 2  658             Rx   d 8 60 28 00 07 00 8E 00 00  Length = 1169441 BitCount = 121 ID = 1624
  23.266827 2  3E1             Rx   d 8 00 00 FF 00 00 00 84 78  Length = 1179426 BitCount = 122 ID = 993
  23.268017 2  679             Rx   d 8 47 42 03 00 1D 00 04 00  Length = 1149426 BitCount = 119 ID = 1657
  23.269157 2  5E1             Rx   d 7 80 00 00 00 00 00 00  Length = 1099430 BitCount = 114 ID = 1505
  23.270357 2  621             Rx   d 8 00 76 54 00 00 3D 1D 00  Length = 1159426 BitCount = 120 ID = 1569
  23.270997 2  69E             Rx   d 2 19 50  Length = 599446 BitCount = 64 ID = 1694
  23.273957 2  3B5             Rx   d 6 01 00 00 00 00 00  Length = 999430 BitCount = 104 ID = 949
  23.275137 2  527             Rx   d 8 10 01 00 10 71 8E 90 08  Length = 1139430 BitCount = 118 ID = 1319
  23.276367 2  386             Rx   d 8 00 00 00 00 00 00 00 64  Length = 1189426 BitCount = 123 ID = 902
  23.277577 2  436             Rx   d 8 1D 01 01 04 00 00 02 00  Length = 1169426 BitCount = 121 ID = 1078
  23.284177 2  470             Rx   d 8 40 02 00 64 00 00 00 15  Length = 1169426 BitCount = 121 ID = 1136
  23.292947 2  69C             Rx   d 4 49 50 1F 00  Length = 789449 BitCount = 83 ID = 1692
  23.293997 2  2C1             Rx   d 6 00 00 00 00 02 00  Length = 1009430 BitCount = 105 ID = 705
  23.295187 2  3C3             Rx   d 8 52 02 00 00 CE E1 00 CA  Length = 1129441 BitCount = 117 ID = 963
  23.296046 2  531             Rx   d 4 00 00 A0 A0  Length = 809434 BitCount = 85 ID = 1329
  23.297256 2  651             Rx   d 8 80 02 50 AF 39 59 01 00  Length = 1109430 BitCount = 115 ID = 1617
  23.298476 2  57C             Rx   d 8 30 6D 03 00 00 00 00 5E  Length = 1179441 BitCount = 122 ID = 1404
  23.302167 2  67A             Rx   d 2 17 41  Length = 619457 BitCount = 66 ID = 1658
  23.304167 2  359             Rx   d 8 FF 89 FF 00 00 6B 80 00  Length = 1159426 BitCount = 120 ID = 857
  23.305407 2  555             Rx   d 8 00 00 7C 00 01 00 00 00  Length = 1199426 BitCount = 124 ID = 1365
  23.313226 2  6E7             Rx   d 7 C2 14 04 07 0F 09 33  Length = 1039430 BitCount = 108 ID = 1767
  23.314446 2  35B             Rx   d 8 00 00 00 00 20 19 0C 00  Length = 1179426 BitCount = 122 ID = 859
  23.315186 2  457             Rx   d 3 00 47 00  Length = 699442 BitCount = 74 ID = 1111
  23.316386 2  679             Rx   d 8 80 1C 47 41 03 00 1D 00  Length = 1159426 BitCount = 120 ID = 1657
  23.322316 2  43D             Rx   d 8 00 01 02 04 00 14 00 00  Length = 1179426 BitCount = 122 ID = 1085
  23.322976 2  69D             Rx   d 2 14 41  Length = 619457 BitCount = 66 ID = 1693
  23.324207 2  320             Rx   d 8 00 00 00 01 00 09 00 80  Length = 1189441 BitCount = 123 ID = 800
  23.325057 2  575             Rx   d 4 01 00 00 00  Length = 809434 BitCount = 85 ID = 1397
  23.326287 2  386             Rx   d 8 00 00 00 00 00 00 00 64  Length = 1189426 BitCount = 123 ID = 902
  23.328126 2  58C             Rx   d 8 80 00 B6 C0 B9 00 00 05  Length = 1159426 BitCount = 120 ID = 1420
  23.329366 2  5AC             Rx   d 8 FE 6F 00 00 00 00 00 00  Length = 1199441 BitCount = 124 ID = 1452
  23.334146 2  367             Rx   d 8 FC 00 00 00 7E F0 01 00  Length = 1179426 BitCount = 122 ID = 871
  23.335376 2  369             Rx   d 8 3D 00 00 D0 FF 00 00 00  Length = 1179426 BitCount = 122 ID = 873
  23.336586 2  470             Rx   d 8 40 02 00 64 00 00 00 15  Length = 1169426 BitCount = 121 ID = 1136
  23.342026 2  67C             Rx   d 2 1C 41  Length = 649442 BitCount = 69 ID = 1660
  23.343386 2  69C             Rx   d 8 C1 E0 00 00 00 00 0A 00  Length = 1189426 BitCount = 123 ID = 1692
  23.344456 2  381             Rx   d 6 00 00 00 00 00 00  Length = 1029430 BitCount = 107 ID = 897
  23.345396 2  531             Rx   d 4 00 00 B0 B0  Length = 809434 BitCount = 85 ID = 1329
  23.352805 2  66C             Rx   d 8 80 2E 4C 41 03 00 31 00  Length = 1139430 BitCount = 118 ID = 1644
  23.354146 2  397             Rx   d 8 00 00 00 00 00 00 00 00  Length = 1199426 BitCount = 124 ID = 919
  23.355196 2  4B9             Rx   d 6 00 00 00 00 00 00  Length = 1009430 BitCount = 105 ID = 1209
  23.356436 2  591             Rx   d 8 00 00 08 00 00 00 00 00  Length = 1199441 BitCount = 124 ID = 1425
  23.357605 2  655             Rx   d 8 75 00 F0 03 18 00 80 C4  Length = 1129441 BitCount = 117 ID = 1621
  23.363345 2  6E7             Rx   d 8 80 18 44 41 03 00 11 00  Length = 1139430 BitCount = 118 ID = 1767
  23.364385 2  4BD             Rx   d 6 00 00 00 00 00 00  Length = 999430 BitCount = 104 ID = 1213
  23.365595 2  658             Rx   d 8 60 28 00 07 00 8E 00 00  Length = 1169426 BitCount = 121 ID = 1624
  23.366785 2  679             Rx   d 8 C0 04 00 08 00 38 07 F8  Length = 1149426 BitCount = 119 ID = 1657
  23.368025 2  3E1             Rx   d 8 00 00 00 00 00 00 84 78  Length = 1199426 BitCount = 124 ID = 993
  23.369255 2  400             Rx   d 8 0C 01 01 04 04 00 00 00  Length = 1189441 BitCount = 123 ID = 1024
  23.370415 2  65F             Rx   d 8 00 AA 8C 8E C0 00 00 00  Length = 1119430 BitCount = 116 ID = 1631
  23.371615 2  621             Rx   d 8 00 76 54 00 00 3D 1D 00  Length = 1159426 BitCount = 120 ID = 1569
  23.373925 2  3B5             Rx   d 6 01 00 00 00 00 00  Length = 999430 BitCount = 104 ID = 949
  23.374595 2  5D1             Rx   d 2 10 00  Length = 629442 BitCount = 67 ID = 1489
  23.375605 2  6B4             Rx   d 6 BA 01 6E 02 7D 3F  Length = 969430 BitCount = 101 ID = 1716
  23.376835 2  386             Rx   d 8 00 00 00 00 00 00 00 64  Length = 1189426 BitCount = 123 ID = 902
  23.382745 2  66C             Rx   d 8 C0 03 01 08 00 38 03 FF  Length = 1169441 BitCount = 121 ID = 1644
  23.384225 2  470             Rx   d 8 40 02 00 64 00 00 00 15  Length = 1169426 BitCount = 121 ID = 1136
  23.393395 2  69C             Rx   d 8 C2 00 00 00 00 00 00 00  Length = 1189426 BitCount = 123 ID = 1692
  23.394445 2  2C1             Rx   d 6 00 00 00 00 02 00  Length = 1009430 BitCount = 105 ID = 705
  23.395635 2  3C3             Rx   d 8 53 02 00 00 CE 81 00 29  Length = 1149441 BitCount = 119 ID = 963
  23.396485 2  531             Rx   d 4 00 00 C0 C0  Length = 799438 BitCount = 84 ID = 1329
  23.397635 2  651             Rx   d 8 80 02 50 AF 39 59 01 00  Length = 1109430 BitCount = 115 ID = 1617
  23.402185 2  69D             Rx   d 2 19 42  Length = 609446 BitCount = 65 ID = 1693
  23.404135 2  359             Rx   d 8 FF 89 FF 00 00 6B 80 00  Length = 1159426 BitCount = 120 ID = 857
  23.405375 2  555             Rx   d 8 00 00 7C 00 01 00 00 00  Length = 1199441 BitCount = 124 ID = 1365
  23.406535 2  61A             Rx   d 8 E7 03 80 20 02 30 FF 89  Length = 1119441 BitCount = 116 ID = 1562
  23.412765 2  66C             Rx   d 8 C1 BC 00 00 00 00 0A 1E  Length = 1159426 BitCount = 120 ID = 1644
  23.413965 2  6E7             Rx   d 8 C0 04 01 08 00 78 01 C0  Length = 1159426 BitCount = 120 ID = 1767
  23.415205 2  35B             Rx   d 8 00 00 00 00 20 19 0C 00  Length = 1179426 BitCount = 122 ID = 859
  23.415945 2  457             Rx   d 3 00 47 00  Length = 699442 BitCount = 74 ID = 1111
  23.417175 2  40C             Rx   d 8 16 01 01 04 00 04 00 00  Length = 1189426 BitCount = 123 ID = 1036
  23.417905 2  679             Rx   d 3 47 51 44  Length = 689442 BitCount = 73 ID = 1657
  23.426234 2  386             Rx   d 8 00 00 00 00 00 00 00 64  Length = 1189426 BitCount = 123 ID = 902
  23.428154 2  58C             Rx   d 8 80 00 B6 C0 00 00 00 05  Length = 1189426 BitCount = 123 ID = 1420
  23.429394 2  5AC             Rx   d 8 FE 6F 00 00 00 00 00 00  Length = 1199426 BitCount = 124 ID = 1452
  23.434134 2  369             Rx   d 8 3D 00 00 D0 FF 00 00 00  Length = 1179426 BitCount = 122 ID = 873
  23.435344 2  470             Rx   d 8 40 02 00 64 00 00 00 15  Length = 1169426 BitCount = 121 ID = 1136
  23.436094 2  635             Rx   d 3 00 00 1D  Length = 709438 BitCount = 75 ID = 1589
  23.442744 2  66C             Rx   d 8 C2 00 00 00 00 00 02 00  Length = 1179426 BitCount = 122 ID = 1644
  23.443934 2  69C             Rx   d 8 49 42 03 00 25 00 04 00  Length = 1149441 BitCount = 119 ID = 1692
  23.445004 2  381             Rx   d 6 00 00 00 00 00 00  Length = 1029430 BitCount = 107 ID = 897
  23.445844 2  531             Rx   d 4 00 00 D0 D0  Length = 789438 BitCount = 83 ID = 1329
  23.454123 2  397             Rx   d 8 00 00 00 00 00 00 00 00  Length = 1199426 BitCount = 124 ID = 919
  23.455173 2  4B9             Rx   d 6 00 00 00 00 00 00  Length = 1009430 BitCount = 105 ID = 1209
  23.463383 2  6E7             Rx   d 8 C1 00 00 00 00 00 0A 00  Length = 1179426 BitCount = 122 ID = 1767
  23.464423 2  4BD             Rx   d 6 00 00 00 00 00 00  Length = 999445 BitCount = 104 ID = 1213
  23.465633 2  658             Rx   d 8 60 28 00 07 00 8E 00 00  Length = 1169426 BitCount = 121 ID = 1624
  23.466843 2  436             Rx   d 8 1D 01 01 04 00 00 02 00  Length = 1169426 BitCount = 121 ID = 1078
  23.468083 2  3E1             Rx   d 8 00 00 00 00 00 00 84 78  Length = 1199426 BitCount = 124 ID = 993
  23.469283 2  679             Rx   d 8 C1 00 00 00 00 00 0A 10  Length = 1159426 BitCount = 120 ID = 1657
  23.470513 2  3E3             Rx   d 8 00 00 98 00 00 00 00 00  Length = 1189426 BitCount = 123 ID = 995
  23.471712 2  621             Rx   d 8 00 76 54 00 00 3D 1D 00  Length = 1159441 BitCount = 120 ID = 1569
  23.472853 2  5E1             Rx   d 7 80 00 00 00 00 00 00  Length = 1099430 BitCount = 114 ID = 1505
  23.474073 2  66C             Rx   d 8 C3 00 00 00 00 00 00 06  Length = 1179426 BitCount = 122 ID = 1644
  23.475113 2  3B5             Rx   d 6 01 00 00 00 00 00  Length = 999430 BitCount = 104 ID = 949
  23.476293 2  527             Rx   d 8 10 01 00 10 71 8E 90 08  Length = 1139430 BitCount = 118 ID = 1319
  23.477523 2  386             Rx   d 8 00 00 00 00 00 00 00 64  Length = 1189441 BitCount = 123 ID = 902
  23.482173 2  69D             Rx   d 2 19 41  Length = 609446 BitCount = 65 ID = 1693
  23.484183 2  470             Rx   d 8 40 02 00 64 00 00 00 15  Length = 1169426 BitCount = 121 ID = 1136
  23.493412 2  69C             Rx   d 8 90 09 49 51 01 44 FF FF  Length = 1129430 BitCount = 117 ID = 1692
  23.494462 2  2C1             Rx   d 6 00 00 00 00 02 00  Length = 1009430 BitCount = 105 ID = 705
  23.495622 2  3C3             Rx   d 8 52 02 00 00 CE 21 00 8A  Length = 1119430 BitCount = 116 ID = 963
  23.496472 2  531             Rx   d 4 00 00 E0 E0  Length = 799438 BitCount = 84 ID = 1329
  23.497622 2  651             Rx   d 8 80 02 50 AF 39 59 01 00  Length = 1109430 BitCount = 115 ID = 1617
  23.502782 2  66C             Rx   d 8 C4 00 00 00 00 00 00 00  Length = 1199426 BitCount = 124 ID = 1644
  23.504172 2  359             Rx   d 8 FF 89 FF 00 00 6B 80 00  Length = 1159426 BitCount = 120 ID = 857
  23.505412 2  555             Rx   d 8 00 00 7C 00 01 00 00 00  Length = 1199426 BitCount = 124 ID = 1365
  23.512312 2  43D             Rx   d 8 00 01 02 04 00 14 00 00  Length = 1179426 BitCount = 122 ID = 1085
  23.513392 2  6E7             Rx   d 7 C2 14 04 07 0F 09 33  Length = 1039445 BitCount = 108 ID = 1767
  23.514622 2  679             Rx   d 8 C2 00 00 00 00 00 00 00  Length = 1189426 BitCount = 123 ID = 1657
  23.515842 2  35B             Rx   d 8 00 00 00 00 20 19 0C 00  Length = 1179426 BitCount = 122 ID = 859
  23.516582 2  457             Rx   d 3 00 47 00  Length = 699442 BitCount = 74 ID = 1111
  23.524142 2  320             Rx   d 8 00 00 00 01 00 01 00 80  Length = 1189426 BitCount = 123 ID = 800
  23.525112 2  575             Rx   d 4 01 00 00 00  Length = 809434 BitCount = 85 ID = 1397
  23.526342 2  386             Rx   d 8 00 00 00 00 00 00 00 64  Length = 1189441 BitCount = 123 ID = 902
  23.528312 2  58C             Rx   d 8 80 00 B6 C0 00 00 00 05  Length = 1189441 BitCount = 123 ID = 1420
  23.529552 2  5AC             Rx   d 8 FE 6F 00 00 00 00 00 00  Length = 1199426 BitCount = 124 ID = 1452
  23.532712 2  66C             Rx   d 8 C5 00 02 00 00 00 16 00  Length = 1179441 BitCount = 122 ID = 1644
  23.534142 2  367             Rx   d 8 FC 00 00 00 7E F0 01 00  Length = 1179441 BitCount = 122 ID = 871
  23.535372 2  369             Rx   d 8 3D 00 00 D0 FF 00 00 00  Length = 1179441 BitCount = 122 ID = 873
  23.536702 2  470             Rx   d 8 40 02 00 64 00 00 00 15  Length = 1169441 BitCount = 121 ID = 1136
  23.542162 2  5A7             Rx   d 8 E0 16 00 00 00 00 00 00  Length = 1169426 BitCount = 121 ID = 1447
  23.543422 2  5A9             Rx   d 8 00 00 00 00 00 00 00 00  Length = 1219426 BitCount = 126 ID = 1449
  23.544612 2  69C             Rx   d 8 80 4F 49 41 03 00 25 00  Length = 1149426 BitCount = 119 ID = 1692
  23.545682 2  381             Rx   d 6 00 00 00 00 00 00  Length = 1029430 BitCount = 107 ID = 897
  23.546522 2  531             Rx   d 4 00 00 F0 F0  Length = 789449 BitCount = 83 ID = 1329
  23.554101 2  397             Rx   d 8 00 00 00 00 00 00 00 00  Length = 1199441 BitCount = 124 ID = 919
  23.555151 2  4B9             Rx   d 6 00 00 00 00 00 00  Length = 1009445 BitCount = 105 ID = 1209
  23.556391 2  591             Rx   d 8 00 00 08 00 00 00 00 00  Length = 1199426 BitCount = 124 ID = 1425
  23.557641 2  5F5             Rx   d 8 00 10 00 00 00 00 00 00  Length = 1209426 BitCount = 125 ID = 1525
  23.558871 2  400             Rx   d 8 0C 01 01 04 04 00 00 00  Length = 1189426 BitCount = 123 ID = 1024
  23.563961 2  4BD             Rx   d 6 00 00 00 00 00 00  Length = 999430 BitCount = 104 ID = 1213
  23.565171 2  658             Rx   d 8 60 28 00 07 00 8E 00 00  Length = 1169426 BitCount = 121 ID = 1624
  23.566021 2  679             Rx   d 4 C3 00 04 00  Length = 809434 BitCount = 85 ID = 1657
  23.567261 2  3E1             Rx   d 8 00 00 00 00 00 00 84 78  Length = 1199426 BitCount = 124 ID = 993
  23.568431 2  65F             Rx   d 8 01 00 00 00 00 00 00 00  Length = 1129430 BitCount = 117 ID = 1631
  23.569631 2  621             Rx   d 8 00 76 54 00 00 3D 1D 00  Length = 1159426 BitCount = 120 ID = 1569
  23.573911 2  3B5             Rx   d 6 01 00 00 00 00 00  Length = 999430 BitCount = 104 ID = 949
  23.574581 2  5D1             Rx   d 2 10 00  Length = 629442 BitCount = 67 ID = 1489
  23.576201 2  386             Rx   d 8 00 00 00 00 00 00 00 64  Length = 1189426 BitCount = 123 ID = 902
  23.584170 2  470             Rx   d 8 40 02 00 64 00 00 00 15  Length = 1169426 BitCount = 121 ID = 1136
  23.585420 2  64F             Rx   d 8 3F 00 00 00 00 00 00 00  Length = 1209426 BitCount = 125 ID = 1615
  23.593140 2  69C             Rx   d 6 D0 FF FF 00 FF 01  Length = 999445 BitCount = 104 ID = 1692
  23.594190 2  2C1             Rx   d 6 00 00 00 00 02 00  Length = 1009430 BitCount = 105 ID = 705
  23.595370 2  3C3             Rx   d 8 52 02 00 00 CE C1 00 EA  Length = 1129430 BitCount = 117 ID = 963
  23.596250 2  531             Rx   d 4 00 00 00 00  Length = 829434 BitCount = 87 ID = 1329
  23.597400 2  651             Rx   d 8 80 02 50 AF 39 59 01 00  Length = 1109430 BitCount = 115 ID = 1617
  23.598610 2  62A             Rx   d 8 40 10 00 00 00 00 3B 00  Length = 1169426 BitCount = 121 ID = 1578
  23.604380 2  359             Rx   d 8 FF 89 FF 00 00 6B 80 00  Length = 1159426 BitCount = 120 ID = 857
  23.605619 2  555             Rx   d 8 00 00 7C 00 01 00 00 00  Length = 1199441 BitCount = 124 ID = 1365
  23.606970 2  40C             Rx   d 8 16 01 01 04 00 04 00 00  Length = 1189426 BitCount = 123 ID = 1036
  23.614120 2  35B             Rx   d 8 00 00 00 00 20 19 0C 00  Length = 1179426 BitCount = 122 ID = 859
  23.614910 2  457             Rx   d 3 00 47 00  Length = 699442 BitCount = 74 ID = 1111
  23.626189 2  386             Rx   d 8 00 00 00 00 00 00 00 64  Length = 1189441 BitCount = 123 ID = 902
  23.628109 2  58C             Rx   d 8 80 00 B6 C0 00 00 00 05  Length = 1189441 BitCount = 123 ID = 1420
  23.629349 2  5AC             Rx   d 8 FE 6F 00 00 00 00 00 00  Length = 1199441 BitCount = 124 ID = 1452
  23.634099 2  369             Rx   d 8 3D 00 00 D0 FF 00 00 00  Length = 1179426 BitCount = 122 ID = 873
  23.635309 2  470             Rx   d 8 40 02 00 64 00 00 00 15  Length = 1169426 BitCount = 121 ID = 1136
  23.636059 2  635             Rx   d 3 00 00 1D  Length = 709438 BitCount = 75 ID = 1589
  23.643399 2  69C             Rx   d 8 C0 04 00 08 00 78 07 FE  Length = 1179426 BitCount = 122 ID = 1692
  23.644469 2  381             Rx   d 6 00 00 00 00 00 00  Length = 1029430 BitCount = 107 ID = 897
  23.645349 2  531             Rx   d 4 00 00 10 10  Length = 829434 BitCount = 87 ID = 1329
  23.654108 2  397             Rx   d 8 00 00 00 00 00 00 00 00  Length = 1199426 BitCount = 124 ID = 919
  23.655158 2  4B9             Rx   d 6 00 00 00 00 00 00  Length = 1009430 BitCount = 105 ID = 1209
  23.656528 2  436             Rx   d 8 1D 01 01 04 00 00 02 00  Length = 1169441 BitCount = 121 ID = 1078
  23.663968 2  4BD             Rx   d 6 00 00 00 00 00 00  Length = 999445 BitCount = 104 ID = 1213
  23.665188 2  658             Rx   d 8 60 28 00 07 00 8E 00 00  Length = 1169426 BitCount = 121 ID = 1624
  23.666658 2  3E1             Rx   d 8 00 00 00 00 00 00 84 78  Length = 1199441 BitCount = 124 ID = 993
  23.667858 2  621             Rx   d 8 00 76 54 00 00 3D 1D 00  Length = 1159426 BitCount = 120 ID = 1569
  23.669108 2  3E9             Rx   d 8 00 00 00 00 00 00 00 00  Length = 1209441 BitCount = 125 ID = 1001
  23.670268 2  5E1             Rx   d 7 80 00 00 00 00 00 00  Length = 1099430 BitCount = 114 ID = 1505
  23.671549 2  5E8             Rx   d 8 00 40 00 00 00 00 40 00  Length = 1209426 BitCount = 125 ID = 1512
  23.673939 2  3B5             Rx   d 6 01 00 00 00 00 00  Length = 999430 BitCount = 104 ID = 949
  23.675119 2  527             Rx   d 8 10 01 00 10 71 8E 90 08  Length = 1139430 BitCount = 118 ID = 1319
  23.676129 2  571             Rx   d 6 8E 1F 00 08 04 00  Length = 969445 BitCount = 101 ID = 1393
  23.677359 2  386             Rx   d 8 00 00 00 00 00 00 00 64  Length = 1189426 BitCount = 123 ID = 902
  23.684129 2  470             Rx   d 8 40 02 00 64 00 00 00 15  Length = 1169441 BitCount = 121 ID = 1136
  23.687819 2  69E             Rx   d 2 19 52  Length = 609457 BitCount = 65 ID = 1694
  23.693358 2  69C             Rx   d 8 90 07 49 52 00 00 00 1E  Length = 1139430 BitCount = 118 ID = 1692
  23.694408 2  2C1             Rx   d 6 00 00 00 00 02 00  Length = 1009430 BitCount = 105 ID = 705
  23.695588 2  3C3             Rx   d 8 52 02 00 00 CE 61 00 4A  Length = 1129441 BitCount = 117 ID = 963
  23.696468 2  531             Rx   d 4 00 00 20 20  Length = 829434 BitCount = 87 ID = 1329
  23.697618 2  651             Rx   d 8 80 02 50 AF 39 59 01 00  Length = 1109430 BitCount = 115 ID = 1617
  23.702218 2  43D             Rx   d 8 00 01 02 04 00 14 00 00  Length = 1179426 BitCount = 122 ID = 1085
  23.704128 2  359             Rx   d 8 FF 89 FF 00 00 6B 80 00  Length = 1159426 BitCount = 120 ID = 857
  23.705368 2  555             Rx   d 8 00 00 7C 00 01 00 00 00  Length = 1199441 BitCount = 124 ID = 1365
  23.714108 2  35B             Rx   d 8 00 00 00 00 20 19 0C 00  Length = 1179426 BitCount = 122 ID = 859
  23.714848 2  457             Rx   d 3 00 47 00  Length = 699442 BitCount = 74 ID = 1111
  23.716588 2  60E             Rx   d 2 08 02  Length = 629442 BitCount = 67 ID = 1550
  23.724137 2  320             Rx   d 8 00 00 00 01 00 09 00 80  Length = 1189426 BitCount = 123 ID = 800
  23.724987 2  575             Rx   d 4 01 00 00 00  Length = 809434 BitCount = 85 ID = 1397
  23.726217 2  386             Rx   d 8 00 00 00 00 00 00 00 64  Length = 1189426 BitCount = 123 ID = 902
  23.727437 2  569             Rx   d 8 00 00 00 3A 00 00 00 00  Length = 1179426 BitCount = 122 ID = 1385
  23.728667 2  58C             Rx   d 8 80 00 B6 C0 00 00 00 05  Length = 1189426 BitCount = 123 ID = 1420
  23.729907 2  5AC             Rx   d 8 FE 6F 00 00 00 00 00 00  Length = 1199426 BitCount = 124 ID = 1452
  23.731117 2  61C             Rx   d 8 00 F0 07 40 FE 03 00 01  Length = 1169441 BitCount = 121 ID = 1564
  23.734107 2  367             Rx   d 8 FC 00 00 00 7E F0 01 00  Length = 1179426 BitCount = 122 ID = 871
  23.735337 2  369             Rx   d 8 3D 00 00 D0 FF 00 00 00  Length = 1179426 BitCount = 122 ID = 873
  23.736547 2  470             Rx   d 8 40 02 00 64 00 00 00 15  Length = 1169426 BitCount = 121 ID = 1136
  23.743356 2  69C             Rx   d 8 C1 E0 00 00 00 00 0A 00  Length = 1189441 BitCount = 123 ID = 1692
  23.744426 2  381             Rx   d 6 00 00 00 00 00 00  Length = 1029445 BitCount = 107 ID = 897
  23.745296 2  531             Rx   d 4 00 00 30 30  Length = 809434 BitCount = 85 ID = 1329
  23.746526 2  400             Rx   d 8 0C 01 01 04 04 00 00 00  Length = 1189441 BitCount = 123 ID = 1024
  23.747216 2  481             Rx   d 2 00 00  Length = 649442 BitCount = 69 ID = 1153
  23.748456 2  661             Rx   d 8 00 00 00 00 00 00 00 00  Length = 1199426 BitCount = 124 ID = 1633
  23.749596 2  665             Rx   d 7 00 00 00 00 00 00 00  Length = 1099445 BitCount = 114 ID = 1637
  23.750276 2  666             Rx   d 2 00 00  Length = 639442 BitCount = 68 ID = 1638
  23.754096 2  397             Rx   d 8 00 00 00 00 00 00 00 00  Length = 1199426 BitCount = 124 ID = 919
  23.755146 2  4B9             Rx   d 6 00 00 00 00 00 00  Length = 1009430 BitCount = 105 ID = 1209
  23.756386 2  591             Rx   d 8 00 00 08 00 00 00 00 00  Length = 1199426 BitCount = 124 ID = 1425
  23.757216 2  653             Rx   d 4 81 01 81 01  Length = 789438 BitCount = 83 ID = 1619
  23.763926 2  4BD             Rx   d 6 00 00 00 00 00 00  Length = 999430 BitCount = 104 ID = 1213
  23.765136 2  658             Rx   d 8 60 28 00 07 00 8E 00 00  Length = 1169441 BitCount = 121 ID = 1624
  23.766656 2  3E1             Rx   d 8 00 00 00 00 00 00 84 78  Length = 1199426 BitCount = 124 ID = 993
  23.767816 2  65F             Rx   d 8 02 00 00 00 00 00 00 00  Length = 1119430 BitCount = 116 ID = 1631
  23.769016 2  621             Rx   d 8 00 76 54 00 00 3D 1D 00  Length = 1159441 BitCount = 120 ID = 1569
  23.770186 2  69E             Rx   d 8 80 20 29 59 29 00 00 01  Length = 1129430 BitCount = 117 ID = 1694
  23.773896 2  3B5             Rx   d 6 01 00 00 00 00 00  Length = 999430 BitCount = 104 ID = 949
  23.774566 2  5D1             Rx   d 2 10 00  Length = 629442 BitCount = 67 ID = 1489
  23.776166 2  386             Rx   d 8 00 00 00 00 00 00 00 64  Length = 1189441 BitCount = 123 ID = 902
  23.784296 2  470             Rx   d 8 40 02 00 64 00 00 00 15  Length = 1169426 BitCount = 121 ID = 1136
  23.792925 2  69C             Rx   d 4 D0 00 BB 00  Length = 799438 BitCount = 84 ID = 1692
  23.793975 2  2C1             Rx   d 6 00 00 00 00 02 00  Length = 1009445 BitCount = 105 ID = 705
  23.795145 2  3C3             Rx   d 8 53 02 00 00 CE 01 00 A9  Length = 1129430 BitCount = 117 ID = 963
  23.796005 2  531             Rx   d 4 00 00 40 40  Length = 809434 BitCount = 85 ID = 1329
  23.797235 2  40C             Rx   d 8 16 01 01 04 00 04 00 00  Length = 1189426 BitCount = 123 ID = 1036
  23.798386 2  651             Rx   d 8 80 02 50 AF 39 59 01 00  Length = 1109430 BitCount = 115 ID = 1617
  23.799596 2  57C             Rx   d 8 40 6D 03 00 00 00 00 2E  Length = 1169426 BitCount = 121 ID = 1404
  23.804105 2  359             Rx   d 8 FF 89 FF 00 00 6B 80 00  Length = 1159426 BitCount = 120 ID = 857
  23.805345 2  555             Rx   d 8 00 00 7C 00 01 00 00 00  Length = 1199426 BitCount = 124 ID = 1365
  23.814085 2  35B             Rx   d 8 00 00 00 00 20 19 0C 00  Length = 1179441 BitCount = 122 ID = 859
  23.814825 2  457             Rx   d 3 00 47 00  Length = 699442 BitCount = 74 ID = 1111
  23.817565 2  629             Rx   d 8 FF 0F FF 7F 47 27 40 00  Length = 1139430 BitCount = 118 ID = 1577
  23.826084 2  386             Rx   d 8 00 00 00 00 00 00 00 64  Length = 1189426 BitCount = 123 ID = 902
  23.828254 2  58C             Rx   d 8 80 00 B6 C0 00 00 00 05  Length = 1189441 BitCount = 123 ID = 1420
  23.829494 2  5AC             Rx   d 8 FE 6F 00 00 00 00 00 00  Length = 1199426 BitCount = 124 ID = 1452
  23.834084 2  369             Rx   d 8 3D 00 00 D0 FF 00 00 00  Length = 1179441 BitCount = 122 ID = 873
  23.835294 2  470             Rx   d 8 40 02 00 64 00 00 00 15  Length = 1169426 BitCount = 121 ID = 1136
  23.836044 2  635             Rx   d 3 00 00 1D  Length = 709438 BitCount = 75 ID = 1589
  23.842543 2  62B             Rx   d 8 00 10 00 40 00 00 FE 7F  Length = 1169426 BitCount = 121 ID = 1579
  23.843773 2  69C             Rx   d 8 C2 00 00 00 00 00 00 00  Length = 1189441 BitCount = 123 ID = 1692
  23.844843 2  381             Rx   d 6 00 00 00 00 00 00  Length = 1029445 BitCount = 107 ID = 897
  23.845683 2  531             Rx   d 4 00 00 50 50  Length = 789438 BitCount = 83 ID = 1329
  23.846893 2  436             Rx   d 8 1D 01 01 04 00 00 02 00  Length = 1169426 BitCount = 121 ID = 1078
  23.848763 2  69E             Rx   d 2 19 53  Length = 599446 BitCount = 64 ID = 1694
  23.854103 2  397             Rx   d 8 00 00 00 00 00 00 00 00  Length = 1199441 BitCount = 124 ID = 919
  23.855153 2  4B9             Rx   d 6 00 00 00 00 00 00  Length = 1009445 BitCount = 105 ID = 1209
  23.856323 2  655             Rx   d 8 75 00 F0 03 18 00 80 C4  Length = 1129430 BitCount = 117 ID = 1621
  23.863962 2  4BD             Rx   d 6 00 00 00 00 00 00  Length = 999430 BitCount = 104 ID = 1213
  23.865172 2  658             Rx   d 8 60 28 00 07 00 8E 00 00  Length = 1169426 BitCount = 121 ID = 1624
  23.866783 2  3E1             Rx   d 8 00 00 00 00 00 00 84 78  Length = 1199426 BitCount = 124 ID = 993
  23.867983 2  621             Rx   d 8 00 76 54 00 00 3D 1D 00  Length = 1159426 BitCount = 120 ID = 1569
  23.869123 2  5E1             Rx   d 7 80 00 00 00 00 00 00  Length = 1099430 BitCount = 114 ID = 1505
  23.870303 2  62D             Rx   d 8 00 10 43 41 28 04 12 40  Length = 1139430 BitCount = 118 ID = 1581
  23.873972 2  3B5             Rx   d 6 01 00 00 00 00 00  Length = 999430 BitCount = 104 ID = 949
  23.875142 2  527             Rx   d 8 10 01 00 10 71 8E 8F 08  Length = 1129430 BitCount = 117 ID = 1319
  23.876152 2  6B4             Rx   d 6 BA 01 6E 02 7D 3F  Length = 969430 BitCount = 101 ID = 1716
  23.877382 2  386             Rx   d 8 00 00 00 00 00 00 00 64  Length = 1189426 BitCount = 123 ID = 902
  23.884152 2  470             Rx   d 8 40 02 00 64 00 00 00 15  Length = 1169426 BitCount = 121 ID = 1136
  23.892202 2  43D             Rx   d 8 00 01 02 04 00 14 00 00  Length = 1179426 BitCount = 122 ID = 1085
  23.893032 2  69C             Rx   d 4 49 53 00 00  Length = 789438 BitCount = 83 ID = 1692
  23.894082 2  2C1             Rx   d 6 00 00 00 00 02 00  Length = 1009430 BitCount = 105 ID = 705
  23.895252 2  3C3             Rx   d 8 52 02 00 00 CE A1 00 0A  Length = 1129441 BitCount = 117 ID = 963
  23.896112 2  531             Rx   d 4 00 00 60 60  Length = 809449 BitCount = 85 ID = 1329
  23.897262 2  651             Rx   d 8 80 02 50 AF 39 59 01 00  Length = 1109430 BitCount = 115 ID = 1617
  23.904131 2  359             Rx   d 8 FF 89 FF 00 00 6B 80 00  Length = 1159426 BitCount = 120 ID = 857
  23.905371 2  555             Rx   d 8 00 00 7C 00 01 00 00 00  Length = 1199426 BitCount = 124 ID = 1365
  23.906541 2  61A             Rx   d 8 E0 04 80 20 02 30 FF 89  Length = 1129430 BitCount = 117 ID = 1562
  23.914091 2  35B             Rx   d 8 00 00 00 00 20 19 0C 00  Length = 1179426 BitCount = 122 ID = 859
  23.914831 2  457             Rx   d 3 00 47 00  Length = 699442 BitCount = 74 ID = 1111
  23.924100 2  320             Rx   d 8 00 00 00 01 00 01 00 80  Length = 1189426 BitCount = 123 ID = 800
  23.924950 2  575             Rx   d 4 01 00 00 00  Length = 809434 BitCount = 85 ID = 1397
  23.926130 2  65D             Rx   d 8 82 47 27 E0 70 13 15 0F  Length = 1129441 BitCount = 117 ID = 1629
  23.927370 2  386             Rx   d 8 00 00 00 00 00 00 00 64  Length = 1189426 BitCount = 123 ID = 902
  23.928600 2  58C             Rx   d 8 80 00 B6 C0 00 00 00 05  Length = 1189426 BitCount = 123 ID = 1420
  23.929810 2  69E             Rx   d 8 C0 06 00 10 1E FF FF 00  Length = 1169426 BitCount = 121 ID = 1694
  23.931050 2  5AC             Rx   d 8 FE 6F 00 00 00 00 00 00  Length = 1199426 BitCount = 124 ID = 1452
  23.934100 2  367             Rx   d 8 FC 00 00 00 7E F0 01 00  Length = 1179426 BitCount = 122 ID = 871
  23.935330 2  369             Rx   d 8 3D 00 00 D0 FF 00 00 00  Length = 1179426 BitCount = 122 ID = 873
  23.936540 2  470             Rx   d 8 40 02 00 64 00 00 00 15  Length = 1169426 BitCount = 121 ID = 1136
  23.937770 2  400             Rx   d 8 0C 01 01 04 04 00 00 00  Length = 1189441 BitCount = 123 ID = 1024
  23.942600 2  52D             Rx   d 8 FE 7F FF 0F FF 0F FF 0F  Length = 1169426 BitCount = 121 ID = 1325
  23.943790 2  69C             Rx   d 8 C3 1F 00 09 00 01 44 FF  Length = 1149426 BitCount = 119 ID = 1692
  23.944859 2  381             Rx   d 6 00 00 00 00 00 00  Length = 1029430 BitCount = 107 ID = 897
  23.945699 2  531             Rx   d 4 00 00 70 70  Length = 789449 BitCount = 83 ID = 1329
  23.954089 2  397             Rx   d 8 00 00 00 00 00 00 00 00  Length = 1199426 BitCount = 124 ID = 919
  23.955139 2  4B9             Rx   d 6 00 00 00 00 00 00  Length = 1009430 BitCount = 105 ID = 1209
  23.956379 2  591             Rx   d 8 00 00 08 00 00 00 00 00  Length = 1199441 BitCount = 124 ID = 1425
  23.963909 2  4BD             Rx   d 6 00 00 00 00 00 00  Length = 999445 BitCount = 104 ID = 1213
  23.965128 2  658             Rx   d 8 60 28 00 07 00 8E 00 00  Length = 1169426 BitCount = 121 ID = 1624
  23.966729 2  3E1             Rx   d 8 00 00 00 00 00 00 84 78  Length = 1199426 BitCount = 124 ID = 993
  23.967939 2  52F             Rx   d 8 00 00 FE 1F FE 1F FE 1F  Length = 1169441 BitCount = 121 ID = 1327
  23.969099 2  65F             Rx   d 8 00 AA 8C 8E C0 00 00 00  Length = 1119430 BitCount = 116 ID = 1631
  23.970299 2  621             Rx   d 8 00 76 54 00 00 3D 1D 00  Length = 1159426 BitCount = 120 ID = 1569
  23.973889 2  3B5             Rx   d 6 01 00 00 00 00 00  Length = 999430 BitCount = 104 ID = 949
  23.974559 2  5D1             Rx   d 2 10 00  Length = 629457 BitCount = 67 ID = 1489
  23.976058 2  386             Rx   d 8 00 00 00 00 00 00 00 64  Length = 1189426 BitCount = 123 ID = 902
  23.984118 2  470             Rx   d 8 40 02 00 64 00 00 00 15  Length = 1169441 BitCount = 121 ID = 1136
  23.986798 2  40C             Rx   d 8 16 01 01 04 00 04 00 00  Length = 1189441 BitCount = 123 ID = 1036
  23.992438 2  532             Rx   d 8 00 00 8F 10 31 10 26 10  Length = 1149441 BitCount = 119 ID = 1330
  23.993658 2  69C             Rx   d 8 C4 FF FF FF 00 FF 01 07  Length = 1179426 BitCount = 122 ID = 1692
  23.994708 2  2C1             Rx   d 6 00 00 00 00 02 00  Length = 1009430 BitCount = 105 ID = 705
  23.995888 2  3C3             Rx   d 8 52 02 00 00 CE 41 00 6A  Length = 1139430 BitCount = 118 ID = 963
  23.996928 2  531             Rx   d 4 00 00 80 80  Length = 809434 BitCount = 85 ID = 1329
  23.998078 2  651             Rx   d 8 80 02 50 AF 39 59 01 00  Length = 1109430 BitCount = 115 ID = 1617
  24.004078 2  359             Rx   d 8 FF 89 FF 00 00 6B 80 00  Length = 1159426 BitCount = 120 ID = 857
  24.005318 2  555             Rx   d 8 00 00 7C 00 01 00 00 00  Length = 1199441 BitCount = 124 ID = 1365
  24.009948 2  69E             Rx   d 4 90 00 19 54  Length = 789438 BitCount = 83 ID = 1694
  24.014068 2  35B             Rx   d 8 00 00 00 00 20 19 0C 00  Length = 1179426 BitCount = 122 ID = 859
  24.014808 2  457             Rx   d 3 00 47 00  Length = 699442 BitCount = 74 ID = 1111
  24.026147 2  386             Rx   d 8 00 00 00 00 00 00 00 64  Length = 1189426 BitCount = 123 ID = 902
  24.028067 2  58C             Rx   d 8 80 00 B6 C0 00 00 00 05  Length = 1189426 BitCount = 123 ID = 1420
  24.029307 2  5AC             Rx   d 8 FE 6F 00 00 00 00 00 00  Length = 1199426 BitCount = 124 ID = 1452
  24.034077 2  369             Rx   d 8 3D 00 00 D0 FF 00 00 00  Length = 1179426 BitCount = 122 ID = 873
  24.035287 2  470             Rx   d 8 40 02 00 64 00 00 00 15  Length = 1169426 BitCount = 121 ID = 1136
  24.036037 2  635             Rx   d 3 00 00 1D  Length = 709438 BitCount = 75 ID = 1589
  24.037247 2  436             Rx   d 8 1D 01 01 04 00 00 02 00  Length = 1169441 BitCount = 121 ID = 1078
  24.043336 2  69C             Rx   d 8 90 08 49 54 14 02 09 06  Length = 1129430 BitCount = 117 ID = 1692
  24.044406 2  381             Rx   d 6 00 00 00 00 00 00  Length = 1029445 BitCount = 107 ID = 897
  24.045266 2  531             Rx   d 4 00 00 90 90  Length = 799438 BitCount = 84 ID = 1329
  24.048529 CAN 1 Status:chip status error active
  24.048529 CAN 2 Status:chip status error active
  24.054086 2  397             Rx   d 8 00 00 00 00 00 00 00 00  Length = 1199426 BitCount = 124 ID = 919
  24.055136 2  4B9             Rx   d 6 00 00 00 00 00 00  Length = 1009430 BitCount = 105 ID = 1209
  24.056386 2  5F5             Rx   d 8 00 10 00 00 00 00 00 00  Length = 1209426 BitCount = 125 ID = 1525
  24.063955 2  4BD             Rx   d 6 00 00 00 00 00 00  Length = 999430 BitCount = 104 ID = 1213
  24.065155 2  658             Rx   d 8 60 28 00 07 00 8D 00 00  Length = 1159441 BitCount = 120 ID = 1624
  24.066965 2  3E1             Rx   d 8 00 00 00 00 00 00 84 78  Length = 1199426 BitCount = 124 ID = 993
  24.068165 2  621             Rx   d 8 00 76 54 00 00 3D 1D 00  Length = 1159426 BitCount = 120 ID = 1569
  24.069306 2  5E1             Rx   d 7 80 00 00 00 00 00 00  Length = 1099430 BitCount = 114 ID = 1505
  24.073886 2  3B5             Rx   d 6 01 00 00 00 00 00  Length = 999430 BitCount = 104 ID = 949
  24.075056 2  527             Rx   d 8 10 01 00 10 71 8E 8F 08  Length = 1129430 BitCount = 117 ID = 1319
  24.076286 2  386             Rx   d 8 00 00 00 00 00 00 00 64  Length = 1189426 BitCount = 123 ID = 902
  24.082196 2  43D             Rx   d 8 00 01 02 04 00 14 00 00  Length = 1179426 BitCount = 122 ID = 1085
  24.084106 2  470             Rx   d 8 40 02 00 64 00 00 00 15  Length = 1169426 BitCount = 121 ID = 1136
  24.085356 2  64F             Rx   d 8 3F 00 00 00 00 00 00 00  Length = 1209426 BitCount = 125 ID = 1615
  24.090275 2  69E             Rx   d 8 C1 FF FF FF FF 01 5A 00  Length = 1159426 BitCount = 120 ID = 1694
  24.093355 2  69C             Rx   d 8 C5 00 00 00 00 1E 00 BB  Length = 1189426 BitCount = 123 ID = 1692
  24.094405 2  2C1             Rx   d 6 00 00 00 00 02 00  Length = 1009430 BitCount = 105 ID = 705
  24.095575 2  3C3             Rx   d 8 52 02 00 00 CE E1 00 CA  Length = 1129430 BitCount = 117 ID = 963
  24.096435 2  531             Rx   d 4 00 00 A0 A0  Length = 809434 BitCount = 85 ID = 1329
  24.097585 2  651             Rx   d 8 80 02 50 AF 39 59 01 00  Length = 1109430 BitCount = 115 ID = 1617
  24.104075 2  359             Rx   d 8 FF 89 FF 00 00 6B 80 00  Length = 1159426 BitCount = 120 ID = 857
  24.105315 2  555             Rx   d 8 00 00 7C 00 01 00 00 00  Length = 1199426 BitCount = 124 ID = 1365
  24.114074 2  35B             Rx   d 8 00 00 00 00 20 19 0C 00  Length = 1179441 BitCount = 122 ID = 859
  24.114814 2  457             Rx   d 3 00 47 00  Length = 699442 BitCount = 74 ID = 1111
  24.124084 2  320             Rx   d 8 00 00 00 01 00 09 00 80  Length = 1189426 BitCount = 123 ID = 800
  24.124934 2  575             Rx   d 4 01 00 00 00  Length = 809434 BitCount = 85 ID = 1397
  24.126164 2  400             Rx   d 8 0C 01 01 04 04 00 00 00  Length = 1189426 BitCount = 123 ID = 1024
  24.127394 2  386             Rx   d 8 00 00 00 00 00 00 00 64  Length = 1189426 BitCount = 123 ID = 902
  24.128624 2  58C             Rx   d 8 80 00 B6 C0 00 00 00 05  Length = 1189426 BitCount = 123 ID = 1420
  24.129864 2  5AC             Rx   d 8 FE 6F 00 00 00 00 00 00  Length = 1199426 BitCount = 124 ID = 1452
  24.134093 2  367             Rx   d 8 FC 00 00 00 7E F0 01 00  Length = 1179441 BitCount = 122 ID = 871
  24.135323 2  369             Rx   d 8 3D 00 00 D0 FF 00 00 00  Length = 1179441 BitCount = 122 ID = 873
  24.136533 2  470             Rx   d 8 40 02 00 64 00 00 00 15  Length = 1169426 BitCount = 121 ID = 1136
  24.143083 2  69C             Rx   d 5 D0 32 01 02 00  Length = 879434 BitCount = 92 ID = 1692
  24.144153 2  381             Rx   d 6 00 00 00 00 00 00  Length = 1029445 BitCount = 107 ID = 897
  24.145013 2  531             Rx   d 4 00 00 B0 B0  Length = 809434 BitCount = 85 ID = 1329
  24.154072 2  397             Rx   d 8 00 00 00 00 00 00 00 00  Length = 1199441 BitCount = 124 ID = 919
  24.155122 2  4B9             Rx   d 6 00 00 00 00 00 00  Length = 1009445 BitCount = 105 ID = 1209
  24.156362 2  591             Rx   d 8 00 00 08 00 00 00 00 00  Length = 1199426 BitCount = 124 ID = 1425
  24.163892 2  4BD             Rx   d 6 00 00 00 00 00 00  Length = 999430 BitCount = 104 ID = 1213
  24.165102 2  658             Rx   d 8 60 28 00 07 00 8D 00 00  Length = 1159426 BitCount = 120 ID = 1624
  24.166962 2  3E1             Rx   d 8 00 00 00 00 00 00 84 78  Length = 1199426 BitCount = 124 ID = 993
  24.168132 2  65F             Rx   d 8 01 00 00 00 00 00 00 00  Length = 1129441 BitCount = 117 ID = 1631
  24.169382 2  3E9             Rx   d 8 00 00 00 00 00 00 00 00  Length = 1209426 BitCount = 125 ID = 1001
  24.170582 2  621             Rx   d 8 00 76 54 00 00 3D 1D 00  Length = 1159426 BitCount = 120 ID = 1569
  24.171832 2  5E8             Rx   d 8 00 40 00 00 00 00 40 00  Length = 1209426 BitCount = 125 ID = 1512
  24.173012 2  69E             Rx   d 8 C2 1E 1E 0A 00 00 08 4F  Length = 1139430 BitCount = 118 ID = 1694
  24.174052 2  3B5             Rx   d 6 01 00 00 00 00 00  Length = 999430 BitCount = 104 ID = 949
  24.175062 2  571             Rx   d 6 8E 1F 00 08 04 00  Length = 969445 BitCount = 101 ID = 1393
  24.175732 2  5D1             Rx   d 2 10 00  Length = 629442 BitCount = 67 ID = 1489
  24.177082 2  386             Rx   d 8 00 00 00 00 00 00 00 64  Length = 1189426 BitCount = 123 ID = 902
  24.178312 2  40C             Rx   d 8 16 01 01 04 00 04 00 00  Length = 1189426 BitCount = 123 ID = 1036
  24.184112 2  470             Rx   d 8 40 02 00 64 00 00 00 15  Length = 1169426 BitCount = 121 ID = 1136
  24.193311 2  69C             Rx   d 8 C6 00 00 00 08 00 14 02  Length = 1169441 BitCount = 121 ID = 1692
  24.194361 2  2C1             Rx   d 6 00 00 00 00 02 00  Length = 1009430 BitCount = 105 ID = 705
  24.195551 2  3C3             Rx   d 8 52 02 00 00 CE 81 00 2A  Length = 1139430 BitCount = 118 ID = 963
  24.196401 2  531             Rx   d 4 00 00 C0 C0  Length = 799438 BitCount = 84 ID = 1329
  24.197551 2  651             Rx   d 8 80 02 50 AF 39 59 01 00  Length = 1109430 BitCount = 115 ID = 1617
  24.204081 2  359             Rx   d 8 FF 89 FF 00 00 6B 80 00  Length = 1159426 BitCount = 120 ID = 857
  24.205321 2  555             Rx   d 8 00 00 7C 00 01 00 00 00  Length = 1199426 BitCount = 124 ID = 1365
  24.214060 2  35B             Rx   d 8 00 00 00 00 20 19 0C 00  Length = 1179426 BitCount = 122 ID = 859
  24.214800 2  457             Rx   d 3 00 47 00  Length = 699442 BitCount = 74 ID = 1111
  24.226130 2  386             Rx   d 8 00 00 00 00 00 00 00 64  Length = 1189426 BitCount = 123 ID = 902
  24.227340 2  436             Rx   d 8 1D 01 01 04 00 00 02 00  Length = 1169426 BitCount = 121 ID = 1078
  24.228560 2  569             Rx   d 8 00 00 00 3A 00 00 00 00  Length = 1179426 BitCount = 122 ID = 1385
  24.229790 2  58C             Rx   d 8 80 00 B6 C0 00 00 00 05  Length = 1189426 BitCount = 123 ID = 1420
  24.231030 2  5AC             Rx   d 8 FE 6F 00 00 00 00 00 00  Length = 1199426 BitCount = 124 ID = 1452
  24.234069 2  369             Rx   d 8 3D 00 00 D0 FF 00 00 00  Length = 1179426 BitCount = 122 ID = 873
  24.235279 2  470             Rx   d 8 40 02 00 64 00 00 00 15  Length = 1169426 BitCount = 121 ID = 1136
  24.236029 2  635             Rx   d 3 00 00 1D  Length = 709453 BitCount = 75 ID = 1589
  24.243349 2  69C             Rx   d 8 C7 09 06 32 01 02 00 08  Length = 1149426 BitCount = 119 ID = 1692
  24.244469 2  381             Rx   d 6 00 00 00 00 00 00  Length = 1029430 BitCount = 107 ID = 897
  24.245309 2  531             Rx   d 4 00 00 D0 D0  Length = 789438 BitCount = 83 ID = 1329
  24.249979 2  69E             Rx   d 4 90 00 19 55  Length = 789449 BitCount = 83 ID = 1694
  24.254079 2  397             Rx   d 8 00 00 00 00 00 00 00 00  Length = 1199426 BitCount = 124 ID = 919
  24.255149 2  4B9             Rx   d 6 00 00 00 00 00 00  Length = 1009430 BitCount = 105 ID = 1209
  24.255979 2  653             Rx   d 4 81 01 81 01  Length = 789449 BitCount = 83 ID = 1619
  24.263908 2  4BD             Rx   d 6 00 00 00 00 00 00  Length = 999445 BitCount = 104 ID = 1213
  24.265108 2  658             Rx   d 8 60 28 00 07 00 8D 00 00  Length = 1159426 BitCount = 120 ID = 1624
  24.266829 2  3E1             Rx   d 8 00 00 FF 00 00 00 84 78  Length = 1179426 BitCount = 122 ID = 993
  24.268029 2  621             Rx   d 8 00 76 54 00 00 3D 1D 00  Length = 1159441 BitCount = 120 ID = 1569
  24.269259 2  3E3             Rx   d 8 00 00 98 00 00 00 00 00  Length = 1189441 BitCount = 123 ID = 995
  24.270430 2  5E1             Rx   d 7 80 00 00 00 00 00 00  Length = 1099445 BitCount = 114 ID = 1505
  24.272200 2  43D             Rx   d 8 00 01 02 04 00 14 00 00  Length = 1179426 BitCount = 122 ID = 1085
  24.273880 2  3B5             Rx   d 6 01 00 00 00 00 00  Length = 999430 BitCount = 104 ID = 949
  24.275060 2  527             Rx   d 8 10 01 00 10 71 8E 90 08  Length = 1139441 BitCount = 118 ID = 1319
  24.276300 2  386             Rx   d 8 00 00 00 00 00 00 00 64  Length = 1189426 BitCount = 123 ID = 902
  24.284100 2  470             Rx   d 8 40 02 00 64 00 00 00 15  Length = 1169441 BitCount = 121 ID = 1136
  24.293249 2  69C             Rx   d 8 90 08 49 55 13 0C 08 07  Length = 1109430 BitCount = 115 ID = 1692
  24.294299 2  2C1             Rx   d 6 00 00 00 00 02 00  Length = 1009430 BitCount = 105 ID = 705
  24.295459 2  3C3             Rx   d 8 52 02 00 00 CE 21 00 8A  Length = 1119430 BitCount = 116 ID = 963
  24.296309 2  531             Rx   d 4 00 00 E0 E0  Length = 799438 BitCount = 84 ID = 1329
  24.297459 2  651             Rx   d 8 80 02 50 AF 39 59 01 00  Length = 1109445 BitCount = 115 ID = 1617
  24.298689 2  57C             Rx   d 8 50 6D 03 00 00 00 00 3E  Length = 1189426 BitCount = 123 ID = 1404
  24.304079 2  359             Rx   d 8 FF 89 FF 00 00 6B 80 00  Length = 1159441 BitCount = 120 ID = 857
  24.305318 2  555             Rx   d 8 00 00 7C 00 01 00 00 00  Length = 1199441 BitCount = 124 ID = 1365
  24.314058 2  35B             Rx   d 8 00 00 00 00 20 19 0C 00  Length = 1179426 BitCount = 122 ID = 859
  24.314798 2  457             Rx   d 3 00 47 00  Length = 699442 BitCount = 74 ID = 1111
  24.316028 2  400             Rx   d 8 0C 01 01 04 04 00 00 00  Length = 1189426 BitCount = 123 ID = 1024
  24.324078 2  320             Rx   d 8 00 00 00 01 00 01 00 80  Length = 1189426 BitCount = 123 ID = 800
  24.324928 2  575             Rx   d 4 01 00 00 00  Length = 809434 BitCount = 85 ID = 1397
  24.326157 2  386             Rx   d 8 00 00 00 00 00 00 00 64  Length = 1189426 BitCount = 123 ID = 902
  24.327987 2  58C             Rx   d 8 80 00 B6 C0 B9 00 00 05  Length = 1159426 BitCount = 120 ID = 1420
  24.329227 2  5AC             Rx   d 8 FE 6F 00 00 00 00 00 00  Length = 1199426 BitCount = 124 ID = 1452
  24.330347 2  69E             Rx   d 8 C3 70 74 69 6F 6E 65 6E  Length = 1079430 BitCount = 112 ID = 1694
  24.333357 2  6E7             Rx   d 8 34 42 03 00 11 00 04 01  Length = 1139430 BitCount = 118 ID = 1767
  24.334607 2  367             Rx   d 8 FC 00 00 00 7E F0 01 00  Length = 1179426 BitCount = 122 ID = 871
  24.335837 2  369             Rx   d 8 3D 00 00 D0 FF 00 00 00  Length = 1179426 BitCount = 122 ID = 873
  24.337047 2  470             Rx   d 8 40 02 00 64 00 00 00 15  Length = 1169426 BitCount = 121 ID = 1136
  24.343307 2  69C             Rx   d 8 C8 00 13 0C 08 07 00 01  Length = 1149441 BitCount = 119 ID = 1692
  24.344377 2  381             Rx   d 6 00 00 00 00 00 00  Length = 1029430 BitCount = 107 ID = 897
  24.345217 2  531             Rx   d 4 00 00 F0 F0  Length = 789438 BitCount = 83 ID = 1329
  24.352736 2  66C             Rx   d 8 3C 42 03 00 31 00 03 01  Length = 1159426 BitCount = 120 ID = 1644
  24.354107 2  397             Rx   d 8 00 00 00 00 00 00 00 00  Length = 1199426 BitCount = 124 ID = 919
  24.355167 2  4B9             Rx   d 6 00 00 00 00 00 00  Length = 1009430 BitCount = 105 ID = 1209
  24.356407 2  591             Rx   d 8 00 00 08 00 00 00 00 00  Length = 1199426 BitCount = 124 ID = 1425
  24.357576 2  655             Rx   d 8 75 00 F0 03 18 00 80 C4  Length = 1129430 BitCount = 117 ID = 1621
  24.363886 2  4BD             Rx   d 6 00 00 00 00 00 00  Length = 999430 BitCount = 104 ID = 1213
  24.365096 2  658             Rx   d 8 60 28 00 07 00 8D 00 00  Length = 1159426 BitCount = 120 ID = 1624
  24.366776 2  3E1             Rx   d 8 00 00 FF 00 00 00 84 78  Length = 1179441 BitCount = 122 ID = 993
  24.367936 2  65F             Rx   d 8 02 00 00 00 00 00 00 00  Length = 1119430 BitCount = 116 ID = 1631
  24.369166 2  40C             Rx   d 8 16 01 01 04 00 04 00 00  Length = 1189426 BitCount = 123 ID = 1036
  24.370366 2  621             Rx   d 8 00 76 54 00 00 3D 1D 00  Length = 1159441 BitCount = 120 ID = 1569
  24.373866 2  3B5             Rx   d 6 01 00 00 00 00 00  Length = 999430 BitCount = 104 ID = 949
  24.374536 2  5D1             Rx   d 2 10 00  Length = 629442 BitCount = 67 ID = 1489
  24.375546 2  6B4             Rx   d 6 BA 01 6E 02 7D 3F  Length = 969430 BitCount = 101 ID = 1716
  24.376776 2  386             Rx   d 8 00 00 00 00 00 00 00 64  Length = 1189441 BitCount = 123 ID = 902
  24.384106 2  470             Rx   d 8 40 02 00 64 00 00 00 15  Length = 1169426 BitCount = 121 ID = 1136
  24.392975 2  69C             Rx   d 5 D0 00 01 02 00  Length = 899434 BitCount = 94 ID = 1692
  24.394025 2  2C1             Rx   d 6 00 00 00 00 02 00  Length = 1009430 BitCount = 105 ID = 705
  24.395195 2  3C3             Rx   d 8 53 02 00 00 CE C1 00 E9  Length = 1129430 BitCount = 117 ID = 963
  24.396075 2  531             Rx   d 4 00 00 00 00  Length = 829434 BitCount = 87 ID = 1329
  24.397225 2  651             Rx   d 8 80 02 50 AF 39 59 01 00  Length = 1109445 BitCount = 115 ID = 1617
  24.398425 2  679             Rx   d 8 37 42 03 00 1D 00 04 00  Length = 1159426 BitCount = 120 ID = 1657
  24.404055 2  359             Rx   d 8 FF 89 FF 00 00 6B 80 00  Length = 1159426 BitCount = 120 ID = 857
  24.405295 2  555             Rx   d 8 00 00 7C 00 01 00 00 00  Length = 1199426 BitCount = 124 ID = 1365
  24.406485 2  61A             Rx   d 8 AA 05 80 20 02 B0 34 89  Length = 1129430 BitCount = 117 ID = 1562
  24.414054 2  35B             Rx   d 8 00 00 00 00 20 19 0C 00  Length = 1179441 BitCount = 122 ID = 859
  24.414794 2  457             Rx   d 3 00 47 00  Length = 699442 BitCount = 74 ID = 1111
  24.416534 2  436             Rx   d 8 1D 01 01 04 00 00 02 00  Length = 1169426 BitCount = 121 ID = 1078
  24.426104 2  386             Rx   d 8 00 00 00 00 00 00 00 64  Length = 1189426 BitCount = 123 ID = 902
  24.428164 2  58C             Rx   d 8 80 00 B6 C0 B9 00 00 05  Length = 1159426 BitCount = 120 ID = 1420
  24.429364 2  5AC             Rx   d 8 FE 6F 00 00 B9 00 00 00  Length = 1159426 BitCount = 120 ID = 1452
  24.434054 2  369             Rx   d 8 3D 00 00 D0 FF 00 00 00  Length = 1179441 BitCount = 122 ID = 873
  24.435264 2  470             Rx   d 8 40 02 00 64 00 00 00 15  Length = 1169426 BitCount = 121 ID = 1136
  24.436014 2  635             Rx   d 3 00 00 1D  Length = 709438 BitCount = 75 ID = 1589
  24.443273 2  69C             Rx   d 8 90 22 49 59 A9 03 40 00  Length = 1119430 BitCount = 116 ID = 1692
  24.444343 2  381             Rx   d 6 00 00 00 00 00 00  Length = 1029430 BitCount = 107 ID = 897
  24.445223 2  531             Rx   d 4 00 00 10 10  Length = 829434 BitCount = 87 ID = 1329
  24.454073 2  397             Rx   d 8 00 00 00 00 00 00 00 00  Length = 1199441 BitCount = 124 ID = 919
  24.455133 2  4B9             Rx   d 6 00 00 00 00 00 00  Length = 1009445 BitCount = 105 ID = 1209
  24.462203 2  43D             Rx   d 8 00 01 02 04 00 14 00 00  Length = 1179426 BitCount = 122 ID = 1085
  24.463893 2  4BD             Rx   d 6 00 00 00 00 00 00  Length = 999430 BitCount = 104 ID = 1213
  24.465093 2  658             Rx   d 8 60 28 00 07 00 8D 00 00  Length = 1159426 BitCount = 120 ID = 1624
  24.466623 2  3E1             Rx   d 8 00 00 FF 00 00 00 84 78  Length = 1179426 BitCount = 122 ID = 993
  24.467823 2  621             Rx   d 8 00 76 54 00 00 3D 1D 00  Length = 1159426 BitCount = 120 ID = 1569
  24.468963 2  5E1             Rx   d 7 80 00 00 00 00 00 00  Length = 1099430 BitCount = 114 ID = 1505
  24.473863 2  3B5             Rx   d 6 01 00 00 00 00 00  Length = 999430 BitCount = 104 ID = 949
  24.475073 2  527             Rx   d 8 10 01 00 10 71 8E 90 08  Length = 1139430 BitCount = 118 ID = 1319
  24.476303 2  386             Rx   d 8 00 00 00 00 00 00 00 64  Length = 1189426 BitCount = 123 ID = 902
  24.484093 2  470             Rx   d 8 40 02 00 64 00 00 00 15  Length = 1169426 BitCount = 121 ID = 1136
  24.489943 2  69E             Rx   d 4 80 00 19 56  Length = 789449 BitCount = 83 ID = 1694
  24.493343 2  69C             Rx   d 8 C9 02 00 08 00 FF FF FF  Length = 1169426 BitCount = 121 ID = 1692
  24.494393 2  2C1             Rx   d 6 00 00 00 00 02 00  Length = 1009445 BitCount = 105 ID = 705
  24.495563 2  3C3             Rx   d 8 52 02 00 00 CE 61 00 4A  Length = 1129430 BitCount = 117 ID = 963
  24.496443 2  531             Rx   d 4 00 00 20 20  Length = 829434 BitCount = 87 ID = 1329
  24.497593 2  651             Rx   d 8 80 02 50 AF 39 59 01 00  Length = 1109430 BitCount = 115 ID = 1617
  24.504052 2  359             Rx   d 8 FF 89 FF 00 00 6B 80 00  Length = 1159426 BitCount = 120 ID = 857
  24.505292 2  555             Rx   d 8 00 00 7C 00 01 00 00 00  Length = 1199426 BitCount = 124 ID = 1365
  24.506522 2  400             Rx   d 8 0C 01 01 04 04 00 00 00  Length = 1189426 BitCount = 123 ID = 1024
  24.514052 2  35B             Rx   d 8 00 00 00 00 20 19 0C 00  Length = 1179426 BitCount = 122 ID = 859
  24.514812 2  457             Rx   d 3 00 47 00  Length = 699442 BitCount = 74 ID = 1111
  24.524061 2  320             Rx   d 8 00 00 00 01 00 09 00 80  Length = 1189426 BitCount = 123 ID = 800
  24.524911 2  575             Rx   d 4 01 00 00 00  Length = 809434 BitCount = 85 ID = 1397
  24.526161 2  386             Rx   d 8 00 00 00 00 00 00 00 64  Length = 1189426 BitCount = 123 ID = 902
  24.528011 2  58C             Rx   d 8 80 00 B6 C0 B9 00 00 05  Length = 1159441 BitCount = 120 ID = 1420
  24.529211 2  5AC             Rx   d 8 FE 6F 00 00 B9 00 00 00  Length = 1159426 BitCount = 120 ID = 1452
  24.534091 2  367             Rx   d 8 FC 00 00 00 7E F0 01 00  Length = 1179426 BitCount = 122 ID = 871
  24.535331 2  369             Rx   d 8 3D 00 00 D0 FF 00 00 00  Length = 1179426 BitCount = 122 ID = 873
  24.536541 2  470             Rx   d 8 40 02 00 64 00 00 00 15  Length = 1169426 BitCount = 121 ID = 1136
  24.542151 2  5A7             Rx   d 8 E0 16 00 00 00 00 00 00  Length = 1169441 BitCount = 121 ID = 1447
  24.543411 2  5A9             Rx   d 8 00 00 00 00 00 00 00 00  Length = 1219426 BitCount = 126 ID = 1449
  24.544591 2  69C             Rx   d 8 A0 08 49 56 FF FF FF 00  Length = 1139430 BitCount = 118 ID = 1692
  24.545661 2  381             Rx   d 6 00 00 00 00 00 00  Length = 1029430 BitCount = 107 ID = 897
  24.546521 2  531             Rx   d 4 00 00 30 30  Length = 809434 BitCount = 85 ID = 1329
  24.554061 2  397             Rx   d 8 00 00 00 00 00 00 00 00  Length = 1199426 BitCount = 124 ID = 919
  24.555121 2  4B9             Rx   d 6 00 00 00 00 00 00  Length = 1009430 BitCount = 105 ID = 1209
  24.556361 2  591             Rx   d 8 00 00 08 00 00 00 00 00  Length = 1199441 BitCount = 124 ID = 1425
  24.557591 2  40C             Rx   d 8 16 01 01 04 00 04 00 00  Length = 1189426 BitCount = 123 ID = 1036
  24.558841 2  5F5             Rx   d 8 00 10 00 00 00 00 00 00  Length = 1209426 BitCount = 125 ID = 1525
  24.563870 2  4BD             Rx   d 6 00 00 00 00 00 00  Length = 999430 BitCount = 104 ID = 1213
  24.565070 2  658             Rx   d 8 60 28 00 07 00 8D 00 00  Length = 1159426 BitCount = 120 ID = 1624
  24.567030 2  3E1             Rx   d 8 00 00 FF 00 00 00 84 78  Length = 1179441 BitCount = 122 ID = 993
  24.568191 2  65F             Rx   d 8 00 AA 8C 8E C0 00 00 00  Length = 1119430 BitCount = 116 ID = 1631
  24.569401 2  621             Rx   d 8 00 76 54 00 00 3D 1D 00  Length = 1159426 BitCount = 120 ID = 1569
  24.573860 2  3B5             Rx   d 6 01 00 00 00 00 00  Length = 999430 BitCount = 104 ID = 949
  24.574560 2  5D1             Rx   d 2 10 00  Length = 629457 BitCount = 67 ID = 1489
  24.576240 2  386             Rx   d 8 00 00 00 00 00 00 00 64  Length = 1189426 BitCount = 123 ID = 902
  24.584070 2  470             Rx   d 8 40 02 00 64 00 00 00 15  Length = 1169441 BitCount = 121 ID = 1136
  24.585320 2  64F             Rx   d 8 3F 00 00 00 00 00 00 00  Length = 1209426 BitCount = 125 ID = 1615
  24.593280 2  69C             Rx   d 8 D0 01 00 06 00 10 1E FF  Length = 1169426 BitCount = 121 ID = 1692
  24.594329 2  2C1             Rx   d 6 00 00 00 00 02 00  Length = 1009430 BitCount = 105 ID = 705
  24.595529 2  3C3             Rx   d 8 52 02 00 00 CE 01 00 AA  Length = 1139430 BitCount = 118 ID = 963
  24.596389 2  531             Rx   d 4 00 00 40 40  Length = 809434 BitCount = 85 ID = 1329
  24.597539 2  651             Rx   d 8 80 02 50 AF 39 59 01 00  Length = 1109445 BitCount = 115 ID = 1617
  24.598749 2  62A             Rx   d 8 40 10 00 00 00 00 3B 00  Length = 1169426 BitCount = 121 ID = 1578
  24.604049 2  359             Rx   d 8 FF 89 FF 00 00 6B 80 00  Length = 1159441 BitCount = 120 ID = 857
  24.605289 2  555             Rx   d 8 00 00 7C 00 01 00 00 00  Length = 1199441 BitCount = 124 ID = 1365
  24.606539 2  436             Rx   d 8 1D 01 01 04 00 00 02 00  Length = 1169426 BitCount = 121 ID = 1078
  24.614039 2  35B             Rx   d 8 00 00 00 00 20 19 0C 00  Length = 1179426 BitCount = 122 ID = 859
  24.614799 2  457             Rx   d 3 00 47 00  Length = 699442 BitCount = 74 ID = 1111
  24.626078 2  386             Rx   d 8 00 00 00 00 00 00 00 64  Length = 1189426 BitCount = 123 ID = 902
  24.627958 2  58C             Rx   d 8 80 00 B6 C0 B9 00 00 05  Length = 1159426 BitCount = 120 ID = 1420
  24.629158 2  5AC             Rx   d 8 FE 6F 00 00 B9 00 00 00  Length = 1159426 BitCount = 120 ID = 1452
  24.634048 2  369             Rx   d 8 3D 00 00 D0 FF 00 00 00  Length = 1179426 BitCount = 122 ID = 873
  24.635258 2  470             Rx   d 8 40 02 00 64 00 00 00 15  Length = 1169426 BitCount = 121 ID = 1136
  24.636008 2  635             Rx   d 3 00 00 1D  Length = 709438 BitCount = 75 ID = 1589
  24.643118 2  69C             Rx   d 6 CA 00 00 FE 01 00  Length = 999445 BitCount = 104 ID = 1692
  24.644198 2  381             Rx   d 6 00 00 00 00 00 00  Length = 1029430 BitCount = 107 ID = 897
  24.645037 2  531             Rx   d 4 00 00 50 50  Length = 789438 BitCount = 83 ID = 1329
  24.652198 2  43D             Rx   d 8 00 01 02 04 00 14 00 00  Length = 1179426 BitCount = 122 ID = 1085
  24.654058 2  397             Rx   d 8 00 00 00 00 00 00 00 00  Length = 1199426 BitCount = 124 ID = 919
  24.655107 2  4B9             Rx   d 6 00 00 00 00 00 00  Length = 1009430 BitCount = 105 ID = 1209
  24.663887 2  4BD             Rx   d 6 00 00 00 00 00 00  Length = 999430 BitCount = 104 ID = 1213
  24.665087 2  658             Rx   d 8 60 28 00 07 00 8D 00 00  Length = 1159426 BitCount = 120 ID = 1624
  24.666897 2  3E1             Rx   d 8 00 00 FF 00 00 00 84 78  Length = 1179426 BitCount = 122 ID = 993
  24.668097 2  621             Rx   d 8 00 76 54 00 00 3D 1D 00  Length = 1159426 BitCount = 120 ID = 1569
  24.669347 2  3E9             Rx   d 8 00 00 00 00 00 00 00 00  Length = 1209426 BitCount = 125 ID = 1001
  24.670508 2  5E1             Rx   d 7 80 00 00 00 00 00 00  Length = 1099430 BitCount = 114 ID = 1505
  24.671778 2  5E8             Rx   d 8 00 40 00 00 00 00 40 00  Length = 1209426 BitCount = 125 ID = 1512
  24.673859 2  3B5             Rx   d 6 01 00 00 00 00 00  Length = 999430 BitCount = 104 ID = 949
  24.675059 2  527             Rx   d 8 10 01 00 10 71 8E 90 08  Length = 1139430 BitCount = 118 ID = 1319
  24.676068 2  571             Rx   d 6 8E 1F 00 08 04 00  Length = 969430 BitCount = 101 ID = 1393
  24.677298 2  386             Rx   d 8 00 00 00 00 00 00 00 64  Length = 1189426 BitCount = 123 ID = 902
  24.684078 2  470             Rx   d 8 40 02 00 64 00 00 00 15  Length = 1169426 BitCount = 121 ID = 1136
  24.692948 2  69C             Rx   d 5 E0 00 FE 01 00  Length = 889434 BitCount = 93 ID = 1692
  24.694268 2  2C1             Rx   d 6 00 00 00 00 02 00  Length = 1009430 BitCount = 105 ID = 705
  24.695438 2  3C3             Rx   d 8 52 02 00 00 CE A1 00 0A  Length = 1129441 BitCount = 117 ID = 963
  24.696297 2  531             Rx   d 4 00 00 60 60  Length = 809434 BitCount = 85 ID = 1329
  24.697447 2  651             Rx   d 8 80 02 50 AF 39 59 01 00  Length = 1109430 BitCount = 115 ID = 1617
  24.698687 2  400             Rx   d 8 0C 01 01 04 04 00 00 00  Length = 1189441 BitCount = 123 ID = 1024
  24.704047 2  359             Rx   d 8 FF 89 FF 00 00 6B 80 00  Length = 1159426 BitCount = 120 ID = 857
  24.705287 2  555             Rx   d 8 00 00 7C 00 01 00 00 00  Length = 1199426 BitCount = 124 ID = 1365
  24.714037 2  35B             Rx   d 8 00 00 00 00 20 19 0C 00  Length = 1179426 BitCount = 122 ID = 859
  24.714787 2  457             Rx   d 3 00 47 00  Length = 699442 BitCount = 74 ID = 1111
  24.716496 2  60E             Rx   d 2 08 02  Length = 629442 BitCount = 67 ID = 1550
  24.724056 2  320             Rx   d 8 00 00 00 01 00 01 00 80  Length = 1189426 BitCount = 123 ID = 800
  24.724906 2  575             Rx   d 4 01 00 00 00  Length = 809434 BitCount = 85 ID = 1397
  24.726226 2  386             Rx   d 8 00 00 00 00 00 00 00 64  Length = 1189426 BitCount = 123 ID = 902
  24.727456 2  569             Rx   d 8 00 00 00 3A 00 00 00 00  Length = 1179426 BitCount = 122 ID = 1385
  24.728656 2  58C             Rx   d 8 80 00 B6 C0 B9 00 00 05  Length = 1159426 BitCount = 120 ID = 1420
  24.729856 2  5AC             Rx   d 8 FE 6F 00 00 B9 00 00 00  Length = 1159426 BitCount = 120 ID = 1452
  24.731066 2  61C             Rx   d 8 00 F0 07 40 FE 03 00 07  Length = 1169426 BitCount = 121 ID = 1564
  24.734046 2  367             Rx   d 8 FC 00 00 00 7E F0 01 00  Length = 1179441 BitCount = 122 ID = 871
  24.735276 2  369             Rx   d 8 3D 00 00 D0 FF 00 00 00  Length = 1179426 BitCount = 122 ID = 873
  24.736486 2  470             Rx   d 8 40 02 00 64 00 00 00 15  Length = 1169426 BitCount = 121 ID = 1136
  24.743285 2  69C             Rx   d 8 D1 FF 00 FF FF FF FF 01  Length = 1179426 BitCount = 122 ID = 1692
  24.744355 2  381             Rx   d 6 00 00 00 00 00 00  Length = 1029430 BitCount = 107 ID = 897
  24.745195 2  531             Rx   d 4 00 00 70 70  Length = 789449 BitCount = 83 ID = 1329
  24.746015 2  481             Rx   d 2 00 00  Length = 649442 BitCount = 69 ID = 1153
  24.747245 2  40C             Rx   d 8 16 01 01 04 00 04 00 00  Length = 1189426 BitCount = 123 ID = 1036
  24.748485 2  661             Rx   d 8 00 00 00 00 00 00 00 00  Length = 1199426 BitCount = 124 ID = 1633
  24.749625 2  665             Rx   d 7 00 00 00 00 00 00 00  Length = 1099430 BitCount = 114 ID = 1637
  24.750305 2  666             Rx   d 2 00 00  Length = 639442 BitCount = 68 ID = 1638
  24.754055 2  397             Rx   d 8 00 00 00 00 00 00 00 00  Length = 1199441 BitCount = 124 ID = 919
  24.755115 2  4B9             Rx   d 6 00 00 00 00 00 00  Length = 1009445 BitCount = 105 ID = 1209
  24.756355 2  591             Rx   d 8 00 00 08 00 00 00 00 00  Length = 1199426 BitCount = 124 ID = 1425
  24.757185 2  653             Rx   d 4 81 01 81 01  Length = 789438 BitCount = 83 ID = 1619
  24.763865 2  4BD             Rx   d 6 00 00 00 00 00 00  Length = 999430 BitCount = 104 ID = 1213
  24.765065 2  658             Rx   d 8 60 28 00 07 00 8D 00 00  Length = 1159426 BitCount = 120 ID = 1624
  24.766635 2  3E1             Rx   d 8 00 00 FF 00 00 00 84 78  Length = 1179426 BitCount = 122 ID = 993
  24.767805 2  65F             Rx   d 8 01 00 00 00 00 00 00 00  Length = 1129430 BitCount = 117 ID = 1631
  24.769005 2  621             Rx   d 8 00 76 54 00 00 3D 1D 00  Length = 1159426 BitCount = 120 ID = 1569
  24.773845 2  3B5             Rx   d 6 01 00 00 00 00 00  Length = 999445 BitCount = 104 ID = 949
  24.774535 2  5D1             Rx   d 2 10 00  Length = 629442 BitCount = 67 ID = 1489
  24.776055 2  386             Rx   d 8 00 00 00 00 00 00 00 64  Length = 1189426 BitCount = 123 ID = 902
  24.784474 2  470             Rx   d 8 40 02 00 64 00 00 00 15  Length = 1169426 BitCount = 121 ID = 1136
  24.793244 2  69C             Rx   d 8 D2 5A 00 1E 1E 0A 00 00  Length = 1139441 BitCount = 118 ID = 1692
  24.794294 2  2C1             Rx   d 6 00 00 00 00 02 00  Length = 1009430 BitCount = 105 ID = 705
  24.795484 2  3C3             Rx   d 8 52 02 00 00 CE 41 00 6A  Length = 1139430 BitCount = 118 ID = 963
  24.796694 2  436             Rx   d 8 1D 01 01 04 00 00 02 00  Length = 1169426 BitCount = 121 ID = 1078
  24.797544 2  531             Rx   d 4 00 00 80 80  Length = 809434 BitCount = 85 ID = 1329
  24.798694 2  651             Rx   d 8 80 02 50 AF 39 59 01 00  Length = 1109430 BitCount = 115 ID = 1617
  24.799913 2  57C             Rx   d 8 60 6D 03 00 00 00 00 0E  Length = 1179426 BitCount = 122 ID = 1404
  24.804043 2  359             Rx   d 8 FF 89 FF 00 00 6B 80 00  Length = 1159426 BitCount = 120 ID = 857
  24.805283 2  555             Rx   d 8 00 00 7C 00 01 00 00 00  Length = 1199426 BitCount = 124 ID = 1365
  24.814033 2  35B             Rx   d 8 00 00 00 00 20 19 0C 00  Length = 1179426 BitCount = 122 ID = 859
  24.814783 2  457             Rx   d 3 00 47 00  Length = 699442 BitCount = 74 ID = 1111
  24.817373 2  629             Rx   d 8 FF 0F FF 7F 47 27 40 00  Length = 1139430 BitCount = 118 ID = 1577
  24.826062 2  386             Rx   d 8 00 00 00 00 00 00 00 64  Length = 1189426 BitCount = 123 ID = 902
  24.827942 2  58C             Rx   d 8 80 00 B6 C0 B9 00 00 05  Length = 1159426 BitCount = 120 ID = 1420
  24.829142 2  5AC             Rx   d 8 FE 6F 00 00 B9 00 00 00  Length = 1159426 BitCount = 120 ID = 1452
  24.834042 2  369             Rx   d 8 3D 00 00 D0 FF 00 00 00  Length = 1179426 BitCount = 122 ID = 873
  24.835252 2  470             Rx   d 8 40 02 00 64 00 00 00 15  Length = 1169426 BitCount = 121 ID = 1136
  24.836002 2  635             Rx   d 3 00 00 1D  Length = 709453 BitCount = 75 ID = 1589
  24.842192 2  43D             Rx   d 8 00 01 02 04 00 14 00 00  Length = 1179426 BitCount = 122 ID = 1085
  24.843402 2  62B             Rx   d 8 00 10 00 40 00 00 FE 7F  Length = 1169426 BitCount = 121 ID = 1579
  24.844532 2  69C             Rx   d 8 D3 08 4F 70 74 69 6F 6E  Length = 1089430 BitCount = 113 ID = 1692
  24.845602 2  381             Rx   d 6 00 00 00 00 00 00  Length = 1029430 BitCount = 107 ID = 897
  24.846462 2  531             Rx   d 4 00 00 90 90  Length = 799438 BitCount = 84 ID = 1329
  24.854051 2  397             Rx   d 8 00 00 00 00 00 00 00 00  Length = 1199426 BitCount = 124 ID = 919
  24.855111 2  4B9             Rx   d 6 00 00 00 00 00 00  Length = 1009430 BitCount = 105 ID = 1209
  24.856281 2  655             Rx   d 8 75 00 F0 03 18 00 80 C4  Length = 1129441 BitCount = 117 ID = 1621
  24.863871 2  4BD             Rx   d 6 00 00 00 00 00 00  Length = 999445 BitCount = 104 ID = 1213
  24.865071 2  658             Rx   d 8 60 28 00 07 00 8D 00 00  Length = 1159426 BitCount = 120 ID = 1624
  24.866621 2  3E1             Rx   d 8 00 00 FF 00 00 00 84 78  Length = 1179426 BitCount = 122 ID = 993
  24.867821 2  621             Rx   d 8 00 76 54 00 00 3D 1D 00  Length = 1159426 BitCount = 120 ID = 1569
  24.868961 2  5E1             Rx   d 7 80 00 00 00 00 00 00  Length = 1099430 BitCount = 114 ID = 1505
  24.870141 2  62D             Rx   d 8 00 10 43 41 28 04 12 40  Length = 1139430 BitCount = 118 ID = 1581
  24.874031 2  3B5             Rx   d 6 01 00 00 00 00 00  Length = 999430 BitCount = 104 ID = 949
