date Mon Mar 30 11:10:36.598 am 2020
base hex  timestamps absolute
internal events logged
// version 11.0.0
   0.017562 CAN 1 Status:chip status error active
   0.017562 CAN 2 Status:chip status error active
   1.017562 CAN 1 Status:chip status error active
   1.017562 CAN 2 Status:chip status error active
   2.017563 CAN 1 Status:chip status error active
   2.017563 CAN 2 Status:chip status error active
   3.017563 CAN 1 Status:chip status error active
   3.017563 CAN 2 Status:chip status error active
   4.017563 CAN 1 Status:chip status error active
   4.017563 CAN 2 Status:chip status error active
   5.017564 CAN 1 Status:chip status error active
   5.017564 CAN 2 Status:chip status error active
   6.017564 CAN 1 Status:chip status error active
   6.017564 CAN 2 Status:chip status error active
   7.017564 CAN 1 Status:chip status error active
   7.017564 CAN 2 Status:chip status error active
   8.017564 CAN 1 Status:chip status error active
   8.017564 CAN 2 Status:chip status error active
   9.017565 CAN 1 Status:chip status error active
   9.017565 CAN 2 Status:chip status error active
   9.327079 2  69E             TxRq d 4 29 58 00 01  Length = 0 BitCount = 0 ID = 1694
   9.327879 2  69E             Tx   d 4 29 58 00 01  Length = 800015 BitCount = 83 ID = 1694
   9.331116 2  ErrorFrame	Flags = 0xfffe	CodeExt = 0x20aa	Code = 0x82	ID = 0x381	DLC = 6	Position = 45	Length = 509375	Data = 0  0  0x7  0  0  0
   9.331123 CAN 2 Status:chip status error active  - TxErr: 0 RxErr: 1
   9.332243 CAN 2 Status:chip status error active
   9.332316 2  381             Rx   d 6 00 00 00 00 00 00  Length = 1029430 BitCount = 107 ID = 897
   9.333556 2  400             Rx   d 8 00 02 01 04 04 04 00 00  Length = 1199426 BitCount = 124 ID = 1024
   9.341825 2  397             Rx   d 8 00 00 00 00 00 00 00 00  Length = 1199426 BitCount = 124 ID = 919
   9.342875 2  4B9             Rx   d 6 00 00 00 00 00 00  Length = 1009430 BitCount = 105 ID = 1209
   9.344055 2  655             Rx   d 8 75 00 F0 03 18 00 80 C0  Length = 1139441 BitCount = 118 ID = 1621
   9.351605 2  4BD             Rx   d 6 00 00 00 00 00 00  Length = 999430 BitCount = 104 ID = 1213
   9.352825 2  658             Rx   d 8 50 28 00 08 00 90 00 00  Length = 1179426 BitCount = 122 ID = 1624
   9.361654 2  3B5             Rx   d 6 00 00 00 00 00 00  Length = 1029430 BitCount = 107 ID = 949
   9.362824 2  527             Rx   d 8 07 01 00 10 71 72 6E 08  Length = 1129430 BitCount = 117 ID = 1319
   9.363824 2  6B4             Rx   d 6 A8 01 C2 02 8E 22  Length = 959430 BitCount = 100 ID = 1716
   9.371803 2  470             Rx   d 8 40 00 00 00 00 00 00 16  Length = 1199426 BitCount = 124 ID = 1136
   9.381633 2  2C1             Rx   d 6 00 00 00 00 02 00  Length = 1009430 BitCount = 105 ID = 705
   9.382473 2  531             Rx   d 4 00 20 30 10  Length = 789438 BitCount = 83 ID = 1329
   9.383623 2  651             Rx   d 8 80 02 50 AF 39 59 01 00  Length = 1109445 BitCount = 115 ID = 1617
   9.384873 2  400             Rx   d 8 00 01 01 04 04 04 00 00  Length = 1209426 BitCount = 125 ID = 1024
   9.391742 2  359             Rx   d 8 FF 89 FF 7F 1D 6B 80 00  Length = 1139430 BitCount = 118 ID = 857
   9.397292 2  67C             Rx   d 2 1C 42  Length = 609457 BitCount = 65 ID = 1660
   9.401791 2  35B             Rx   d 8 0F 00 00 00 20 19 0C 00  Length = 1169426 BitCount = 121 ID = 859
   9.402531 2  457             Rx   d 3 00 47 00  Length = 699442 BitCount = 74 ID = 1111
   9.411791 2  320             Rx   d 8 00 00 00 01 00 09 00 80  Length = 1189426 BitCount = 123 ID = 800
   9.412651 2  575             Rx   d 4 00 00 00 00  Length = 819434 BitCount = 86 ID = 1397
   9.413791 2  65D             Rx   d 8 82 2B 27 D0 70 AF 12 C7  Length = 1099430 BitCount = 114 ID = 1629
   9.421790 2  367             Rx   d 8 FF 00 00 00 7E F0 01 00  Length = 1169426 BitCount = 121 ID = 871
   9.423030 2  369             Rx   d 8 3F 00 00 D0 FF 00 00 00  Length = 1189426 BitCount = 123 ID = 873
   9.424270 2  470             Rx   d 8 40 00 00 00 00 00 00 16  Length = 1199426 BitCount = 124 ID = 1136
   9.431629 2  381             Rx   d 6 00 00 00 00 00 00  Length = 1029430 BitCount = 107 ID = 897
   9.432489 2  531             Rx   d 4 00 20 40 60  Length = 809434 BitCount = 85 ID = 1329
   9.441819 2  397             Rx   d 8 00 00 00 00 00 00 00 00  Length = 1199426 BitCount = 124 ID = 919
   9.442869 2  4B9             Rx   d 6 00 00 00 00 00 00  Length = 1009430 BitCount = 105 ID = 1209
   9.444109 2  591             Rx   d 8 00 00 08 00 00 00 00 00  Length = 1199426 BitCount = 124 ID = 1425
   9.451598 2  4BD             Rx   d 6 00 00 00 00 00 00  Length = 999430 BitCount = 104 ID = 1213
   9.452818 2  658             Rx   d 8 50 28 00 08 00 90 00 00  Length = 1179426 BitCount = 122 ID = 1624
   9.460438 2  3E1             Rx   d 8 80 00 00 00 00 00 04 F8  Length = 1199426 BitCount = 124 ID = 993
   9.461708 2  3E3             Rx   d 8 00 00 FF 00 00 00 00 00  Length = 1209426 BitCount = 125 ID = 995
   9.462778 2  3B5             Rx   d 6 00 00 00 00 00 00  Length = 1029430 BitCount = 107 ID = 949
   9.463998 2  3E9             Rx   d 8 FE F8 DF FF 00 00 00 00  Length = 1179426 BitCount = 122 ID = 1001
   9.464668 2  5D1             Rx   d 2 10 00  Length = 629442 BitCount = 67 ID = 1489
   9.465908 2  40C             Rx   d 8 0C 02 01 04 00 04 00 00  Length = 1199441 BitCount = 124 ID = 1036
   9.467088 2  5E1             Rx   d 7 00 00 00 00 00 00 00  Length = 1109445 BitCount = 115 ID = 1505
   9.468338 2  5E8             Rx   d 8 00 00 FF FF 00 0C 00 00  Length = 1189426 BitCount = 123 ID = 1512
   9.471807 2  470             Rx   d 8 40 00 00 00 00 00 00 16  Length = 1199426 BitCount = 124 ID = 1136
   9.479387 2  621             Rx   d 8 00 ED 72 00 00 47 37 00  Length = 1139430 BitCount = 118 ID = 1569
   9.481657 2  2C1             Rx   d 6 00 00 00 00 02 00  Length = 1009430 BitCount = 105 ID = 705
   9.482517 2  531             Rx   d 4 00 20 50 70  Length = 809434 BitCount = 85 ID = 1329
   9.483667 2  651             Rx   d 8 80 02 50 AF 39 59 01 00  Length = 1109445 BitCount = 115 ID = 1617
   9.484427 2  635             Rx   d 3 00 00 37  Length = 719438 BitCount = 76 ID = 1589
   9.491746 2  359             Rx   d 8 FF 89 FF 7F 1D 6B 80 00  Length = 1139430 BitCount = 118 ID = 857
   9.501806 2  35B             Rx   d 8 0F 00 00 00 20 19 0C 00  Length = 1169441 BitCount = 121 ID = 859
   9.502545 2  457             Rx   d 3 00 47 00  Length = 699442 BitCount = 74 ID = 1111
   9.510856 2  40C             Rx   d 8 0C 01 01 04 00 04 00 00  Length = 1189441 BitCount = 123 ID = 1036
   9.521286 2  436             Rx   d 8 16 02 01 04 00 00 02 00  Length = 1169426 BitCount = 121 ID = 1078
   9.522516 2  369             Rx   d 8 3F 00 00 D0 FF 00 00 00  Length = 1189441 BitCount = 123 ID = 873
   9.523756 2  470             Rx   d 8 40 00 00 00 00 00 00 16  Length = 1199426 BitCount = 124 ID = 1136
   9.524576 2  635             Rx   d 3 00 00 37  Length = 719438 BitCount = 76 ID = 1589
   9.528576 2  60E             Rx   d 2 08 02  Length = 629442 BitCount = 67 ID = 1550
   9.530685 2  481             Rx   d 2 00 00  Length = 649457 BitCount = 69 ID = 1153
   9.531756 2  381             Rx   d 6 00 00 00 00 00 00  Length = 1029430 BitCount = 107 ID = 897
   9.532995 2  661             Rx   d 8 00 00 00 00 00 00 00 00  Length = 1199426 BitCount = 124 ID = 1633
   9.533835 2  531             Rx   d 4 00 20 60 40  Length = 799449 BitCount = 84 ID = 1329
   9.534975 2  665             Rx   d 7 00 00 00 00 00 00 00  Length = 1099430 BitCount = 114 ID = 1637
   9.535675 2  666             Rx   d 2 00 00  Length = 639442 BitCount = 68 ID = 1638
   9.541815 2  397             Rx   d 8 00 00 00 00 00 00 00 00  Length = 1199426 BitCount = 124 ID = 919
   9.542865 2  4B9             Rx   d 6 00 00 00 00 00 00  Length = 1009430 BitCount = 105 ID = 1209
   9.544115 2  5F5             Rx   d 8 00 10 00 00 00 00 00 00  Length = 1209426 BitCount = 125 ID = 1525
   9.551594 2  4BD             Rx   d 6 00 00 00 00 00 00  Length = 999445 BitCount = 104 ID = 1213
   9.552814 2  658             Rx   d 8 50 28 00 08 00 90 00 00  Length = 1179426 BitCount = 122 ID = 1624
   9.554044 2  400             Rx   d 8 0C 01 01 04 04 04 00 00  Length = 1189426 BitCount = 123 ID = 1024
   9.559884 2  3E1             Rx   d 8 80 00 00 00 00 00 84 F8  Length = 1189426 BitCount = 123 ID = 993
   9.561644 2  3B5             Rx   d 6 00 00 00 00 00 00  Length = 1029430 BitCount = 107 ID = 949
   9.562834 2  527             Rx   d 8 00 01 00 10 71 72 6E 08  Length = 1149426 BitCount = 119 ID = 1319
   9.571834 2  470             Rx   d 8 40 00 00 00 00 00 00 16  Length = 1199441 BitCount = 124 ID = 1136
   9.573083 2  64F             Rx   d 8 3F 00 00 00 00 00 00 00  Length = 1209426 BitCount = 125 ID = 1615
   9.579343 2  65F             Rx   d 8 00 AA 8C 8E C0 00 00 00  Length = 1119430 BitCount = 116 ID = 1631
   9.580523 2  621             Rx   d 8 00 ED 72 00 00 47 37 00  Length = 1139441 BitCount = 118 ID = 1569
   9.581683 2  2C1             Rx   d 6 00 00 00 00 02 00  Length = 1009430 BitCount = 105 ID = 705
   9.582533 2  531             Rx   d 4 00 20 70 50  Length = 799438 BitCount = 84 ID = 1329
   9.583683 2  651             Rx   d 8 80 02 50 AF 39 59 01 00  Length = 1109430 BitCount = 115 ID = 1617
   9.591762 2  359             Rx   d 8 FF 89 FF 7F 1D 6B 80 00  Length = 1139441 BitCount = 118 ID = 857
   9.599942 2  40C             Rx   d 8 16 01 01 04 00 04 00 00  Length = 1189426 BitCount = 123 ID = 1036
   9.601782 2  35B             Rx   d 8 0F 00 00 00 20 19 0C 00  Length = 1169426 BitCount = 121 ID = 859
   9.602522 2  457             Rx   d 3 00 47 00  Length = 699453 BitCount = 74 ID = 1111
   9.611771 2  320             Rx   d 8 00 00 00 01 00 01 00 80  Length = 1189426 BitCount = 123 ID = 800
   9.612631 2  575             Rx   d 4 00 00 00 00  Length = 819434 BitCount = 86 ID = 1397
   9.621791 2  367             Rx   d 8 FF 00 00 00 7E F0 01 00  Length = 1169426 BitCount = 121 ID = 871
   9.623031 2  369             Rx   d 8 3F 00 00 D0 FF 00 00 00  Length = 1189441 BitCount = 123 ID = 873
   9.624271 2  470             Rx   d 8 40 00 00 00 00 00 00 16  Length = 1199426 BitCount = 124 ID = 1136
   9.629510 2  629             Rx   d 8 FF 0F FF 7F 2B 27 40 00  Length = 1139430 BitCount = 118 ID = 1577
   9.631620 2  381             Rx   d 6 00 00 00 00 00 00  Length = 1029430 BitCount = 107 ID = 897
   9.632470 2  531             Rx   d 4 00 20 80 A0  Length = 799449 BitCount = 84 ID = 1329
   9.641810 2  397             Rx   d 8 00 00 00 00 00 00 00 00  Length = 1199426 BitCount = 124 ID = 919
   9.643039 2  436             Rx   d 8 00 01 01 04 00 00 02 00  Length = 1189426 BitCount = 123 ID = 1078
   9.644089 2  4B9             Rx   d 6 00 00 00 00 00 00  Length = 1009430 BitCount = 105 ID = 1209
   9.645329 2  591             Rx   d 8 00 00 08 00 00 00 00 00  Length = 1199426 BitCount = 124 ID = 1425
   9.651589 2  4BD             Rx   d 6 00 00 00 00 00 00  Length = 999430 BitCount = 104 ID = 1213
   9.652809 2  658             Rx   d 8 78 28 00 08 00 90 00 00  Length = 1179441 BitCount = 122 ID = 1624
   9.654399 2  62B             Rx   d 8 00 10 06 40 0B 00 21 40  Length = 1149426 BitCount = 119 ID = 1579
   9.660099 2  3E1             Rx   d 8 80 00 00 00 00 00 84 F8  Length = 1189426 BitCount = 123 ID = 993
   9.661268 2  5E1             Rx   d 7 00 00 00 00 00 00 00  Length = 1109430 BitCount = 115 ID = 1505
   9.662339 2  3B5             Rx   d 6 00 00 00 00 00 00  Length = 1029430 BitCount = 107 ID = 949
   9.663359 2  571             Rx   d 6 95 1F 00 08 04 00  Length = 969445 BitCount = 101 ID = 1393
   9.664029 2  5D1             Rx   d 2 10 00  Length = 629457 BitCount = 67 ID = 1489
   9.670529 2  5E8             Rx   d 8 00 40 00 00 00 00 40 00  Length = 1209426 BitCount = 125 ID = 1512
   9.671819 2  470             Rx   d 8 40 00 00 00 00 00 00 16  Length = 1199426 BitCount = 124 ID = 1136
   9.679368 2  621             Rx   d 8 00 ED 72 00 00 47 37 00  Length = 1139430 BitCount = 118 ID = 1569
   9.680538 2  62D             Rx   d 8 00 10 27 41 B4 03 13 40  Length = 1129430 BitCount = 117 ID = 1581
   9.681678 2  2C1             Rx   d 6 00 00 00 00 02 00  Length = 1009430 BitCount = 105 ID = 705
   9.682508 2  531             Rx   d 4 00 20 90 B0  Length = 779438 BitCount = 82 ID = 1329
   9.683658 2  651             Rx   d 8 80 02 50 AF 39 59 01 00  Length = 1109430 BitCount = 115 ID = 1617
   9.691737 2  359             Rx   d 8 FF 89 FF 7F 1D 6B 80 00  Length = 1139430 BitCount = 118 ID = 857
   9.692967 2  400             Rx   d 8 0C 01 01 04 04 04 00 00  Length = 1189426 BitCount = 123 ID = 1024
   9.701787 2  35B             Rx   d 8 0F 00 00 00 20 19 0C 00  Length = 1169426 BitCount = 121 ID = 859
   9.702527 2  457             Rx   d 3 00 47 00  Length = 699442 BitCount = 74 ID = 1111
   9.721815 2  369             Rx   d 8 3F 00 00 D0 FF 00 00 00  Length = 1189426 BitCount = 123 ID = 873
   9.723055 2  470             Rx   d 8 40 00 00 00 00 00 00 16  Length = 1199426 BitCount = 124 ID = 1136
   9.723815 2  635             Rx   d 3 00 00 37  Length = 719438 BitCount = 76 ID = 1589
   9.731675 2  381             Rx   d 6 00 00 00 00 00 00  Length = 1029430 BitCount = 107 ID = 897
   9.732525 2  531             Rx   d 4 00 20 A0 80  Length = 799449 BitCount = 84 ID = 1329
   9.740305 2  40C             Rx   d 8 16 01 01 04 00 04 00 00  Length = 1189426 BitCount = 123 ID = 1036
   9.741835 2  397             Rx   d 8 00 00 00 00 00 00 00 00  Length = 1199426 BitCount = 124 ID = 919
   9.742885 2  4B9             Rx   d 6 00 00 00 00 00 00  Length = 1009430 BitCount = 105 ID = 1209
   9.743715 2  653             Rx   d 4 81 01 41 01  Length = 789438 BitCount = 83 ID = 1619
   9.751594 2  4BD             Rx   d 6 00 00 00 00 00 00  Length = 999430 BitCount = 104 ID = 1213
   9.752804 2  658             Rx   d 8 78 28 00 08 00 91 00 00  Length = 1169426 BitCount = 121 ID = 1624
   9.754384 2  52D             Rx   d 8 FE 7F FF 0F FF 0F FF 0F  Length = 1169441 BitCount = 121 ID = 1325
   9.760024 2  3E1             Rx   d 8 80 00 00 00 00 00 84 F8  Length = 1189426 BitCount = 123 ID = 993
   9.761644 2  3B5             Rx   d 6 00 00 00 00 00 00  Length = 1029445 BitCount = 107 ID = 949
   9.762834 2  527             Rx   d 8 00 01 00 10 71 72 6E 08  Length = 1149426 BitCount = 119 ID = 1319
   9.771823 2  470             Rx   d 8 40 00 00 00 00 00 00 16  Length = 1199426 BitCount = 124 ID = 1136
   9.779353 2  52F             Rx   d 8 00 00 B6 10 50 10 37 10  Length = 1139430 BitCount = 118 ID = 1327
   9.780523 2  65F             Rx   d 8 01 00 00 00 00 00 00 00  Length = 1129430 BitCount = 117 ID = 1631
   9.781703 2  621             Rx   d 8 00 ED 72 00 00 47 37 00  Length = 1139441 BitCount = 118 ID = 1569
   9.782753 2  2C1             Rx   d 6 00 00 00 00 02 00  Length = 1009430 BitCount = 105 ID = 705
   9.783592 2  531             Rx   d 4 00 20 B0 90  Length = 789438 BitCount = 83 ID = 1329
   9.784742 2  651             Rx   d 8 80 02 50 AF 39 59 01 00  Length = 1109430 BitCount = 115 ID = 1617
   9.785972 2  436             Rx   d 8 00 01 01 04 00 00 02 00  Length = 1189426 BitCount = 123 ID = 1078
   9.791732 2  359             Rx   d 8 FF 89 FF 7F 1D 6B 80 00  Length = 1139430 BitCount = 118 ID = 857
   9.794632 2  481             Rx   d 2 01 00  Length = 639442 BitCount = 68 ID = 1153
   9.801771 2  35B             Rx   d 8 0F 00 00 00 20 19 0C 00  Length = 1169441 BitCount = 121 ID = 859
   9.802511 2  457             Rx   d 3 00 47 00  Length = 699442 BitCount = 74 ID = 1111
   9.804061 2  532             Rx   d 8 00 00 8E 10 2F 10 25 10  Length = 1129430 BitCount = 117 ID = 1330
   9.811761 2  320             Rx   d 8 00 00 00 01 00 09 00 80  Length = 1189426 BitCount = 123 ID = 800
   9.812621 2  575             Rx   d 4 00 00 00 00  Length = 819449 BitCount = 86 ID = 1397
   9.821790 2  367             Rx   d 8 FF 00 00 00 7E F0 01 00  Length = 1169441 BitCount = 121 ID = 871
   9.823030 2  369             Rx   d 8 3F 00 00 D0 FF 00 00 00  Length = 1189426 BitCount = 123 ID = 873
   9.824270 2  470             Rx   d 8 40 00 00 00 00 00 00 16  Length = 1199441 BitCount = 124 ID = 1136
   9.831609 2  381             Rx   d 6 00 00 00 00 00 00  Length = 1029430 BitCount = 107 ID = 897
   9.832459 2  531             Rx   d 4 00 20 C0 E0  Length = 799438 BitCount = 84 ID = 1329
   9.833689 2  400             Rx   d 8 0C 01 01 04 04 04 00 00  Length = 1189426 BitCount = 123 ID = 1024
   9.841799 2  397             Rx   d 8 00 00 00 00 00 00 00 00  Length = 1199426 BitCount = 124 ID = 919
   9.842849 2  4B9             Rx   d 6 00 00 00 00 00 00  Length = 1009430 BitCount = 105 ID = 1209
   9.844089 2  591             Rx   d 8 00 00 08 00 00 00 00 00  Length = 1199426 BitCount = 124 ID = 1425
   9.845269 2  655             Rx   d 8 75 00 F0 03 18 00 80 C0  Length = 1139441 BitCount = 118 ID = 1621
   9.851578 2  4BD             Rx   d 6 00 00 00 00 00 00  Length = 999430 BitCount = 104 ID = 1213
   9.852788 2  658             Rx   d 8 78 28 00 08 00 91 00 00  Length = 1169426 BitCount = 121 ID = 1624
   9.859998 2  3E1             Rx   d 8 80 00 00 00 00 00 84 F8  Length = 1189426 BitCount = 123 ID = 993
   9.861168 2  5E1             Rx   d 7 00 00 00 00 00 00 00  Length = 1109430 BitCount = 115 ID = 1505
   9.862238 2  3B5             Rx   d 6 00 00 00 00 00 00  Length = 1029445 BitCount = 107 ID = 949
   9.862908 2  5D1             Rx   d 2 10 00  Length = 629442 BitCount = 67 ID = 1489
   9.863908 2  6B4             Rx   d 6 A8 01 C2 02 8E 22  Length = 959430 BitCount = 100 ID = 1716
   9.871777 2  470             Rx   d 8 40 00 00 00 00 00 00 16  Length = 1199426 BitCount = 124 ID = 1136
   9.879357 2  621             Rx   d 8 00 ED 72 00 00 47 37 00  Length = 1139441 BitCount = 118 ID = 1569
   9.880587 2  40C             Rx   d 8 16 01 01 04 00 04 00 00  Length = 1189426 BitCount = 123 ID = 1036
   9.881667 2  2C1             Rx   d 6 00 00 00 00 02 00  Length = 1009430 BitCount = 105 ID = 705
   9.882517 2  531             Rx   d 4 00 20 D0 F0  Length = 799449 BitCount = 84 ID = 1329
   9.883667 2  651             Rx   d 8 80 02 50 AF 39 59 01 00  Length = 1109430 BitCount = 115 ID = 1617
   9.891727 2  359             Rx   d 8 FF 89 FF 7F 1D 6B 80 00  Length = 1139430 BitCount = 118 ID = 857
   9.897356 2  67C             Rx   d 2 1C 42  Length = 609446 BitCount = 65 ID = 1660
   9.901776 2  35B             Rx   d 8 0F 00 00 00 20 19 0C 00  Length = 1169426 BitCount = 121 ID = 859
   9.902516 2  457             Rx   d 3 00 47 00  Length = 699442 BitCount = 74 ID = 1111
   9.921835 2  369             Rx   d 8 3F 00 00 D0 FF 00 00 00  Length = 1189426 BitCount = 123 ID = 873
   9.923075 2  470             Rx   d 8 40 00 00 00 00 00 00 16  Length = 1199426 BitCount = 124 ID = 1136
   9.923834 2  635             Rx   d 3 00 00 37  Length = 719438 BitCount = 76 ID = 1589
   9.925184 2  436             Rx   d 8 00 01 01 04 00 00 02 00  Length = 1189426 BitCount = 123 ID = 1078
   9.931594 2  381             Rx   d 6 00 00 00 00 00 00  Length = 1029445 BitCount = 107 ID = 897
   9.932444 2  531             Rx   d 4 00 20 E0 C0  Length = 799438 BitCount = 84 ID = 1329
   9.941793 2  397             Rx   d 8 00 00 00 00 00 00 00 00  Length = 1199426 BitCount = 124 ID = 919
   9.942843 2  4B9             Rx   d 6 00 00 00 00 00 00  Length = 1009430 BitCount = 105 ID = 1209
   9.951573 2  4BD             Rx   d 6 00 00 00 00 00 00  Length = 999445 BitCount = 104 ID = 1213
   9.952783 2  658             Rx   d 8 78 28 00 08 00 91 00 00  Length = 1169426 BitCount = 121 ID = 1624
   9.960133 2  3E1             Rx   d 8 80 00 00 00 00 00 84 F8  Length = 1189426 BitCount = 123 ID = 993
   9.961403 2  3E9             Rx   d 8 00 00 00 00 00 00 00 00  Length = 1209426 BitCount = 125 ID = 1001
   9.962473 2  3B5             Rx   d 6 00 00 00 00 00 00  Length = 1029430 BitCount = 107 ID = 949
   9.963663 2  527             Rx   d 8 10 01 00 10 71 72 6E 08  Length = 1149426 BitCount = 119 ID = 1319
   9.964913 2  5E8             Rx   d 8 00 40 00 00 00 00 40 00  Length = 1209426 BitCount = 125 ID = 1512
   9.971793 2  470             Rx   d 8 40 00 00 00 00 00 00 16  Length = 1199441 BitCount = 124 ID = 1136
   9.973023 2  400             Rx   d 8 0C 01 01 04 04 00 00 00  Length = 1189426 BitCount = 123 ID = 1024
   9.979312 2  65F             Rx   d 8 02 00 00 00 00 00 00 00  Length = 1119430 BitCount = 116 ID = 1631
   9.980532 2  3E1             Rx   d 8 00 00 FF 00 00 00 84 78  Length = 1179441 BitCount = 122 ID = 993
   9.981712 2  621             Rx   d 8 00 ED 72 00 00 47 37 00  Length = 1139430 BitCount = 118 ID = 1569
   9.982762 2  2C1             Rx   d 6 00 00 00 00 02 00  Length = 1009430 BitCount = 105 ID = 705
   9.983622 2  531             Rx   d 4 00 20 F0 D0  Length = 809449 BitCount = 85 ID = 1329
   9.984772 2  651             Rx   d 8 80 02 50 AF 39 59 01 00  Length = 1109430 BitCount = 115 ID = 1617
   9.991722 2  359             Rx   d 8 FF 89 FF 7F 1D 6B 80 00  Length = 1139441 BitCount = 118 ID = 857
   9.997951 2  67D             Rx   d 4 40 00 01 14  Length = 799449 BitCount = 84 ID = 1661
  10.001751 2  35B             Rx   d 8 0F 00 00 00 20 19 0C 00  Length = 1169426 BitCount = 121 ID = 859
  10.002491 2  457             Rx   d 3 00 47 00  Length = 699453 BitCount = 74 ID = 1111
  10.005341 2  66C             Rx   d 8 0C 42 03 00 31 00 03 01  Length = 1159426 BitCount = 120 ID = 1644
  10.011751 2  320             Rx   d 8 00 00 00 01 00 01 00 80  Length = 1189426 BitCount = 123 ID = 800
  10.012611 2  575             Rx   d 4 00 00 00 00  Length = 819434 BitCount = 86 ID = 1397
  10.017565 CAN 1 Status:chip status error active
  10.017565 CAN 2 Status:chip status error active
  10.020091 2  40C             Rx   d 8 16 01 01 04 00 04 00 00  Length = 1189426 BitCount = 123 ID = 1036
  10.021781 2  367             Rx   d 8 FF 00 00 00 7E F0 01 00  Length = 1169426 BitCount = 121 ID = 871
  10.023021 2  369             Rx   d 8 3F 00 00 D0 FF 00 00 00  Length = 1189441 BitCount = 123 ID = 873
  10.024261 2  470             Rx   d 8 40 00 00 00 00 00 00 16  Length = 1199426 BitCount = 124 ID = 1136
  10.031590 2  381             Rx   d 6 00 00 00 00 00 00  Length = 1029430 BitCount = 107 ID = 897
  10.032450 2  531             Rx   d 4 00 20 00 20  Length = 809449 BitCount = 85 ID = 1329
  10.036760 2  69D             Rx   d 2 14 42  Length = 619457 BitCount = 66 ID = 1693
  10.041800 2  397             Rx   d 8 00 00 00 00 00 00 00 00  Length = 1199426 BitCount = 124 ID = 919
  10.042850 2  4B9             Rx   d 6 00 00 00 00 00 00  Length = 1009445 BitCount = 105 ID = 1209
  10.044090 2  591             Rx   d 8 00 00 08 00 00 00 00 00  Length = 1199441 BitCount = 124 ID = 1425
  10.045340 2  5F5             Rx   d 8 00 10 00 00 00 00 00 00  Length = 1209426 BitCount = 125 ID = 1525
  10.046720 2  67A             Rx   d 2 17 42  Length = 599446 BitCount = 64 ID = 1658
  10.051560 2  4BD             Rx   d 6 00 00 00 00 00 00  Length = 999430 BitCount = 104 ID = 1213
  10.052770 2  658             Rx   d 8 78 28 00 08 00 91 00 00  Length = 1169441 BitCount = 121 ID = 1624
  10.059900 2  3E1             Rx   d 8 00 00 FF 00 00 00 84 78  Length = 1179426 BitCount = 122 ID = 993
  10.061070 2  5E1             Rx   d 7 00 00 00 00 00 00 00  Length = 1109430 BitCount = 115 ID = 1505
  10.062140 2  3B5             Rx   d 6 00 00 00 00 00 00  Length = 1029430 BitCount = 107 ID = 949
  10.062810 2  5D1             Rx   d 2 10 00  Length = 629442 BitCount = 67 ID = 1489
  10.071190 2  436             Rx   d 8 00 01 01 04 00 00 02 00  Length = 1189426 BitCount = 123 ID = 1078
  10.072430 2  470             Rx   d 8 40 00 00 00 00 00 00 16  Length = 1199441 BitCount = 124 ID = 1136
  10.073679 2  64F             Rx   d 8 3F 00 00 00 00 00 00 00  Length = 1209426 BitCount = 125 ID = 1615
  10.079329 2  621             Rx   d 8 00 ED 72 00 00 47 37 00  Length = 1139430 BitCount = 118 ID = 1569
  10.082019 2  2C1             Rx   d 6 00 00 00 00 02 00  Length = 1009445 BitCount = 105 ID = 705
  10.082869 2  531             Rx   d 4 00 20 10 30  Length = 799438 BitCount = 84 ID = 1329
  10.084019 2  651             Rx   d 8 80 02 50 AF 39 59 01 00  Length = 1109445 BitCount = 115 ID = 1617
  10.088128 2  67C             Rx   d 2 1C 41  Length = 649442 BitCount = 69 ID = 1660
  10.091708 2  359             Rx   d 8 FF 89 FF 7F 1D 6B 80 00  Length = 1139430 BitCount = 118 ID = 857
  10.097448 2  66C             Rx   d 8 80 2E 4C 41 03 00 31 00  Length = 1139430 BitCount = 118 ID = 1644
  10.101758 2  35B             Rx   d 8 0F 00 00 00 20 19 0C 00  Length = 1169426 BitCount = 121 ID = 859
  10.102498 2  457             Rx   d 3 00 47 00  Length = 699442 BitCount = 74 ID = 1111
  10.112377 2  400             Rx   d 8 0C 01 01 04 04 00 00 00  Length = 1189426 BitCount = 123 ID = 1024
  10.116807 2  69D             Rx   d 2 19 42  Length = 609446 BitCount = 65 ID = 1693
  10.121817 2  369             Rx   d 8 3F 00 00 D0 FF 00 00 00  Length = 1189426 BitCount = 123 ID = 873
  10.123067 2  470             Rx   d 8 40 00 00 00 00 00 00 16  Length = 1199426 BitCount = 124 ID = 1136
  10.123827 2  635             Rx   d 3 00 00 37  Length = 719438 BitCount = 76 ID = 1589
  10.127387 2  66C             Rx   d 8 C0 03 01 08 00 38 03 FF  Length = 1169426 BitCount = 121 ID = 1644
  10.131587 2  381             Rx   d 6 00 00 00 00 00 00  Length = 1029430 BitCount = 107 ID = 897
  10.132437 2  531             Rx   d 4 00 20 20 00  Length = 799438 BitCount = 84 ID = 1329
  10.141786 2  397             Rx   d 8 00 00 00 00 00 00 00 00  Length = 1199441 BitCount = 124 ID = 919
  10.142836 2  4B9             Rx   d 6 00 00 00 00 00 00  Length = 1009430 BitCount = 105 ID = 1209
  10.151555 2  4BD             Rx   d 6 00 00 00 00 00 00  Length = 999430 BitCount = 104 ID = 1213
  10.152765 2  658             Rx   d 8 78 28 00 08 00 91 00 00  Length = 1169426 BitCount = 121 ID = 1624
  10.157395 2  66C             Rx   d 8 C1 BC 00 00 00 00 0A 1E  Length = 1159426 BitCount = 120 ID = 1644
  10.160085 2  3E1             Rx   d 8 00 00 00 00 00 00 84 78  Length = 1199426 BitCount = 124 ID = 993
  10.161335 2  40C             Rx   d 8 16 01 01 04 00 04 00 00  Length = 1189426 BitCount = 123 ID = 1036
  10.162405 2  3B5             Rx   d 6 00 00 00 00 00 00  Length = 1029430 BitCount = 107 ID = 949
  10.163595 2  527             Rx   d 8 10 01 00 10 71 72 6E 08  Length = 1149426 BitCount = 119 ID = 1319
  10.164615 2  571             Rx   d 6 94 1F 00 08 04 00  Length = 979430 BitCount = 102 ID = 1393
  10.172015 2  470             Rx   d 8 40 00 00 00 00 00 00 16  Length = 1199441 BitCount = 124 ID = 1136
  10.179304 2  65F             Rx   d 8 00 AA 8C 8E C0 00 00 00  Length = 1119441 BitCount = 116 ID = 1631
  10.180484 2  621             Rx   d 8 00 ED 72 00 00 47 37 00  Length = 1139430 BitCount = 118 ID = 1569
  10.181644 2  2C1             Rx   d 6 00 00 00 00 02 00  Length = 1009430 BitCount = 105 ID = 705
  10.182614 2  531             Rx   d 4 00 20 30 10  Length = 789438 BitCount = 83 ID = 1329
  10.183764 2  651             Rx   d 8 80 02 50 AF 39 59 01 00  Length = 1109430 BitCount = 115 ID = 1617
  10.187374 2  66C             Rx   d 8 C2 00 00 00 00 00 02 00  Length = 1179426 BitCount = 122 ID = 1644
  10.191703 2  359             Rx   d 8 FF 89 FF 7F 1D 6B 80 00  Length = 1139430 BitCount = 118 ID = 857
  10.201743 2  35B             Rx   d 8 0F 00 00 00 20 19 0C 00  Length = 1169426 BitCount = 121 ID = 859
  10.202483 2  457             Rx   d 3 00 47 00  Length = 699442 BitCount = 74 ID = 1111
  10.211183 2  436             Rx   d 8 00 01 01 04 00 00 02 00  Length = 1189426 BitCount = 123 ID = 1078
  10.212413 2  320             Rx   d 8 00 00 00 01 00 09 00 80  Length = 1189426 BitCount = 123 ID = 800
  10.213272 2  575             Rx   d 4 00 00 00 00  Length = 819434 BitCount = 86 ID = 1397
  10.217322 2  66C             Rx   d 8 C3 00 00 00 00 00 00 06  Length = 1179426 BitCount = 122 ID = 1644
  10.221752 2  367             Rx   d 8 FF 00 00 00 7E F0 01 00  Length = 1169441 BitCount = 121 ID = 871
  10.222992 2  369             Rx   d 8 3F 00 00 D0 FF 00 00 00  Length = 1189426 BitCount = 123 ID = 873
  10.224232 2  470             Rx   d 8 40 00 00 00 00 00 00 16  Length = 1199441 BitCount = 124 ID = 1136
  10.231582 2  381             Rx   d 6 00 00 00 00 00 00  Length = 1029430 BitCount = 107 ID = 897
  10.232442 2  531             Rx   d 4 00 20 40 60  Length = 809434 BitCount = 85 ID = 1329
  10.241781 2  397             Rx   d 8 00 00 00 00 00 00 00 00  Length = 1199426 BitCount = 124 ID = 919
  10.242831 2  4B9             Rx   d 6 00 00 00 00 00 00  Length = 1009430 BitCount = 105 ID = 1209
  10.244071 2  591             Rx   d 8 00 00 08 00 00 00 00 00  Length = 1199426 BitCount = 124 ID = 1425
  10.244901 2  653             Rx   d 4 81 01 41 01  Length = 789449 BitCount = 83 ID = 1619
  10.247441 2  66C             Rx   d 8 C4 00 00 00 00 00 00 00  Length = 1199441 BitCount = 124 ID = 1644
  10.251551 2  4BD             Rx   d 6 00 00 00 00 00 00  Length = 999430 BitCount = 104 ID = 1213
  10.252760 2  658             Rx   d 8 78 28 00 08 00 92 00 00  Length = 1169426 BitCount = 121 ID = 1624
  10.259850 2  3E1             Rx   d 8 00 00 00 00 00 00 84 78  Length = 1199426 BitCount = 124 ID = 993
  10.261100 2  3E3             Rx   d 8 00 00 8D 00 00 00 00 00  Length = 1189426 BitCount = 123 ID = 995
  10.262170 2  3B5             Rx   d 6 00 00 00 00 00 00  Length = 1029445 BitCount = 107 ID = 949
  10.262840 2  5D1             Rx   d 2 10 00  Length = 629442 BitCount = 67 ID = 1489
  10.264070 2  400             Rx   d 8 0C 01 01 04 04 00 00 00  Length = 1189426 BitCount = 123 ID = 1024
  10.265221 2  5E1             Rx   d 7 00 00 00 00 00 00 00  Length = 1109430 BitCount = 115 ID = 1505
  10.271750 2  470             Rx   d 8 40 00 00 00 00 00 00 16  Length = 1199426 BitCount = 124 ID = 1136
  10.277350 2  66C             Rx   d 8 C5 00 02 00 00 00 16 00  Length = 1179426 BitCount = 122 ID = 1644
  10.279360 2  621             Rx   d 8 00 ED 72 00 00 47 37 00  Length = 1139430 BitCount = 118 ID = 1569
  10.281620 2  2C1             Rx   d 6 00 00 00 00 02 00  Length = 1009430 BitCount = 105 ID = 705
  10.282480 2  531             Rx   d 4 00 20 50 70  Length = 809449 BitCount = 85 ID = 1329
  10.283630 2  651             Rx   d 8 80 02 50 AF 39 59 01 00  Length = 1109430 BitCount = 115 ID = 1617
  10.291699 2  359             Rx   d 8 FF 89 FF 7F 1D 6B 80 00  Length = 1139430 BitCount = 118 ID = 857
  10.301749 2  35B             Rx   d 8 0F 00 00 00 20 19 0C 00  Length = 1169426 BitCount = 121 ID = 859
  10.302489 2  457             Rx   d 3 00 47 00  Length = 699442 BitCount = 74 ID = 1111
  10.310129 2  40C             Rx   d 8 16 01 01 04 00 04 00 00  Length = 1189426 BitCount = 123 ID = 1036
  10.321798 2  369             Rx   d 8 3F 00 00 D0 FF 00 00 00  Length = 1189426 BitCount = 123 ID = 873
  10.323038 2  470             Rx   d 8 40 00 00 00 00 00 00 16  Length = 1199426 BitCount = 124 ID = 1136
  10.323798 2  635             Rx   d 3 00 00 37  Length = 719438 BitCount = 76 ID = 1589
  10.331577 2  381             Rx   d 6 00 00 00 00 00 00  Length = 1029445 BitCount = 107 ID = 897
  10.332427 2  531             Rx   d 4 00 20 60 40  Length = 799438 BitCount = 84 ID = 1329
  10.341767 2  397             Rx   d 8 00 00 00 00 00 00 00 00  Length = 1199426 BitCount = 124 ID = 919
  10.342817 2  4B9             Rx   d 6 00 00 00 00 00 00  Length = 1009430 BitCount = 105 ID = 1209
  10.343997 2  655             Rx   d 8 75 00 F0 03 18 00 80 C0  Length = 1139430 BitCount = 118 ID = 1621
  10.351656 2  4BD             Rx   d 6 00 00 00 00 00 00  Length = 999430 BitCount = 104 ID = 1213
  10.352866 2  658             Rx   d 8 78 28 00 08 00 92 00 00  Length = 1169426 BitCount = 121 ID = 1624
  10.359946 2  3E1             Rx   d 8 00 00 00 00 00 00 84 78  Length = 1199426 BitCount = 124 ID = 993
  10.361196 2  436             Rx   d 8 00 01 01 04 00 00 02 00  Length = 1189441 BitCount = 123 ID = 1078
  10.362266 2  3B5             Rx   d 6 00 00 00 00 00 00  Length = 1029445 BitCount = 107 ID = 949
  10.363456 2  527             Rx   d 8 10 01 00 10 71 72 6E 08  Length = 1149441 BitCount = 119 ID = 1319
  10.364456 2  6B4             Rx   d 6 A8 01 C2 02 8E 22  Length = 959430 BitCount = 100 ID = 1716
  10.371765 2  470             Rx   d 8 40 00 00 00 00 00 00 16  Length = 1199441 BitCount = 124 ID = 1136
  10.379315 2  65F             Rx   d 8 01 00 00 00 00 00 00 00  Length = 1129430 BitCount = 117 ID = 1631
  10.380495 2  621             Rx   d 8 00 ED 72 00 00 47 37 00  Length = 1139441 BitCount = 118 ID = 1569
  10.381625 2  2C1             Rx   d 6 00 00 00 00 02 00  Length = 1009430 BitCount = 105 ID = 705
  10.382475 2  531             Rx   d 4 00 20 70 50  Length = 799438 BitCount = 84 ID = 1329
  10.383625 2  651             Rx   d 8 80 02 50 AF 39 59 01 00  Length = 1109430 BitCount = 115 ID = 1617
  10.391684 2  359             Rx   d 8 FF 89 FF 7F 1D 6B 80 00  Length = 1139430 BitCount = 118 ID = 857
  10.401733 2  35B             Rx   d 8 0F 00 00 00 20 19 0C 00  Length = 1169426 BitCount = 121 ID = 859
  10.402473 2  457             Rx   d 3 00 47 00  Length = 699442 BitCount = 74 ID = 1111
  10.411723 2  320             Rx   d 8 00 00 00 01 00 01 00 80  Length = 1189426 BitCount = 123 ID = 800
  10.412583 2  575             Rx   d 4 00 00 00 00  Length = 819434 BitCount = 86 ID = 1397
  10.413753 2  65D             Rx   d 8 82 2B 27 D0 70 AF 94 13  Length = 1129430 BitCount = 117 ID = 1629
  10.414983 2  400             Rx   d 8 0C 01 01 04 04 00 00 00  Length = 1189426 BitCount = 123 ID = 1024
  10.421742 2  367             Rx   d 8 FF 00 00 00 7E F0 01 00  Length = 1169426 BitCount = 121 ID = 871
  10.422982 2  369             Rx   d 8 3F 00 00 D0 FF 00 00 00  Length = 1189426 BitCount = 123 ID = 873
  10.424222 2  470             Rx   d 8 40 00 00 00 00 00 00 16  Length = 1199426 BitCount = 124 ID = 1136
  10.431562 2  381             Rx   d 6 00 00 00 00 00 00  Length = 1029430 BitCount = 107 ID = 897
  10.432411 2  531             Rx   d 4 00 20 80 A0  Length = 799449 BitCount = 84 ID = 1329
  10.441801 2  397             Rx   d 8 00 00 00 00 00 00 00 00  Length = 1199426 BitCount = 124 ID = 919
  10.442851 2  4B9             Rx   d 6 00 00 00 00 00 00  Length = 1009430 BitCount = 105 ID = 1209
  10.444091 2  591             Rx   d 8 00 00 08 00 00 00 00 00  Length = 1199441 BitCount = 124 ID = 1425
  10.451540 2  4BD             Rx   d 6 00 00 00 00 00 00  Length = 999430 BitCount = 104 ID = 1213
  10.452750 2  658             Rx   d 8 78 28 00 08 00 92 00 00  Length = 1169426 BitCount = 121 ID = 1624
  10.459850 2  3E1             Rx   d 8 00 00 00 00 00 00 84 78  Length = 1199426 BitCount = 124 ID = 993
  10.461120 2  3E9             Rx   d 8 00 00 00 00 00 00 00 00  Length = 1209426 BitCount = 125 ID = 1001
  10.462190 2  3B5             Rx   d 6 00 00 00 00 00 00  Length = 1029430 BitCount = 107 ID = 949
  10.463420 2  40C             Rx   d 8 16 01 01 04 00 04 00 00  Length = 1189426 BitCount = 123 ID = 1036
  10.464090 2  5D1             Rx   d 2 10 00  Length = 629442 BitCount = 67 ID = 1489
  10.465240 2  5E1             Rx   d 7 00 00 00 00 00 00 00  Length = 1109430 BitCount = 115 ID = 1505
  10.466510 2  5E8             Rx   d 8 00 40 00 00 00 00 40 00  Length = 1209426 BitCount = 125 ID = 1512
  10.471740 2  470             Rx   d 8 40 00 00 00 00 00 00 16  Length = 1199426 BitCount = 124 ID = 1136
  10.479299 2  621             Rx   d 8 00 ED 72 00 00 47 37 00  Length = 1139430 BitCount = 118 ID = 1569
  10.481589 2  2C1             Rx   d 6 00 00 00 00 02 00  Length = 1009430 BitCount = 105 ID = 705
  10.482419 2  531             Rx   d 4 00 20 90 B0  Length = 779438 BitCount = 82 ID = 1329
  10.483569 2  651             Rx   d 8 80 02 50 AF 39 59 01 00  Length = 1109445 BitCount = 115 ID = 1617
  10.491679 2  359             Rx   d 8 FF 89 FF 7F 1D 6B 80 00  Length = 1139430 BitCount = 118 ID = 857
  10.501738 2  35B             Rx   d 8 0F 00 00 00 20 19 0C 00  Length = 1169426 BitCount = 121 ID = 859
  10.502478 2  457             Rx   d 3 00 47 00  Length = 699442 BitCount = 74 ID = 1111
  10.511188 2  436             Rx   d 8 00 01 01 04 00 00 02 00  Length = 1189426 BitCount = 123 ID = 1078
  10.521747 2  369             Rx   d 8 3F 00 00 D0 FF 00 00 00  Length = 1189426 BitCount = 123 ID = 873
  10.522987 2  470             Rx   d 8 40 00 00 00 00 00 00 16  Length = 1199426 BitCount = 124 ID = 1136
  10.523747 2  635             Rx   d 3 00 00 37  Length = 719438 BitCount = 76 ID = 1589
  10.528487 2  60E             Rx   d 2 08 02  Length = 629457 BitCount = 67 ID = 1550
  10.531557 2  381             Rx   d 6 00 00 00 00 00 00  Length = 1029430 BitCount = 107 ID = 897
  10.532407 2  531             Rx   d 4 00 20 A0 80  Length = 799438 BitCount = 84 ID = 1329
  10.540627 2  481             Rx   d 2 01 00  Length = 639442 BitCount = 68 ID = 1153
  10.541866 2  397             Rx   d 8 00 00 00 00 00 00 00 00  Length = 1199426 BitCount = 124 ID = 919
  10.542916 2  4B9             Rx   d 6 00 00 00 00 00 00  Length = 1009430 BitCount = 105 ID = 1209
  10.544166 2  5F5             Rx   d 8 00 10 00 00 00 00 00 00  Length = 1209441 BitCount = 125 ID = 1525
  10.545407 2  661             Rx   d 8 00 00 00 00 00 00 00 00  Length = 1199426 BitCount = 124 ID = 1633
  10.546547 2  665             Rx   d 7 00 00 00 00 00 00 00  Length = 1099430 BitCount = 114 ID = 1637
  10.547227 2  666             Rx   d 2 00 00  Length = 639442 BitCount = 68 ID = 1638
  10.551526 2  4BD             Rx   d 6 00 00 00 00 00 00  Length = 999430 BitCount = 104 ID = 1213
  10.552736 2  658             Rx   d 8 78 28 00 08 00 92 00 00  Length = 1169426 BitCount = 121 ID = 1624
  10.559756 2  3E1             Rx   d 8 00 00 00 00 00 00 84 78  Length = 1199426 BitCount = 124 ID = 993
  10.561576 2  3B5             Rx   d 6 00 00 00 00 00 00  Length = 1029445 BitCount = 107 ID = 949
  10.562766 2  527             Rx   d 8 10 01 00 10 71 72 6E 08  Length = 1149426 BitCount = 119 ID = 1319
  10.563996 2  400             Rx   d 8 0C 01 01 04 04 00 00 00  Length = 1189426 BitCount = 123 ID = 1024
  10.571746 2  470             Rx   d 8 40 00 00 00 00 00 00 16  Length = 1199426 BitCount = 124 ID = 1136
  10.572995 2  64F             Rx   d 8 3F 00 00 00 00 00 00 00  Length = 1209441 BitCount = 125 ID = 1615
  10.579265 2  65F             Rx   d 8 02 00 00 00 00 00 00 00  Length = 1119441 BitCount = 116 ID = 1631
  10.580445 2  621             Rx   d 8 00 ED 72 00 00 47 37 00  Length = 1139430 BitCount = 118 ID = 1569
  10.581615 2  2C1             Rx   d 6 00 00 00 00 02 00  Length = 1009445 BitCount = 105 ID = 705
  10.582455 2  531             Rx   d 4 00 20 B0 90  Length = 789438 BitCount = 83 ID = 1329
  10.583605 2  651             Rx   d 8 80 02 50 AF 39 59 01 00  Length = 1109445 BitCount = 115 ID = 1617
  10.591694 2  359             Rx   d 8 FF 89 FF 7F 1D 6B 80 00  Length = 1139430 BitCount = 118 ID = 857
  10.601714 2  35B             Rx   d 8 0F 00 00 00 20 19 0C 00  Length = 1169426 BitCount = 121 ID = 859
  10.602454 2  457             Rx   d 3 00 47 00  Length = 699442 BitCount = 74 ID = 1111
  10.610084 2  40C             Rx   d 8 16 01 01 04 00 04 00 00  Length = 1189426 BitCount = 123 ID = 1036
  10.611714 2  320             Rx   d 8 00 00 00 01 00 09 00 80  Length = 1189426 BitCount = 123 ID = 800
  10.612573 2  575             Rx   d 4 00 00 00 00  Length = 819434 BitCount = 86 ID = 1397
  10.621743 2  367             Rx   d 8 FF 00 00 00 7E F0 01 00  Length = 1169426 BitCount = 121 ID = 871
  10.622983 2  369             Rx   d 8 3F 00 00 D0 FF 00 00 00  Length = 1189426 BitCount = 123 ID = 873
  10.624223 2  470             Rx   d 8 40 00 00 00 00 00 00 16  Length = 1199426 BitCount = 124 ID = 1136
  10.629432 2  629             Rx   d 8 FF 0F FF 7F 2B 27 40 00  Length = 1139430 BitCount = 118 ID = 1577
  10.631552 2  381             Rx   d 6 00 00 00 00 00 00  Length = 1029430 BitCount = 107 ID = 897
  10.632402 2  531             Rx   d 4 00 20 C0 E0  Length = 799438 BitCount = 84 ID = 1329
  10.636832 2  69D             Rx   d 2 14 42  Length = 619457 BitCount = 66 ID = 1693
  10.641742 2  397             Rx   d 8 00 00 00 00 00 00 00 00  Length = 1199426 BitCount = 124 ID = 919
  10.642792 2  4B9             Rx   d 6 00 00 00 00 00 00  Length = 1009430 BitCount = 105 ID = 1209
  10.644032 2  591             Rx   d 8 00 00 08 00 00 00 00 00  Length = 1199426 BitCount = 124 ID = 1425
  10.646812 2  67A             Rx   d 2 17 42  Length = 599446 BitCount = 64 ID = 1658
  10.651522 2  4BD             Rx   d 6 00 00 00 00 00 00  Length = 999430 BitCount = 104 ID = 1213
  10.652732 2  658             Rx   d 8 78 28 00 08 00 92 00 00  Length = 1169426 BitCount = 121 ID = 1624
  10.654312 2  62B             Rx   d 8 00 10 06 40 0B 00 21 40  Length = 1149426 BitCount = 119 ID = 1579
  10.659912 2  3E1             Rx   d 8 00 00 00 00 00 00 84 78  Length = 1199441 BitCount = 124 ID = 993
  10.661082 2  5E1             Rx   d 7 00 00 00 00 00 00 00  Length = 1109445 BitCount = 115 ID = 1505
  10.662152 2  3B5             Rx   d 6 00 00 00 00 00 00  Length = 1029445 BitCount = 107 ID = 949
  10.663382 2  436             Rx   d 8 00 01 01 04 00 00 02 00  Length = 1189426 BitCount = 123 ID = 1078
  10.664402 2  571             Rx   d 6 94 1F 00 08 04 00  Length = 979430 BitCount = 102 ID = 1393
  10.665072 2  5D1             Rx   d 2 10 00  Length = 629442 BitCount = 67 ID = 1489
  10.671721 2  470             Rx   d 8 40 00 00 00 00 00 00 16  Length = 1199426 BitCount = 124 ID = 1136
  10.679291 2  621             Rx   d 8 00 ED 72 00 00 47 37 00  Length = 1139430 BitCount = 118 ID = 1569
  10.680461 2  62D             Rx   d 8 00 10 27 41 B4 03 13 40  Length = 1129430 BitCount = 117 ID = 1581
  10.681611 2  2C1             Rx   d 6 00 00 00 00 02 00  Length = 1009430 BitCount = 105 ID = 705
  10.682460 2  531             Rx   d 4 00 20 D0 F0  Length = 799449 BitCount = 84 ID = 1329
  10.683610 2  651             Rx   d 8 80 02 50 AF 39 59 01 00  Length = 1109430 BitCount = 115 ID = 1617
  10.691670 2  359             Rx   d 8 FF 89 FF 7F 1D 6B 80 00  Length = 1139441 BitCount = 118 ID = 857
  10.701719 2  35B             Rx   d 8 0F 00 00 00 20 19 0C 00  Length = 1169426 BitCount = 121 ID = 859
  10.702459 2  457             Rx   d 3 00 47 00  Length = 699442 BitCount = 74 ID = 1111
  10.712329 2  400             Rx   d 8 0C 01 01 04 04 00 00 00  Length = 1189426 BitCount = 123 ID = 1024
  10.716818 2  69D             Rx   d 2 19 42  Length = 609446 BitCount = 65 ID = 1693
  10.721748 2  369             Rx   d 8 3F 00 00 D0 FF 00 00 00  Length = 1189426 BitCount = 123 ID = 873
  10.722988 2  470             Rx   d 8 40 00 00 00 00 00 00 16  Length = 1199441 BitCount = 124 ID = 1136
  10.723748 2  635             Rx   d 3 00 00 37  Length = 719438 BitCount = 76 ID = 1589
  10.731548 2  381             Rx   d 6 00 00 00 00 00 00  Length = 1029445 BitCount = 107 ID = 897
  10.732398 2  531             Rx   d 4 00 20 E0 C0  Length = 799438 BitCount = 84 ID = 1329
  10.741737 2  397             Rx   d 8 00 00 00 00 00 00 00 00  Length = 1199426 BitCount = 124 ID = 919
  10.742787 2  4B9             Rx   d 6 00 00 00 00 00 00  Length = 1009445 BitCount = 105 ID = 1209
  10.743617 2  653             Rx   d 4 81 01 41 01  Length = 789438 BitCount = 83 ID = 1619
  10.751517 2  4BD             Rx   d 6 00 00 00 00 00 00  Length = 999430 BitCount = 104 ID = 1213
  10.752726 2  658             Rx   d 8 78 28 00 08 00 92 00 00  Length = 1169441 BitCount = 121 ID = 1624
  10.754306 2  52D             Rx   d 8 FE 7F FF 0F FF 0F FF 0F  Length = 1169426 BitCount = 121 ID = 1325
  10.759937 2  3E1             Rx   d 8 00 00 00 00 00 00 84 78  Length = 1199441 BitCount = 124 ID = 993
  10.761187 2  40C             Rx   d 8 16 01 01 04 00 04 00 00  Length = 1189426 BitCount = 123 ID = 1036
  10.762256 2  3B5             Rx   d 6 00 00 00 00 00 00  Length = 1029430 BitCount = 107 ID = 949
  10.763446 2  527             Rx   d 8 10 01 00 10 71 72 6E 08  Length = 1149441 BitCount = 119 ID = 1319
  10.771756 2  470             Rx   d 8 40 00 00 00 00 00 00 16  Length = 1199441 BitCount = 124 ID = 1136
  10.779275 2  52F             Rx   d 8 00 00 B6 10 50 10 37 10  Length = 1139430 BitCount = 118 ID = 1327
  10.780435 2  65F             Rx   d 8 00 AA 8C 8E C0 00 00 00  Length = 1119441 BitCount = 116 ID = 1631
  10.781615 2  621             Rx   d 8 00 ED 72 00 00 47 37 00  Length = 1139430 BitCount = 118 ID = 1569
  10.782665 2  2C1             Rx   d 6 00 00 00 00 02 00  Length = 1009430 BitCount = 105 ID = 705
  10.783525 2  531             Rx   d 4 00 20 F0 D0  Length = 809434 BitCount = 85 ID = 1329
  10.784675 2  651             Rx   d 8 80 02 50 AF 39 59 01 00  Length = 1109430 BitCount = 115 ID = 1617
  10.791684 2  359             Rx   d 8 FF 89 FF 7F 1D 6B 80 00  Length = 1139430 BitCount = 118 ID = 857
  10.801704 2  35B             Rx   d 8 0F 00 00 00 20 19 0C 00  Length = 1169426 BitCount = 121 ID = 859
  10.802444 2  457             Rx   d 3 00 47 00  Length = 699442 BitCount = 74 ID = 1111
  10.803974 2  532             Rx   d 8 00 00 8E 10 2F 10 25 10  Length = 1129441 BitCount = 117 ID = 1330
  10.811193 2  436             Rx   d 8 00 01 01 04 00 00 02 00  Length = 1189426 BitCount = 123 ID = 1078
  10.812423 2  320             Rx   d 8 00 00 00 01 00 01 00 80  Length = 1189426 BitCount = 123 ID = 800
  10.813283 2  575             Rx   d 4 00 00 00 00  Length = 819434 BitCount = 86 ID = 1397
  10.821713 2  367             Rx   d 8 FF 00 00 00 7E F0 01 00  Length = 1169426 BitCount = 121 ID = 871
  10.822952 2  369             Rx   d 8 3F 00 00 D0 FF 00 00 00  Length = 1189426 BitCount = 123 ID = 873
  10.824192 2  470             Rx   d 8 40 00 00 00 00 00 00 16  Length = 1199426 BitCount = 124 ID = 1136
  10.831542 2  381             Rx   d 6 00 00 00 00 00 00  Length = 1029430 BitCount = 107 ID = 897
  10.832402 2  531             Rx   d 4 00 20 00 20  Length = 809449 BitCount = 85 ID = 1329
  10.841731 2  397             Rx   d 8 00 00 00 00 00 00 00 00  Length = 1199426 BitCount = 124 ID = 919
  10.842781 2  4B9             Rx   d 6 00 00 00 00 00 00  Length = 1009430 BitCount = 105 ID = 1209
  10.844021 2  591             Rx   d 8 00 00 08 00 00 00 00 00  Length = 1199426 BitCount = 124 ID = 1425
  10.845201 2  655             Rx   d 8 75 00 F0 03 18 00 80 C0  Length = 1139430 BitCount = 118 ID = 1621
  10.851511 2  4BD             Rx   d 6 00 00 00 00 00 00  Length = 999430 BitCount = 104 ID = 1213
  10.852721 2  658             Rx   d 8 78 28 00 08 00 92 00 00  Length = 1169426 BitCount = 121 ID = 1624
  10.853951 2  400             Rx   d 8 0C 01 01 04 04 00 00 00  Length = 1189426 BitCount = 123 ID = 1024
  10.859730 2  3E1             Rx   d 8 00 00 00 00 00 00 84 78  Length = 1199441 BitCount = 124 ID = 993
  10.860900 2  5E1             Rx   d 7 00 00 00 00 00 00 00  Length = 1109430 BitCount = 115 ID = 1505
  10.861970 2  3B5             Rx   d 6 00 00 00 00 00 00  Length = 1029445 BitCount = 107 ID = 949
  10.862640 2  5D1             Rx   d 2 10 00  Length = 629442 BitCount = 67 ID = 1489
  10.863640 2  6B4             Rx   d 6 A8 01 C2 02 8E 22  Length = 959430 BitCount = 100 ID = 1716
  10.871710 2  470             Rx   d 8 40 00 00 00 00 00 00 16  Length = 1199426 BitCount = 124 ID = 1136
  10.879269 2  621             Rx   d 8 00 ED 72 00 00 47 37 00  Length = 1139430 BitCount = 118 ID = 1569
  10.881579 2  2C1             Rx   d 6 00 00 00 00 02 00  Length = 1009430 BitCount = 105 ID = 705
  10.882429 2  531             Rx   d 4 00 20 10 30  Length = 799438 BitCount = 84 ID = 1329
  10.883579 2  651             Rx   d 8 80 02 50 AF 39 59 01 00  Length = 1109445 BitCount = 115 ID = 1617
  10.891659 2  359             Rx   d 8 FF 89 FF 7F 1D 6B 80 00  Length = 1139430 BitCount = 118 ID = 857
  10.900278 2  40C             Rx   d 8 16 01 01 04 00 04 00 00  Length = 1189426 BitCount = 123 ID = 1036
  10.901708 2  35B             Rx   d 8 0F 00 00 00 20 19 0C 00  Length = 1169441 BitCount = 121 ID = 859
  10.902448 2  457             Rx   d 3 00 47 00  Length = 699442 BitCount = 74 ID = 1111
  10.921757 2  369             Rx   d 8 3F 00 00 D0 FF 00 00 00  Length = 1189441 BitCount = 123 ID = 873
  10.922997 2  470             Rx   d 8 40 00 00 00 00 00 00 16  Length = 1199426 BitCount = 124 ID = 1136
  10.923757 2  635             Rx   d 3 00 00 37  Length = 719438 BitCount = 76 ID = 1589
  10.931537 2  381             Rx   d 6 00 00 00 00 00 00  Length = 1029430 BitCount = 107 ID = 897
  10.932386 2  531             Rx   d 4 00 20 20 00  Length = 799438 BitCount = 84 ID = 1329
  10.941726 2  397             Rx   d 8 00 00 00 00 00 00 00 00  Length = 1199441 BitCount = 124 ID = 919
  10.942776 2  4B9             Rx   d 6 00 00 00 00 00 00  Length = 1009430 BitCount = 105 ID = 1209
  10.951196 2  436             Rx   d 8 00 01 01 04 00 00 02 00  Length = 1189441 BitCount = 123 ID = 1078
  10.952236 2  4BD             Rx   d 6 00 00 00 00 00 00  Length = 999430 BitCount = 104 ID = 1213
  10.953446 2  658             Rx   d 8 78 28 00 08 00 92 00 00  Length = 1169441 BitCount = 121 ID = 1624
  10.959966 2  3E1             Rx   d 8 00 00 00 00 00 00 84 78  Length = 1199426 BitCount = 124 ID = 993
  10.961236 2  3E9             Rx   d 8 00 00 00 00 00 00 00 00  Length = 1209426 BitCount = 125 ID = 1001
  10.962306 2  3B5             Rx   d 6 00 00 00 00 00 00  Length = 1029430 BitCount = 107 ID = 949
  10.963495 2  527             Rx   d 8 10 01 00 10 71 72 6E 08  Length = 1149426 BitCount = 119 ID = 1319
  10.964746 2  5E8             Rx   d 8 00 40 00 00 00 00 40 00  Length = 1209426 BitCount = 125 ID = 1512
  10.971735 2  470             Rx   d 8 40 00 00 00 00 00 00 16  Length = 1199426 BitCount = 124 ID = 1136
  10.979244 2  65F             Rx   d 8 01 00 00 00 00 00 00 00  Length = 1129441 BitCount = 117 ID = 1631
  10.980424 2  621             Rx   d 8 00 ED 72 00 00 47 37 00  Length = 1139430 BitCount = 118 ID = 1569
  10.981594 2  2C1             Rx   d 6 00 00 00 00 02 00  Length = 1009445 BitCount = 105 ID = 705
  10.982434 2  531             Rx   d 4 00 20 30 10  Length = 789449 BitCount = 83 ID = 1329
  10.983584 2  651             Rx   d 8 80 02 50 AF 39 59 01 00  Length = 1109430 BitCount = 115 ID = 1617
  10.991654 2  359             Rx   d 8 FF 89 FF 7F 1D 6B 80 00  Length = 1139430 BitCount = 118 ID = 857
  11.001693 2  35B             Rx   d 8 0F 00 00 00 20 19 0C 00  Length = 1169426 BitCount = 121 ID = 859
  11.002433 2  457             Rx   d 3 00 47 00  Length = 699442 BitCount = 74 ID = 1111
  11.003663 2  400             Rx   d 8 0C 01 01 04 04 00 00 00  Length = 1189426 BitCount = 123 ID = 1024
  11.011682 2  320             Rx   d 8 00 00 00 01 00 09 00 80  Length = 1189426 BitCount = 123 ID = 800
  11.012542 2  575             Rx   d 4 00 00 00 00  Length = 819434 BitCount = 86 ID = 1397
  11.017565 CAN 1 Status:chip status error active
  11.017565 CAN 2 Status:chip status error active
  11.021702 2  367             Rx   d 8 FF 00 00 00 7E F0 01 00  Length = 1169426 BitCount = 121 ID = 871
  11.022942 2  369             Rx   d 8 3F 00 00 D0 FF 00 00 00  Length = 1189426 BitCount = 123 ID = 873
  11.024182 2  470             Rx   d 8 40 00 00 00 00 00 00 16  Length = 1199426 BitCount = 124 ID = 1136
  11.031531 2  381             Rx   d 6 00 00 00 00 00 00  Length = 1029430 BitCount = 107 ID = 897
  11.032391 2  531             Rx   d 4 00 20 40 60  Length = 809434 BitCount = 85 ID = 1329
  11.041730 2  397             Rx   d 8 00 00 00 00 00 00 00 00  Length = 1199426 BitCount = 124 ID = 919
  11.042780 2  4B9             Rx   d 6 00 00 00 00 00 00  Length = 1009430 BitCount = 105 ID = 1209
  11.044020 2  591             Rx   d 8 00 00 08 00 00 00 00 00  Length = 1199426 BitCount = 124 ID = 1425
  11.045270 2  5F5             Rx   d 8 00 10 00 00 00 00 00 00  Length = 1209441 BitCount = 125 ID = 1525
  11.050040 2  40C             Rx   d 8 16 01 01 04 00 04 00 00  Length = 1189441 BitCount = 123 ID = 1036
  11.051500 2  4BD             Rx   d 6 00 00 00 00 00 00  Length = 999445 BitCount = 104 ID = 1213
  11.052710 2  658             Rx   d 8 78 28 00 08 00 92 00 00  Length = 1169426 BitCount = 121 ID = 1624
  11.059910 2  3E1             Rx   d 8 00 00 FF 00 00 00 84 78  Length = 1179426 BitCount = 122 ID = 993
  11.061160 2  3E3             Rx   d 8 00 00 8D 00 00 00 00 00  Length = 1189426 BitCount = 123 ID = 995
  11.062230 2  3B5             Rx   d 6 00 00 00 00 00 00  Length = 1029445 BitCount = 107 ID = 949
  11.062900 2  5D1             Rx   d 2 10 00  Length = 629442 BitCount = 67 ID = 1489
  11.064050 2  5E1             Rx   d 7 00 00 00 00 00 00 00  Length = 1109430 BitCount = 115 ID = 1505
  11.071700 2  470             Rx   d 8 40 00 00 00 00 00 00 16  Length = 1199441 BitCount = 124 ID = 1136
  11.072950 2  64F             Rx   d 8 3F 00 00 00 00 00 00 00  Length = 1209426 BitCount = 125 ID = 1615
  11.079250 2  621             Rx   d 8 00 ED 72 00 00 47 37 00  Length = 1139430 BitCount = 118 ID = 1569
  11.081949 2  2C1             Rx   d 6 00 00 00 00 02 00  Length = 1009430 BitCount = 105 ID = 705
  11.082809 2  531             Rx   d 4 00 20 50 70  Length = 809434 BitCount = 85 ID = 1329
  11.083959 2  651             Rx   d 8 80 02 50 AF 39 59 01 00  Length = 1109430 BitCount = 115 ID = 1617
  11.091649 2  359             Rx   d 8 FF 89 FF 7F 1D 6B 80 00  Length = 1139441 BitCount = 118 ID = 857
  11.097369 2  66C             Rx   d 8 3C 42 03 00 31 00 03 01  Length = 1159426 BitCount = 120 ID = 1644
  11.101189 2  436             Rx   d 8 00 01 01 04 00 00 02 00  Length = 1189426 BitCount = 123 ID = 1078
  11.102399 2  35B             Rx   d 8 0F 00 00 00 20 19 0C 00  Length = 1169441 BitCount = 121 ID = 859
  11.103139 2  457             Rx   d 3 00 47 00  Length = 699442 BitCount = 74 ID = 1111
  11.121727 2  369             Rx   d 8 3F 00 00 D0 FF 00 00 00  Length = 1189426 BitCount = 123 ID = 873
  11.122967 2  470             Rx   d 8 40 00 00 00 00 00 00 16  Length = 1199441 BitCount = 124 ID = 1136
  11.123727 2  635             Rx   d 3 00 00 37  Length = 719438 BitCount = 76 ID = 1589
  11.131517 2  381             Rx   d 6 00 00 00 00 00 00  Length = 1029430 BitCount = 107 ID = 897
  11.132367 2  531             Rx   d 4 00 20 60 40  Length = 799449 BitCount = 84 ID = 1329
  11.141726 2  397             Rx   d 8 00 00 00 00 00 00 00 00  Length = 1199426 BitCount = 124 ID = 919
  11.142776 2  4B9             Rx   d 6 00 00 00 00 00 00  Length = 1009445 BitCount = 105 ID = 1209
  11.151495 2  4BD             Rx   d 6 00 00 00 00 00 00  Length = 999430 BitCount = 104 ID = 1213
  11.152705 2  658             Rx   d 8 78 28 00 08 00 92 00 00  Length = 1169441 BitCount = 121 ID = 1624
  11.153935 2  400             Rx   d 8 0C 01 01 04 04 00 00 00  Length = 1189426 BitCount = 123 ID = 1024
  11.159715 2  3E1             Rx   d 8 00 00 FF 00 00 00 84 78  Length = 1179426 BitCount = 122 ID = 993
  11.161545 2  3B5             Rx   d 6 00 00 00 00 00 00  Length = 1029430 BitCount = 107 ID = 949
  11.162735 2  527             Rx   d 8 10 01 00 10 71 72 6E 08  Length = 1149426 BitCount = 119 ID = 1319
  11.163755 2  571             Rx   d 6 93 1F 00 08 04 00  Length = 979445 BitCount = 102 ID = 1393
  11.171925 2  470             Rx   d 8 40 00 00 00 00 00 00 16  Length = 1199426 BitCount = 124 ID = 1136
  11.179214 2  65F             Rx   d 8 02 00 00 00 00 00 00 00  Length = 1119430 BitCount = 116 ID = 1631
  11.180394 2  621             Rx   d 8 00 ED 72 00 00 47 37 00  Length = 1139430 BitCount = 118 ID = 1569
  11.181574 2  2C1             Rx   d 6 00 00 00 00 02 00  Length = 1009430 BitCount = 105 ID = 705
  11.182544 2  531             Rx   d 4 00 20 70 50  Length = 799438 BitCount = 84 ID = 1329
  11.183694 2  651             Rx   d 8 80 02 50 AF 39 59 01 00  Length = 1109430 BitCount = 115 ID = 1617
  11.191643 2  359             Rx   d 8 FF 89 FF 7F 1D 6B 80 00  Length = 1139430 BitCount = 118 ID = 857
  11.199993 2  40C             Rx   d 8 16 01 01 04 00 04 00 00  Length = 1189426 BitCount = 123 ID = 1036
  11.201673 2  35B             Rx   d 8 0F 00 00 00 20 19 0C 00  Length = 1169426 BitCount = 121 ID = 859
  11.202413 2  457             Rx   d 3 00 47 00  Length = 699442 BitCount = 74 ID = 1111
  11.211673 2  320             Rx   d 8 00 00 00 01 00 01 00 80  Length = 1189426 BitCount = 123 ID = 800
  11.212533 2  575             Rx   d 4 00 00 00 00  Length = 819434 BitCount = 86 ID = 1397
  11.221692 2  367             Rx   d 8 FF 00 00 00 7E F0 01 00  Length = 1169426 BitCount = 121 ID = 871
  11.222932 2  369             Rx   d 8 3F 00 00 D0 FF 00 00 00  Length = 1189426 BitCount = 123 ID = 873
  11.224172 2  470             Rx   d 8 40 00 00 00 00 00 00 16  Length = 1199426 BitCount = 124 ID = 1136
  11.231511 2  381             Rx   d 6 00 00 00 00 00 00  Length = 1029430 BitCount = 107 ID = 897
  11.232361 2  531             Rx   d 4 00 20 80 A0  Length = 799438 BitCount = 84 ID = 1329
  11.236831 2  69D             Rx   d 2 14 42  Length = 619442 BitCount = 66 ID = 1693
  11.241721 2  397             Rx   d 8 00 00 00 00 00 00 00 00  Length = 1199426 BitCount = 124 ID = 919
  11.242771 2  4B9             Rx   d 6 00 00 00 00 00 00  Length = 1009430 BitCount = 105 ID = 1209
  11.244011 2  591             Rx   d 8 00 00 08 00 00 00 00 00  Length = 1199426 BitCount = 124 ID = 1425
  11.244840 2  653             Rx   d 4 81 01 41 01  Length = 789438 BitCount = 83 ID = 1619
  11.246810 2  67A             Rx   d 2 17 42  Length = 599446 BitCount = 64 ID = 1658
  11.251200 2  436             Rx   d 8 00 01 01 04 00 00 02 00  Length = 1189426 BitCount = 123 ID = 1078
  11.252240 2  4BD             Rx   d 6 00 00 00 00 00 00  Length = 999430 BitCount = 104 ID = 1213
  11.253450 2  658             Rx   d 8 78 28 00 08 00 92 00 00  Length = 1169426 BitCount = 121 ID = 1624
  11.259900 2  3E1             Rx   d 8 00 00 FF 00 00 00 84 78  Length = 1179426 BitCount = 122 ID = 993
  11.261070 2  5E1             Rx   d 7 00 00 00 00 00 00 00  Length = 1109445 BitCount = 115 ID = 1505
  11.262140 2  3B5             Rx   d 6 00 00 00 00 00 00  Length = 1029430 BitCount = 107 ID = 949
  11.262810 2  5D1             Rx   d 2 10 00  Length = 629442 BitCount = 67 ID = 1489
  11.271689 2  470             Rx   d 8 40 00 00 00 00 00 00 16  Length = 1199426 BitCount = 124 ID = 1136
  11.279239 2  621             Rx   d 8 00 ED 72 00 00 47 37 00  Length = 1139441 BitCount = 118 ID = 1569
  11.281539 2  2C1             Rx   d 6 00 00 00 00 02 00  Length = 1009445 BitCount = 105 ID = 705
  11.282369 2  531             Rx   d 4 00 20 90 B0  Length = 779438 BitCount = 82 ID = 1329
  11.283519 2  651             Rx   d 8 80 02 50 AF 39 59 01 00  Length = 1109445 BitCount = 115 ID = 1617
  11.291628 2  359             Rx   d 8 FF 89 FF 7F 1D 6B 80 00  Length = 1139430 BitCount = 118 ID = 857
  11.301687 2  35B             Rx   d 8 0F 00 00 00 20 19 0C 00  Length = 1169441 BitCount = 121 ID = 859
  11.302427 2  457             Rx   d 3 00 47 00  Length = 699442 BitCount = 74 ID = 1111
  11.303657 2  400             Rx   d 8 0C 01 01 04 04 00 00 00  Length = 1189441 BitCount = 123 ID = 1024
  11.316807 2  69D             Rx   d 2 19 42  Length = 609446 BitCount = 65 ID = 1693
  11.321727 2  369             Rx   d 8 3F 00 00 D0 FF 00 00 00  Length = 1189441 BitCount = 123 ID = 873
  11.322966 2  470             Rx   d 8 40 00 00 00 00 00 00 16  Length = 1199426 BitCount = 124 ID = 1136
  11.323726 2  635             Rx   d 3 00 00 37  Length = 719453 BitCount = 76 ID = 1589
  11.331526 2  381             Rx   d 6 00 00 00 00 00 00  Length = 1029430 BitCount = 107 ID = 897
  11.332376 2  531             Rx   d 4 00 20 A0 80  Length = 799438 BitCount = 84 ID = 1329
  11.341695 2  397             Rx   d 8 00 00 00 00 00 00 00 00  Length = 1199426 BitCount = 124 ID = 919
  11.342745 2  4B9             Rx   d 6 00 00 00 00 00 00  Length = 1009430 BitCount = 105 ID = 1209
  11.343925 2  655             Rx   d 8 75 00 F0 03 18 00 80 C0  Length = 1139430 BitCount = 118 ID = 1621
  11.349875 2  40C             Rx   d 8 16 01 01 04 00 04 00 00  Length = 1189426 BitCount = 123 ID = 1036
  11.351555 2  4BD             Rx   d 6 00 00 00 00 00 00  Length = 999430 BitCount = 104 ID = 1213
  11.352765 2  658             Rx   d 8 78 28 00 08 00 92 00 00  Length = 1169426 BitCount = 121 ID = 1624
  11.359915 2  3E1             Rx   d 8 00 00 FF 00 00 00 84 78  Length = 1179441 BitCount = 122 ID = 993
  11.361545 2  3B5             Rx   d 6 00 00 00 00 00 00  Length = 1029430 BitCount = 107 ID = 949
  11.362735 2  527             Rx   d 8 10 01 00 10 71 72 6E 08  Length = 1149441 BitCount = 119 ID = 1319
  11.363735 2  6B4             Rx   d 6 A8 01 C2 02 8E 22  Length = 959430 BitCount = 100 ID = 1716
  11.371704 2  470             Rx   d 8 40 00 00 00 00 00 00 16  Length = 1199426 BitCount = 124 ID = 1136
  11.379194 2  65F             Rx   d 8 00 AA 8C 8E C0 00 00 00  Length = 1119430 BitCount = 116 ID = 1631
  11.380374 2  621             Rx   d 8 00 ED 72 00 00 47 37 00  Length = 1139430 BitCount = 118 ID = 1569
  11.381564 2  2C1             Rx   d 6 00 00 00 00 02 00  Length = 1009430 BitCount = 105 ID = 705
  11.382404 2  531             Rx   d 4 00 20 B0 90  Length = 789449 BitCount = 83 ID = 1329
  11.383554 2  651             Rx   d 8 80 02 50 AF 39 59 01 00  Length = 1109430 BitCount = 115 ID = 1617
  11.391193 2  436             Rx   d 8 00 01 01 04 00 00 02 00  Length = 1189426 BitCount = 123 ID = 1078
  11.392373 2  359             Rx   d 8 FF 89 FF 7F 1D 6B 80 00  Length = 1139430 BitCount = 118 ID = 857
  11.401662 2  35B             Rx   d 8 0F 00 00 00 20 19 0C 00  Length = 1169426 BitCount = 121 ID = 859
  11.402402 2  457             Rx   d 3 00 47 00  Length = 699442 BitCount = 74 ID = 1111
  11.411662 2  320             Rx   d 8 00 00 00 01 00 09 00 80  Length = 1189441 BitCount = 123 ID = 800
  11.412522 2  575             Rx   d 4 00 00 00 00  Length = 819434 BitCount = 86 ID = 1397
  11.413672 2  65D             Rx   d 8 82 2B 27 D0 70 AF 14 14  Length = 1109430 BitCount = 115 ID = 1629
  11.421671 2  367             Rx   d 8 FF 00 00 00 7E F0 01 00  Length = 1169426 BitCount = 121 ID = 871
  11.422911 2  369             Rx   d 8 3F 00 00 D0 FF 00 00 00  Length = 1189426 BitCount = 123 ID = 873
  11.424151 2  470             Rx   d 8 40 00 00 00 00 00 00 16  Length = 1199426 BitCount = 124 ID = 1136
  11.431501 2  381             Rx   d 6 00 00 00 00 00 00  Length = 1029445 BitCount = 107 ID = 897
  11.432350 2  531             Rx   d 4 00 20 C0 E0  Length = 799438 BitCount = 84 ID = 1329
  11.441690 2  397             Rx   d 8 00 00 00 00 00 00 00 00  Length = 1199426 BitCount = 124 ID = 919
  11.442740 2  4B9             Rx   d 6 00 00 00 00 00 00  Length = 1009445 BitCount = 105 ID = 1209
  11.443980 2  591             Rx   d 8 00 00 08 00 00 00 00 00  Length = 1199426 BitCount = 124 ID = 1425
  11.445210 2  400             Rx   d 8 0C 01 01 04 04 00 00 00  Length = 1189426 BitCount = 123 ID = 1024
  11.451469 2  4BD             Rx   d 6 00 00 00 00 00 00  Length = 999445 BitCount = 104 ID = 1213
  11.452679 2  658             Rx   d 8 78 28 00 08 00 92 00 00  Length = 1169426 BitCount = 121 ID = 1624
  11.459989 2  3E1             Rx   d 8 00 00 FF 00 00 00 84 78  Length = 1179426 BitCount = 122 ID = 993
  11.461259 2  3E9             Rx   d 8 00 00 00 00 00 00 00 00  Length = 1209426 BitCount = 125 ID = 1001
  11.462329 2  3B5             Rx   d 6 00 00 00 00 00 00  Length = 1029430 BitCount = 107 ID = 949
  11.463479 2  5E1             Rx   d 7 00 00 00 00 00 00 00  Length = 1109430 BitCount = 115 ID = 1505
  11.464149 2  5D1             Rx   d 2 10 00  Length = 629442 BitCount = 67 ID = 1489
  11.465399 2  5E8             Rx   d 8 00 40 00 00 00 00 40 00  Length = 1209441 BitCount = 125 ID = 1512
  11.471669 2  470             Rx   d 8 40 00 00 00 00 00 00 16  Length = 1199441 BitCount = 124 ID = 1136
  11.479228 2  621             Rx   d 8 00 ED 72 00 00 47 37 00  Length = 1139430 BitCount = 118 ID = 1569
  11.481528 2  2C1             Rx   d 6 00 00 00 00 02 00  Length = 1009430 BitCount = 105 ID = 705
  11.482378 2  531             Rx   d 4 00 20 D0 F0  Length = 799438 BitCount = 84 ID = 1329
  11.483528 2  651             Rx   d 8 80 02 50 AF 39 59 01 00  Length = 1109430 BitCount = 115 ID = 1617
  11.489968 2  40C             Rx   d 8 16 01 01 04 00 04 00 00  Length = 1189426 BitCount = 123 ID = 1036
  11.491618 2  359             Rx   d 8 FF 89 FF 7F 1D 6B 80 00  Length = 1139430 BitCount = 118 ID = 857
  11.501668 2  35B             Rx   d 8 0F 00 00 00 20 19 0C 00  Length = 1169426 BitCount = 121 ID = 859
  11.502407 2  457             Rx   d 3 00 47 00  Length = 699442 BitCount = 74 ID = 1111
  11.521686 2  369             Rx   d 8 3F 00 00 D0 FF 00 00 00  Length = 1189426 BitCount = 123 ID = 873
  11.522926 2  470             Rx   d 8 40 00 00 00 00 00 00 16  Length = 1199426 BitCount = 124 ID = 1136
  11.523686 2  635             Rx   d 3 00 00 37  Length = 719438 BitCount = 76 ID = 1589
  11.528406 2  60E             Rx   d 2 08 02  Length = 629442 BitCount = 67 ID = 1550
  11.531496 2  381             Rx   d 6 00 00 00 00 00 00  Length = 1029430 BitCount = 107 ID = 897
  11.532346 2  531             Rx   d 4 00 20 E0 C0  Length = 799449 BitCount = 84 ID = 1329
  11.540646 2  481             Rx   d 2 01 00  Length = 639442 BitCount = 68 ID = 1153
  11.541885 2  397             Rx   d 8 00 00 00 00 00 00 00 00  Length = 1199426 BitCount = 124 ID = 919
  11.543115 2  436             Rx   d 8 00 01 01 04 00 00 02 00  Length = 1189426 BitCount = 123 ID = 1078
  11.544165 2  4B9             Rx   d 6 00 00 00 00 00 00  Length = 1009430 BitCount = 105 ID = 1209
  11.545415 2  5F5             Rx   d 8 00 10 00 00 00 00 00 00  Length = 1209441 BitCount = 125 ID = 1525
  11.546655 2  661             Rx   d 8 00 00 00 00 00 00 00 00  Length = 1199426 BitCount = 124 ID = 1633
  11.547795 2  665             Rx   d 7 00 00 00 00 00 00 00  Length = 1099430 BitCount = 114 ID = 1637
  11.548485 2  666             Rx   d 2 00 00  Length = 639457 BitCount = 68 ID = 1638
  11.551465 2  4BD             Rx   d 6 00 00 00 00 00 00  Length = 999430 BitCount = 104 ID = 1213
  11.552675 2  658             Rx   d 8 78 28 00 08 00 92 00 00  Length = 1169426 BitCount = 121 ID = 1624
  11.560115 2  3E1             Rx   d 8 00 00 FF 00 00 00 84 78  Length = 1179426 BitCount = 122 ID = 993
  11.561565 2  3B5             Rx   d 6 00 00 00 00 00 00  Length = 1029430 BitCount = 107 ID = 949
  11.562755 2  527             Rx   d 8 10 01 00 10 71 72 6E 08  Length = 1149426 BitCount = 119 ID = 1319
  11.571685 2  470             Rx   d 8 40 00 00 00 00 00 00 16  Length = 1199426 BitCount = 124 ID = 1136
  11.572935 2  64F             Rx   d 8 3F 00 00 00 00 00 00 00  Length = 1209426 BitCount = 125 ID = 1615
  11.579194 2  65F             Rx   d 8 01 00 00 00 00 00 00 00  Length = 1129430 BitCount = 117 ID = 1631
  11.580374 2  621             Rx   d 8 00 ED 72 00 00 47 37 00  Length = 1139430 BitCount = 118 ID = 1569
  11.581554 2  2C1             Rx   d 6 00 00 00 00 02 00  Length = 1009430 BitCount = 105 ID = 705
  11.582414 2  531             Rx   d 4 00 20 F0 D0  Length = 809434 BitCount = 85 ID = 1329
  11.583564 2  651             Rx   d 8 80 02 50 AF 39 59 01 00  Length = 1109430 BitCount = 115 ID = 1617
  11.591623 2  359             Rx   d 8 FF 89 FF 7F 1D 6B 80 00  Length = 1139430 BitCount = 118 ID = 857
  11.592853 2  400             Rx   d 8 0C 01 01 04 04 00 00 00  Length = 1189441 BitCount = 123 ID = 1024
  11.601653 2  35B             Rx   d 8 0F 00 00 00 20 19 0C 00  Length = 1169426 BitCount = 121 ID = 859
  11.602393 2  457             Rx   d 3 00 47 00  Length = 699442 BitCount = 74 ID = 1111
  11.611642 2  320             Rx   d 8 00 00 00 01 00 01 00 80  Length = 1189426 BitCount = 123 ID = 800
  11.612502 2  575             Rx   d 4 00 00 00 00  Length = 819449 BitCount = 86 ID = 1397
  11.621661 2  367             Rx   d 8 FF 00 00 00 7E F0 01 00  Length = 1169441 BitCount = 121 ID = 871
  11.622901 2  369             Rx   d 8 3F 00 00 D0 FF 00 00 00  Length = 1189426 BitCount = 123 ID = 873
  11.624141 2  470             Rx   d 8 40 00 00 00 00 00 00 16  Length = 1199441 BitCount = 124 ID = 1136
  11.629341 2  629             Rx   d 8 FF 0F FF 7F 2B 27 40 00  Length = 1139430 BitCount = 118 ID = 1577
  11.631491 2  381             Rx   d 6 00 00 00 00 00 00  Length = 1029430 BitCount = 107 ID = 897
  11.632351 2  531             Rx   d 4 00 20 00 20  Length = 809434 BitCount = 85 ID = 1329
  11.640251 2  40C             Rx   d 8 16 01 01 04 00 04 00 00  Length = 1189426 BitCount = 123 ID = 1036
  11.641691 2  397             Rx   d 8 00 00 00 00 00 00 00 00  Length = 1199441 BitCount = 124 ID = 919
  11.642741 2  4B9             Rx   d 6 00 00 00 00 00 00  Length = 1009430 BitCount = 105 ID = 1209
  11.643980 2  591             Rx   d 8 00 00 08 00 00 00 00 00  Length = 1199426 BitCount = 124 ID = 1425
  11.651460 2  4BD             Rx   d 6 00 00 00 00 00 00  Length = 999430 BitCount = 104 ID = 1213
  11.652670 2  658             Rx   d 8 78 28 00 08 00 92 00 00  Length = 1169426 BitCount = 121 ID = 1624
  11.654230 2  62B             Rx   d 8 00 10 06 40 0B 00 21 40  Length = 1149426 BitCount = 119 ID = 1579
  11.659800 2  3E1             Rx   d 8 00 00 FF 00 00 00 84 78  Length = 1179426 BitCount = 122 ID = 993
  11.660970 2  5E1             Rx   d 7 00 00 00 00 00 00 00  Length = 1109430 BitCount = 115 ID = 1505
  11.662040 2  3B5             Rx   d 6 00 00 00 00 00 00  Length = 1029445 BitCount = 107 ID = 949
  11.663060 2  571             Rx   d 6 93 1F 00 08 04 00  Length = 979430 BitCount = 102 ID = 1393
  11.663730 2  5D1             Rx   d 2 10 00  Length = 629442 BitCount = 67 ID = 1489
  11.671659 2  470             Rx   d 8 40 00 00 00 00 00 00 16  Length = 1199426 BitCount = 124 ID = 1136
  11.679229 2  621             Rx   d 8 00 ED 72 00 00 47 37 00  Length = 1139441 BitCount = 118 ID = 1569
  11.680399 2  62D             Rx   d 8 00 10 27 41 B4 03 13 40  Length = 1129430 BitCount = 117 ID = 1581
  11.681539 2  2C1             Rx   d 6 00 00 00 00 02 00  Length = 1009445 BitCount = 105 ID = 705
  11.682388 2  531             Rx   d 4 00 20 10 30  Length = 799438 BitCount = 84 ID = 1329
  11.683538 2  651             Rx   d 8 80 02 50 AF 39 59 01 00  Length = 1109430 BitCount = 115 ID = 1617
  11.691188 2  436             Rx   d 8 00 01 01 04 00 00 02 00  Length = 1189426 BitCount = 123 ID = 1078
  11.692368 2  359             Rx   d 8 FF 89 FF 7F 1D 6B 80 00  Length = 1139430 BitCount = 118 ID = 857
  11.701658 2  35B             Rx   d 8 0F 00 00 00 20 19 0C 00  Length = 1169426 BitCount = 121 ID = 859
  11.702398 2  457             Rx   d 3 00 47 00  Length = 699442 BitCount = 74 ID = 1111
  11.721686 2  369             Rx   d 8 3F 00 00 D0 FF 00 00 00  Length = 1189426 BitCount = 123 ID = 873
  11.722926 2  470             Rx   d 8 40 00 00 00 00 00 00 16  Length = 1199426 BitCount = 124 ID = 1136
  11.723686 2  635             Rx   d 3 00 00 37  Length = 719438 BitCount = 76 ID = 1589
  11.731476 2  381             Rx   d 6 00 00 00 00 00 00  Length = 1029430 BitCount = 107 ID = 897
  11.732326 2  531             Rx   d 4 00 20 20 00  Length = 799438 BitCount = 84 ID = 1329
  11.741675 2  397             Rx   d 8 00 00 00 00 00 00 00 00  Length = 1199426 BitCount = 124 ID = 919
  11.742725 2  4B9             Rx   d 6 00 00 00 00 00 00  Length = 1009430 BitCount = 105 ID = 1209
  11.743555 2  653             Rx   d 4 81 01 41 01  Length = 789438 BitCount = 83 ID = 1619
  11.744785 2  400             Rx   d 8 0C 01 01 04 04 00 00 00  Length = 1189441 BitCount = 123 ID = 1024
  11.751455 2  4BD             Rx   d 6 00 00 00 00 00 00  Length = 999430 BitCount = 104 ID = 1213
  11.752665 2  658             Rx   d 8 78 28 00 08 00 92 00 00  Length = 1169426 BitCount = 121 ID = 1624
  11.754224 2  52D             Rx   d 8 FE 7F FF 0F FF 0F FF 0F  Length = 1169426 BitCount = 121 ID = 1325
  11.759704 2  3E1             Rx   d 8 00 00 FF 00 00 00 84 78  Length = 1179426 BitCount = 122 ID = 993
  11.761504 2  3B5             Rx   d 6 00 00 00 00 00 00  Length = 1029430 BitCount = 107 ID = 949
  11.762694 2  527             Rx   d 8 10 01 00 10 71 72 6E 08  Length = 1149426 BitCount = 119 ID = 1319
  11.771694 2  470             Rx   d 8 40 00 00 00 00 00 00 16  Length = 1199426 BitCount = 124 ID = 1136
  11.779183 2  52F             Rx   d 8 00 00 B6 10 50 10 37 10  Length = 1139430 BitCount = 118 ID = 1327
  11.780343 2  65F             Rx   d 8 02 00 00 00 00 00 00 00  Length = 1119441 BitCount = 116 ID = 1631
  11.781523 2  621             Rx   d 8 00 ED 72 00 00 47 37 00  Length = 1139430 BitCount = 118 ID = 1569
  11.782573 2  2C1             Rx   d 6 00 00 00 00 02 00  Length = 1009430 BitCount = 105 ID = 705
  11.783413 2  531             Rx   d 4 00 20 30 10  Length = 789449 BitCount = 83 ID = 1329
  11.784563 2  651             Rx   d 8 80 02 50 AF 39 59 01 00  Length = 1109430 BitCount = 115 ID = 1617
  11.790023 2  40C             Rx   d 8 16 01 01 04 00 04 00 00  Length = 1189441 BitCount = 123 ID = 1036
  11.791613 2  359             Rx   d 8 FF 89 FF 7F 1D 6B 80 00  Length = 1139441 BitCount = 118 ID = 857
  11.801632 2  35B             Rx   d 8 0F 00 00 00 20 19 0C 00  Length = 1169426 BitCount = 121 ID = 859
  11.802372 2  457             Rx   d 3 00 47 00  Length = 699453 BitCount = 74 ID = 1111
  11.803902 2  532             Rx   d 8 00 00 8E 10 2F 10 25 10  Length = 1129430 BitCount = 117 ID = 1330
  11.811632 2  320             Rx   d 8 00 00 00 01 00 09 00 80  Length = 1189426 BitCount = 123 ID = 800
  11.812492 2  575             Rx   d 4 00 00 00 00  Length = 819434 BitCount = 86 ID = 1397
  11.821651 2  367             Rx   d 8 FF 00 00 00 7E F0 01 00  Length = 1169426 BitCount = 121 ID = 871
  11.822891 2  369             Rx   d 8 3F 00 00 D0 FF 00 00 00  Length = 1189441 BitCount = 123 ID = 873
  11.824131 2  470             Rx   d 8 40 00 00 00 00 00 00 16  Length = 1199426 BitCount = 124 ID = 1136
  11.831470 2  381             Rx   d 6 00 00 00 00 00 00  Length = 1029430 BitCount = 107 ID = 897
  11.832330 2  531             Rx   d 4 00 20 40 60  Length = 809449 BitCount = 85 ID = 1329
  11.836820 2  69D             Rx   d 2 14 42  Length = 619442 BitCount = 66 ID = 1693
  11.841190 2  436             Rx   d 8 00 01 01 04 00 00 02 00  Length = 1189426 BitCount = 123 ID = 1078
  11.842430 2  397             Rx   d 8 00 00 00 00 00 00 00 00  Length = 1199441 BitCount = 124 ID = 919
  11.843480 2  4B9             Rx   d 6 00 00 00 00 00 00  Length = 1009430 BitCount = 105 ID = 1209
  11.844720 2  591             Rx   d 8 00 00 08 00 00 00 00 00  Length = 1199426 BitCount = 124 ID = 1425
  11.845900 2  655             Rx   d 8 75 00 F0 03 18 00 80 C0  Length = 1139430 BitCount = 118 ID = 1621
  11.846779 2  67A             Rx   d 2 17 42  Length = 599446 BitCount = 64 ID = 1658
  11.851449 2  4BD             Rx   d 6 00 00 00 00 00 00  Length = 999430 BitCount = 104 ID = 1213
  11.852659 2  658             Rx   d 8 78 28 00 08 00 92 00 00  Length = 1169441 BitCount = 121 ID = 1624
  11.860069 2  3E1             Rx   d 8 00 00 FF 00 00 00 84 78  Length = 1179426 BitCount = 122 ID = 993
  11.861319 2  3E3             Rx   d 8 00 00 8D 00 00 00 00 00  Length = 1189426 BitCount = 123 ID = 995
  11.862389 2  3B5             Rx   d 6 00 00 00 00 00 00  Length = 1029430 BitCount = 107 ID = 949
  11.863059 2  5D1             Rx   d 2 10 00  Length = 629442 BitCount = 67 ID = 1489
  11.864209 2  5E1             Rx   d 7 00 00 00 00 00 00 00  Length = 1109430 BitCount = 115 ID = 1505
  11.865209 2  6B4             Rx   d 6 A8 01 C2 02 8E 22  Length = 959445 BitCount = 100 ID = 1716
  11.871648 2  470             Rx   d 8 40 00 00 00 00 00 00 16  Length = 1199426 BitCount = 124 ID = 1136
  11.879188 2  621             Rx   d 8 00 ED 72 00 00 47 37 00  Length = 1139430 BitCount = 118 ID = 1569
  11.881518 2  2C1             Rx   d 6 00 00 00 00 02 00  Length = 1009430 BitCount = 105 ID = 705
  11.882378 2  531             Rx   d 4 00 20 50 70  Length = 809434 BitCount = 85 ID = 1329
  11.883528 2  651             Rx   d 8 80 02 50 AF 39 59 01 00  Length = 1109430 BitCount = 115 ID = 1617
  11.891577 2  359             Rx   d 8 FF 89 FF 7F 1D 6B 80 00  Length = 1139430 BitCount = 118 ID = 857
  11.892807 2  400             Rx   d 8 0C 01 01 04 04 00 00 00  Length = 1189441 BitCount = 123 ID = 1024
  11.901646 2  35B             Rx   d 8 0F 00 00 00 20 19 0C 00  Length = 1169426 BitCount = 121 ID = 859
  11.902386 2  457             Rx   d 3 00 47 00  Length = 699442 BitCount = 74 ID = 1111
  11.916826 2  69D             Rx   d 2 19 42  Length = 609457 BitCount = 65 ID = 1693
  11.921696 2  369             Rx   d 8 3F 00 00 D0 FF 00 00 00  Length = 1189426 BitCount = 123 ID = 873
  11.922936 2  470             Rx   d 8 40 00 00 00 00 00 00 16  Length = 1199426 BitCount = 124 ID = 1136
  11.923696 2  635             Rx   d 3 00 00 37  Length = 719438 BitCount = 76 ID = 1589
  11.931466 2  381             Rx   d 6 00 00 00 00 00 00  Length = 1029430 BitCount = 107 ID = 897
  11.932315 2  531             Rx   d 4 00 20 60 40  Length = 799438 BitCount = 84 ID = 1329
  11.939935 2  40C             Rx   d 8 16 01 01 04 00 04 00 00  Length = 1189426 BitCount = 123 ID = 1036
  11.941675 2  397             Rx   d 8 00 00 00 00 00 00 00 00  Length = 1199441 BitCount = 124 ID = 919
  11.942725 2  4B9             Rx   d 6 00 00 00 00 00 00  Length = 1009430 BitCount = 105 ID = 1209
  11.951435 2  4BD             Rx   d 6 00 00 00 00 00 00  Length = 999430 BitCount = 104 ID = 1213
  11.952645 2  658             Rx   d 8 78 28 00 08 00 92 00 00  Length = 1169426 BitCount = 121 ID = 1624
  11.960135 2  3E1             Rx   d 8 00 00 FF 00 00 00 84 78  Length = 1179426 BitCount = 122 ID = 993
  11.961395 2  3E9             Rx   d 8 00 00 80 07 00 00 00 00  Length = 1199426 BitCount = 124 ID = 1001
  11.962465 2  3B5             Rx   d 6 00 00 00 00 00 00  Length = 1029445 BitCount = 107 ID = 949
  11.963655 2  527             Rx   d 8 10 01 00 10 71 72 6E 08  Length = 1149426 BitCount = 119 ID = 1319
  11.964905 2  5E8             Rx   d 8 00 40 00 00 00 00 40 00  Length = 1209426 BitCount = 125 ID = 1512
  11.971665 2  470             Rx   d 8 40 00 00 00 00 00 00 16  Length = 1199426 BitCount = 124 ID = 1136
  11.979145 2  65F             Rx   d 8 00 AA 8C 8E C0 00 00 00  Length = 1119441 BitCount = 116 ID = 1631
  11.980324 2  621             Rx   d 8 00 ED 72 00 00 47 37 00  Length = 1139430 BitCount = 118 ID = 1569
  11.981554 2  436             Rx   d 8 00 01 01 04 00 00 02 00  Length = 1189426 BitCount = 123 ID = 1078
  11.982604 2  2C1             Rx   d 6 00 00 00 00 02 00  Length = 1009430 BitCount = 105 ID = 705
  11.983454 2  531             Rx   d 4 00 20 70 50  Length = 799438 BitCount = 84 ID = 1329
  11.984604 2  651             Rx   d 8 80 02 50 AF 39 59 01 00  Length = 1109430 BitCount = 115 ID = 1617
  11.991584 2  359             Rx   d 8 FF 89 FF 7F 1D 6B 80 00  Length = 1139430 BitCount = 118 ID = 857
  12.001623 2  35B             Rx   d 8 0F 00 00 00 20 19 0C 00  Length = 1169426 BitCount = 121 ID = 859
  12.002363 2  457             Rx   d 3 00 47 00  Length = 699442 BitCount = 74 ID = 1111
  12.011622 2  320             Rx   d 8 00 00 00 01 00 01 00 80  Length = 1189426 BitCount = 123 ID = 800
  12.012482 2  575             Rx   d 4 00 00 00 00  Length = 819434 BitCount = 86 ID = 1397
  12.017566 CAN 1 Status:chip status error active
  12.017566 CAN 2 Status:chip status error active
  12.021642 2  367             Rx   d 8 FF 00 00 00 7E F0 01 00  Length = 1169426 BitCount = 121 ID = 871
  12.022882 2  369             Rx   d 8 3F 00 00 D0 FF 00 00 00  Length = 1189426 BitCount = 123 ID = 873
  12.024122 2  470             Rx   d 8 40 00 00 00 00 00 00 16  Length = 1199441 BitCount = 124 ID = 1136
  12.031461 2  381             Rx   d 6 00 00 00 00 00 00  Length = 1029430 BitCount = 107 ID = 897
  12.032311 2  531             Rx   d 4 00 20 80 A0  Length = 799438 BitCount = 84 ID = 1329
  12.033541 2  400             Rx   d 8 0C 01 01 04 04 00 00 00  Length = 1189426 BitCount = 123 ID = 1024
  12.041671 2  397             Rx   d 8 00 00 00 00 00 00 00 00  Length = 1199426 BitCount = 124 ID = 919
  12.042720 2  4B9             Rx   d 6 00 00 00 00 00 00  Length = 1009430 BitCount = 105 ID = 1209
  12.043960 2  591             Rx   d 8 00 00 08 00 00 00 00 00  Length = 1199426 BitCount = 124 ID = 1425
  12.045210 2  5F5             Rx   d 8 00 10 00 00 00 00 00 00  Length = 1209441 BitCount = 125 ID = 1525
  12.051430 2  4BD             Rx   d 6 00 00 00 00 00 00  Length = 999430 BitCount = 104 ID = 1213
  12.052640 2  658             Rx   d 8 78 28 00 08 00 92 00 00  Length = 1169426 BitCount = 121 ID = 1624
  12.060000 2  3E1             Rx   d 8 00 00 FF 00 00 00 84 78  Length = 1179426 BitCount = 122 ID = 993
  12.061170 2  5E1             Rx   d 7 00 00 00 00 00 00 00  Length = 1109430 BitCount = 115 ID = 1505
  12.062240 2  3B5             Rx   d 6 00 00 00 00 00 00  Length = 1029430 BitCount = 107 ID = 949
  12.062910 2  5D1             Rx   d 2 10 00  Length = 629442 BitCount = 67 ID = 1489
  12.071629 2  470             Rx   d 8 40 00 00 00 00 00 00 16  Length = 1199426 BitCount = 124 ID = 1136
  12.072879 2  64F             Rx   d 8 3F 00 00 00 00 00 00 00  Length = 1209426 BitCount = 125 ID = 1615
  12.079169 2  621             Rx   d 8 00 ED 72 00 00 47 37 00  Length = 1139430 BitCount = 118 ID = 1569
  12.080399 2  40C             Rx   d 8 16 01 01 04 00 04 00 00  Length = 1189426 BitCount = 123 ID = 1036
  12.081908 2  2C1             Rx   d 6 00 00 00 00 02 00  Length = 1009430 BitCount = 105 ID = 705
  12.082738 2  531             Rx   d 4 00 20 90 B0  Length = 779438 BitCount = 82 ID = 1329
  12.083888 2  651             Rx   d 8 80 02 50 AF 39 59 01 00  Length = 1109430 BitCount = 115 ID = 1617
  12.091568 2  359             Rx   d 8 FF 89 FF 7F 1D 6B 80 00  Length = 1139441 BitCount = 118 ID = 857
  12.097388 2  66C             Rx   d 8 80 08 3C 43 38 03 FF BC  Length = 1159426 BitCount = 120 ID = 1644
  12.101627 2  35B             Rx   d 8 0F 00 00 00 20 19 0C 00  Length = 1169426 BitCount = 121 ID = 859
  12.102367 2  457             Rx   d 3 00 47 00  Length = 699453 BitCount = 74 ID = 1111
  12.121666 2  369             Rx   d 8 3F 00 00 D0 FF 00 00 00  Length = 1189426 BitCount = 123 ID = 873
  12.122906 2  470             Rx   d 8 40 00 00 00 00 00 00 16  Length = 1199441 BitCount = 124 ID = 1136
  12.123666 2  635             Rx   d 3 00 00 37  Length = 719438 BitCount = 76 ID = 1589
  12.127136 2  66C             Rx   d 5 C0 00 00 00 00  Length = 909434 BitCount = 95 ID = 1644
  12.131186 2  436             Rx   d 8 00 01 01 04 00 00 02 00  Length = 1189441 BitCount = 123 ID = 1078
  12.132256 2  381             Rx   d 6 00 00 00 00 00 00  Length = 1029430 BitCount = 107 ID = 897
  12.133106 2  531             Rx   d 4 00 20 A0 80  Length = 799438 BitCount = 84 ID = 1329
  12.141655 2  397             Rx   d 8 00 00 00 00 00 00 00 00  Length = 1199426 BitCount = 124 ID = 919
  12.142705 2  4B9             Rx   d 6 00 00 00 00 00 00  Length = 1009445 BitCount = 105 ID = 1209
  12.151424 2  4BD             Rx   d 6 00 00 00 00 00 00  Length = 999430 BitCount = 104 ID = 1213
  12.152634 2  658             Rx   d 8 78 28 00 08 00 92 00 00  Length = 1169441 BitCount = 121 ID = 1624
  12.159974 2  3E1             Rx   d 8 00 00 FF 00 00 00 84 78  Length = 1179426 BitCount = 122 ID = 993
  12.161494 2  3B5             Rx   d 6 00 00 00 00 00 00  Length = 1029430 BitCount = 107 ID = 949
  12.162684 2  527             Rx   d 8 10 01 00 10 71 72 6E 08  Length = 1149426 BitCount = 119 ID = 1319
  12.163704 2  571             Rx   d 6 93 1F 00 08 04 00  Length = 979430 BitCount = 102 ID = 1393
  12.171874 2  470             Rx   d 8 40 00 00 00 00 00 00 16  Length = 1199426 BitCount = 124 ID = 1136
  12.179143 2  65F             Rx   d 8 01 00 00 00 00 00 00 00  Length = 1129430 BitCount = 117 ID = 1631
  12.180323 2  621             Rx   d 8 00 ED 72 00 00 47 37 00  Length = 1139430 BitCount = 118 ID = 1569
  12.181513 2  2C1             Rx   d 6 00 00 00 00 02 00  Length = 1009430 BitCount = 105 ID = 705
  12.182483 2  531             Rx   d 4 00 20 B0 90  Length = 789449 BitCount = 83 ID = 1329
  12.183633 2  651             Rx   d 8 80 02 50 AF 39 59 01 00  Length = 1109430 BitCount = 115 ID = 1617
  12.184893 2  400             Rx   d 8 0C 01 01 04 04 00 00 00  Length = 1189441 BitCount = 123 ID = 1024
  12.191572 2  359             Rx   d 8 FF 89 FF 7F 1D 6B 80 00  Length = 1139430 BitCount = 118 ID = 857
  12.201612 2  35B             Rx   d 8 0F 00 00 00 20 19 0C 00  Length = 1169426 BitCount = 121 ID = 859
  12.202352 2  457             Rx   d 3 00 47 00  Length = 699442 BitCount = 74 ID = 1111
  12.211611 2  320             Rx   d 8 00 00 00 01 00 09 00 80  Length = 1189426 BitCount = 123 ID = 800
  12.212471 2  575             Rx   d 4 00 00 00 00  Length = 819434 BitCount = 86 ID = 1397
  12.221621 2  367             Rx   d 8 FF 00 00 00 7E F0 01 00  Length = 1169426 BitCount = 121 ID = 871
  12.222860 2  369             Rx   d 8 3F 00 00 D0 FF 00 00 00  Length = 1189426 BitCount = 123 ID = 873
  12.224100 2  470             Rx   d 8 40 00 00 00 00 00 00 16  Length = 1199426 BitCount = 124 ID = 1136
  12.230191 2  40C             Rx   d 8 16 01 01 04 00 04 00 00  Length = 1189441 BitCount = 123 ID = 1036
  12.231480 2  381             Rx   d 6 00 00 00 00 00 00  Length = 1029430 BitCount = 107 ID = 897
  12.232330 2  531             Rx   d 4 00 20 C0 E0  Length = 799449 BitCount = 84 ID = 1329
  12.241640 2  397             Rx   d 8 00 00 00 00 00 00 00 00  Length = 1199426 BitCount = 124 ID = 919
  12.242690 2  4B9             Rx   d 6 00 00 00 00 00 00  Length = 1009430 BitCount = 105 ID = 1209
  12.243930 2  591             Rx   d 8 00 00 08 00 00 00 00 00  Length = 1199426 BitCount = 124 ID = 1425
  12.244760 2  653             Rx   d 4 81 01 41 01  Length = 789438 BitCount = 83 ID = 1619
  12.251419 2  4BD             Rx   d 6 00 00 00 00 00 00  Length = 999430 BitCount = 104 ID = 1213
  12.252629 2  658             Rx   d 8 78 28 00 08 00 92 00 00  Length = 1169426 BitCount = 121 ID = 1624
  12.260009 2  3E1             Rx   d 8 00 00 FF 00 00 00 84 78  Length = 1179441 BitCount = 122 ID = 993
  12.261179 2  5E1             Rx   d 7 00 00 00 00 00 00 00  Length = 1109445 BitCount = 115 ID = 1505
  12.262249 2  3B5             Rx   d 6 00 00 00 00 00 00  Length = 1029430 BitCount = 107 ID = 949
  12.262929 2  5D1             Rx   d 2 10 00  Length = 629457 BitCount = 67 ID = 1489
  12.271619 2  470             Rx   d 8 40 00 00 00 00 00 00 16  Length = 1199426 BitCount = 124 ID = 1136
  12.279158 2  621             Rx   d 8 00 ED 72 00 00 47 37 00  Length = 1139441 BitCount = 118 ID = 1569
  12.281198 2  436             Rx   d 8 00 01 01 04 00 00 02 00  Length = 1189441 BitCount = 123 ID = 1078
  12.282248 2  2C1             Rx   d 6 00 00 00 00 02 00  Length = 1009430 BitCount = 105 ID = 705
  12.283098 2  531             Rx   d 4 00 20 D0 F0  Length = 799438 BitCount = 84 ID = 1329
  12.284248 2  651             Rx   d 8 80 02 50 AF 39 59 01 00  Length = 1109430 BitCount = 115 ID = 1617
  12.291578 2  359             Rx   d 8 FF 89 FF 7F 1D 6B 80 00  Length = 1139430 BitCount = 118 ID = 857
  12.301617 2  35B             Rx   d 8 0F 00 00 00 20 19 0C 00  Length = 1169441 BitCount = 121 ID = 859
  12.302357 2  457             Rx   d 3 00 47 00  Length = 699442 BitCount = 74 ID = 1111
  12.321666 2  369             Rx   d 8 3F 00 00 D0 FF 00 00 00  Length = 1189441 BitCount = 123 ID = 873
  12.322906 2  470             Rx   d 8 40 00 00 00 00 00 00 16  Length = 1199426 BitCount = 124 ID = 1136
  12.323665 2  635             Rx   d 3 00 00 37  Length = 719453 BitCount = 76 ID = 1589
  12.331435 2  381             Rx   d 6 00 00 00 00 00 00  Length = 1029430 BitCount = 107 ID = 897
  12.332285 2  531             Rx   d 4 00 20 E0 C0  Length = 799438 BitCount = 84 ID = 1329
  12.333515 2  400             Rx   d 8 0C 01 01 04 04 00 00 00  Length = 1189426 BitCount = 123 ID = 1024
  12.341634 2  397             Rx   d 8 00 00 00 00 00 00 00 00  Length = 1199426 BitCount = 124 ID = 919
  12.342684 2  4B9             Rx   d 6 00 00 00 00 00 00  Length = 1009430 BitCount = 105 ID = 1209
  12.343864 2  655             Rx   d 8 75 00 F0 03 18 00 80 C0  Length = 1139430 BitCount = 118 ID = 1621
  12.351514 2  4BD             Rx   d 6 00 00 00 00 00 00  Length = 999430 BitCount = 104 ID = 1213
  12.352724 2  658             Rx   d 8 78 28 00 08 00 92 00 00  Length = 1169426 BitCount = 121 ID = 1624
  12.359774 2  3E1             Rx   d 8 00 00 FF 00 00 00 84 78  Length = 1179441 BitCount = 122 ID = 993
  12.361474 2  3B5             Rx   d 6 00 00 00 00 00 00  Length = 1029430 BitCount = 107 ID = 949
  12.362663 2  527             Rx   d 8 10 01 00 10 71 72 6E 08  Length = 1149441 BitCount = 119 ID = 1319
  12.363663 2  6B4             Rx   d 6 A8 01 C2 02 8E 22  Length = 959430 BitCount = 100 ID = 1716
  12.371643 2  470             Rx   d 8 40 00 00 00 00 00 00 16  Length = 1199426 BitCount = 124 ID = 1136
  12.379112 2  65F             Rx   d 8 02 00 00 00 00 00 00 00  Length = 1119430 BitCount = 116 ID = 1631
  12.380342 2  40C             Rx   d 8 16 01 01 04 00 04 00 00  Length = 1189426 BitCount = 123 ID = 1036
  12.381522 2  621             Rx   d 8 00 ED 72 00 00 47 37 00  Length = 1139430 BitCount = 118 ID = 1569
  12.382572 2  2C1             Rx   d 6 00 00 00 00 02 00  Length = 1009445 BitCount = 105 ID = 705
  12.383432 2  531             Rx   d 4 00 20 F0 D0  Length = 809434 BitCount = 85 ID = 1329
  12.384582 2  651             Rx   d 8 80 02 50 AF 39 59 01 00  Length = 1109445 BitCount = 115 ID = 1617
  12.391562 2  359             Rx   d 8 FF 89 FF 7F 1D 6B 80 00  Length = 1139430 BitCount = 118 ID = 857
  12.401601 2  35B             Rx   d 8 0F 00 00 00 20 19 0C 00  Length = 1169426 BitCount = 121 ID = 859
  12.402341 2  457             Rx   d 3 00 47 00  Length = 699442 BitCount = 74 ID = 1111
  12.411590 2  320             Rx   d 8 00 00 00 01 00 01 00 80  Length = 1189441 BitCount = 123 ID = 800
  12.412450 2  575             Rx   d 4 00 00 00 00  Length = 819434 BitCount = 86 ID = 1397
  12.413620 2  65D             Rx   d 8 82 2B 27 D0 70 AF 94 14  Length = 1129430 BitCount = 117 ID = 1629
  12.421630 2  367             Rx   d 8 FF 00 00 00 7E F0 01 00  Length = 1169426 BitCount = 121 ID = 871
  12.422870 2  369             Rx   d 8 3F 00 00 D0 FF 00 00 00  Length = 1189426 BitCount = 123 ID = 873
  12.424110 2  470             Rx   d 8 40 00 00 00 00 00 00 16  Length = 1199426 BitCount = 124 ID = 1136
  12.431199 2  436             Rx   d 8 00 01 01 04 00 00 02 00  Length = 1189426 BitCount = 123 ID = 1078
  12.432269 2  381             Rx   d 6 00 00 00 00 00 00  Length = 1029430 BitCount = 107 ID = 897
  12.433129 2  531             Rx   d 4 00 20 00 20  Length = 809449 BitCount = 85 ID = 1329
  12.436829 2  69D             Rx   d 2 14 42  Length = 619442 BitCount = 66 ID = 1693
  12.441689 2  397             Rx   d 8 00 00 00 00 00 00 00 00  Length = 1199426 BitCount = 124 ID = 919
  12.442739 2  4B9             Rx   d 6 00 00 00 00 00 00  Length = 1009430 BitCount = 105 ID = 1209
  12.443979 2  591             Rx   d 8 00 00 08 00 00 00 00 00  Length = 1199426 BitCount = 124 ID = 1425
  12.446799 2  67A             Rx   d 2 17 42  Length = 599446 BitCount = 64 ID = 1658
  12.451409 2  4BD             Rx   d 6 00 00 00 00 00 00  Length = 999445 BitCount = 104 ID = 1213
  12.452619 2  658             Rx   d 8 78 28 00 08 00 92 00 00  Length = 1169441 BitCount = 121 ID = 1624
  12.459999 2  3E1             Rx   d 8 00 00 FF 00 00 00 84 78  Length = 1179426 BitCount = 122 ID = 993
  12.461249 2  3E9             Rx   d 8 00 01 80 07 00 00 00 00  Length = 1189426 BitCount = 123 ID = 1001
  12.462319 2  3B5             Rx   d 6 00 00 00 00 00 00  Length = 1029430 BitCount = 107 ID = 949
  12.463469 2  5E1             Rx   d 7 00 00 00 00 00 00 00  Length = 1109430 BitCount = 115 ID = 1505
  12.464138 2  5D1             Rx   d 2 10 00  Length = 629442 BitCount = 67 ID = 1489
  12.465389 2  5E8             Rx   d 8 00 40 00 00 00 00 40 00  Length = 1209426 BitCount = 125 ID = 1512
  12.471609 2  470             Rx   d 8 40 00 00 00 00 00 00 16  Length = 1199426 BitCount = 124 ID = 1136
  12.479128 2  621             Rx   d 8 00 ED 72 00 00 47 37 00  Length = 1139430 BitCount = 118 ID = 1569
  12.481458 2  2C1             Rx   d 6 00 00 00 00 02 00  Length = 1009430 BitCount = 105 ID = 705
  12.482308 2  531             Rx   d 4 00 20 10 30  Length = 799438 BitCount = 84 ID = 1329
  12.483458 2  651             Rx   d 8 80 02 50 AF 39 59 01 00  Length = 1109430 BitCount = 115 ID = 1617
  12.484688 2  400             Rx   d 8 0C 01 01 04 04 00 00 00  Length = 1189426 BitCount = 123 ID = 1024
  12.491567 2  359             Rx   d 8 FF 89 FF 7F 1D 6B 80 00  Length = 1139430 BitCount = 118 ID = 857
  12.501607 2  35B             Rx   d 8 0F 00 00 00 20 19 0C 00  Length = 1169426 BitCount = 121 ID = 859
  12.502347 2  457             Rx   d 3 00 47 00  Length = 699442 BitCount = 74 ID = 1111
  12.516836 2  69D             Rx   d 2 19 42  Length = 609457 BitCount = 65 ID = 1693
  12.521636 2  369             Rx   d 8 3F 00 00 D0 FF 00 00 00  Length = 1189426 BitCount = 123 ID = 873
  12.522876 2  470             Rx   d 8 40 00 00 00 00 00 00 16  Length = 1199426 BitCount = 124 ID = 1136
  12.523636 2  635             Rx   d 3 00 00 37  Length = 719438 BitCount = 76 ID = 1589
  12.528315 2  60E             Rx   d 2 08 02  Length = 629442 BitCount = 67 ID = 1550
  12.529755 2  40C             Rx   d 8 16 01 01 04 00 04 00 00  Length = 1189426 BitCount = 123 ID = 1036
  12.531425 2  381             Rx   d 6 00 00 00 00 00 00  Length = 1029430 BitCount = 107 ID = 897
  12.532275 2  531             Rx   d 4 00 20 20 00  Length = 799449 BitCount = 84 ID = 1329
  12.540635 2  481             Rx   d 2 01 00  Length = 639442 BitCount = 68 ID = 1153
  12.541875 2  397             Rx   d 8 00 00 00 00 00 00 00 00  Length = 1199426 BitCount = 124 ID = 919
  12.542925 2  4B9             Rx   d 6 00 00 00 00 00 00  Length = 1009430 BitCount = 105 ID = 1209
  12.544175 2  5F5             Rx   d 8 00 10 00 00 00 00 00 00  Length = 1209426 BitCount = 125 ID = 1525
  12.545415 2  661             Rx   d 8 00 00 00 00 00 00 00 00  Length = 1199426 BitCount = 124 ID = 1633
  12.546565 2  665             Rx   d 7 00 00 00 00 00 00 00  Length = 1099430 BitCount = 114 ID = 1637
  12.547245 2  666             Rx   d 2 00 00  Length = 639442 BitCount = 68 ID = 1638
  12.551415 2  4BD             Rx   d 6 00 00 00 00 00 00  Length = 999430 BitCount = 104 ID = 1213
  12.552625 2  658             Rx   d 8 78 28 00 08 00 92 00 00  Length = 1169426 BitCount = 121 ID = 1624
  12.560055 2  3E1             Rx   d 8 00 00 FF 00 00 00 84 78  Length = 1179426 BitCount = 122 ID = 993
  12.561505 2  3B5             Rx   d 6 00 00 00 00 00 00  Length = 1029430 BitCount = 107 ID = 949
  12.562695 2  527             Rx   d 8 10 01 00 10 71 72 6E 08  Length = 1149426 BitCount = 119 ID = 1319
  12.571195 2  436             Rx   d 8 00 01 01 04 00 00 02 00  Length = 1189426 BitCount = 123 ID = 1078
  12.572435 2  470             Rx   d 8 40 00 00 00 00 00 00 16  Length = 1199426 BitCount = 124 ID = 1136
  12.573684 2  64F             Rx   d 8 3F 00 00 00 00 00 00 00  Length = 1209426 BitCount = 125 ID = 1615
  12.579094 2  65F             Rx   d 8 00 AA 8C 8E C0 00 00 00  Length = 1119441 BitCount = 116 ID = 1631
  12.580274 2  621             Rx   d 8 00 ED 72 00 00 47 37 00  Length = 1139430 BitCount = 118 ID = 1569
  12.581484 2  2C1             Rx   d 6 00 00 00 00 02 00  Length = 1009430 BitCount = 105 ID = 705
  12.582324 2  531             Rx   d 4 00 20 30 10  Length = 789438 BitCount = 83 ID = 1329
  12.583474 2  651             Rx   d 8 80 02 50 AF 39 59 01 00  Length = 1109445 BitCount = 115 ID = 1617
  12.591563 2  359             Rx   d 8 FF 89 FF 7F 1D 6B 80 00  Length = 1139430 BitCount = 118 ID = 857
  12.601583 2  35B             Rx   d 8 0F 00 00 00 20 19 0C 00  Length = 1169441 BitCount = 121 ID = 859
  12.602323 2  457             Rx   d 3 00 47 00  Length = 699442 BitCount = 74 ID = 1111
  12.611582 2  320             Rx   d 8 00 00 00 01 00 09 00 80  Length = 1189426 BitCount = 123 ID = 800
  12.612442 2  575             Rx   d 4 00 00 00 00  Length = 819449 BitCount = 86 ID = 1397
  12.621611 2  367             Rx   d 8 FF 00 00 00 7E F0 01 00  Length = 1169441 BitCount = 121 ID = 871
  12.622851 2  369             Rx   d 8 3F 00 00 D0 FF 00 00 00  Length = 1189426 BitCount = 123 ID = 873
  12.624091 2  470             Rx   d 8 40 00 00 00 00 00 00 16  Length = 1199441 BitCount = 124 ID = 1136
  12.625321 2  400             Rx   d 8 0C 01 01 04 04 00 00 00  Length = 1189426 BitCount = 123 ID = 1024
  12.629261 2  629             Rx   d 8 FF 0F FF 7F 2B 27 40 00  Length = 1139430 BitCount = 118 ID = 1577
  12.631421 2  381             Rx   d 6 00 00 00 00 00 00  Length = 1029430 BitCount = 107 ID = 897
  12.632281 2  531             Rx   d 4 00 20 40 60  Length = 809434 BitCount = 85 ID = 1329
  12.641610 2  397             Rx   d 8 00 00 00 00 00 00 00 00  Length = 1199441 BitCount = 124 ID = 919
  12.642660 2  4B9             Rx   d 6 00 00 00 00 00 00  Length = 1009430 BitCount = 105 ID = 1209
  12.643900 2  591             Rx   d 8 00 00 08 00 00 00 00 00  Length = 1199426 BitCount = 124 ID = 1425
  12.651390 2  4BD             Rx   d 6 00 00 00 00 00 00  Length = 999430 BitCount = 104 ID = 1213
  12.652599 2  658             Rx   d 8 78 28 00 08 00 92 00 00  Length = 1169426 BitCount = 121 ID = 1624
