date Thu Apr 2 05:08:02.011 pm 2020
base hex  timestamps absolute
internal events logged
// version 11.0.0
   0.008664 CAN 1 Status:chip status error active
   0.008664 CAN 2 Status:chip status error active
   1.008664 CAN 1 Status:chip status error active
   1.008664 CAN 2 Status:chip status error active
   2.008664 CAN 1 Status:chip status error active
   2.008664 CAN 2 Status:chip status error active
   3.008664 CAN 1 Status:chip status error active
   3.008664 CAN 2 Status:chip status error active
   4.008665 CAN 1 Status:chip status error active
   4.008665 CAN 2 Status:chip status error active
   5.008665 CAN 1 Status:chip status error active
   5.008665 CAN 2 Status:chip status error active
   6.008665 CAN 1 Status:chip status error active
   6.008665 CAN 2 Status:chip status error active
   7.008666 CAN 1 Status:chip status error active
   7.008666 CAN 2 Status:chip status error active
   8.008666 CAN 1 Status:chip status error active
   8.008666 CAN 2 Status:chip status error active
   9.008666 CAN 1 Status:chip status error active
   9.008666 CAN 2 Status:chip status error active
  10.008667 CAN 1 Status:chip status error active
  10.008667 CAN 2 Status:chip status error active
  11.008667 CAN 1 Status:chip status error active
  11.008667 CAN 2 Status:chip status error active
  12.008667 CAN 1 Status:chip status error active
  12.008667 CAN 2 Status:chip status error active
  13.008668 CAN 1 Status:chip status error active
  13.008668 CAN 2 Status:chip status error active
  14.008668 CAN 1 Status:chip status error active
  14.008668 CAN 2 Status:chip status error active
  15.008668 CAN 1 Status:chip status error active
  15.008668 CAN 2 Status:chip status error active
  16.008669 CAN 1 Status:chip status error active
  16.008669 CAN 2 Status:chip status error active
  17.008669 CAN 1 Status:chip status error active
  17.008669 CAN 2 Status:chip status error active
  18.008669 CAN 1 Status:chip status error active
  18.008669 CAN 2 Status:chip status error active
  19.008669 CAN 1 Status:chip status error active
  19.008669 CAN 2 Status:chip status error active
  19.852758 2  ErrorFrame	Flags = 0xfffe	CodeExt = 0x20a2	Code = 0x82	ID = 0	DLC = 0	Position = 5	Length = 59375
  19.852765 CAN 2 Status:chip status error active  - TxErr: 0 RxErr: 1
  19.854044 CAN 2 Status:chip status error active
  19.854117 2  43D             Rx   d 8 1D 02 03 00 00 04 00 00  Length = 1189426 BitCount = 123 ID = 1085
  19.863606 2  5A7             Rx   d 8 1C 19 00 00 00 00 00 00  Length = 1179426 BitCount = 122 ID = 1447
  19.864876 2  5A9             Rx   d 8 00 00 00 00 00 00 00 00  Length = 1219426 BitCount = 126 ID = 1449
  19.869656 2  ErrorFrame	Flags = 0xfffe	CodeExt = 0x20aa	Code = 0x82	ID = 0x320	DLC = 8	Position = 45	Length = 509375	Data = 0x1  0  0x7  0  0  0  0  0
  19.869664 CAN 2 Status:chip status error active  - TxErr: 0 RxErr: 1
  19.870954 CAN 2 Status:chip status error active
  19.871026 2  320             Rx   d 8 01 00 00 01 00 0F 00 80  Length = 1199441 BitCount = 124 ID = 800
  19.872266 2  400             Rx   d 8 00 02 01 04 00 04 00 00  Length = 1199426 BitCount = 124 ID = 1024
  19.880336 2  367             Rx   d 8 FF 00 00 00 7E EF 01 00  Length = 1159441 BitCount = 120 ID = 871
  19.881575 2  369             Rx   d 8 3F 00 00 D0 FF 00 00 00  Length = 1189426 BitCount = 123 ID = 873
  19.882805 2  470             Rx   d 8 40 08 00 00 00 00 00 15  Length = 1189426 BitCount = 123 ID = 1136
  19.890175 2  381             Rx   d 6 00 00 00 00 00 00  Length = 1029445 BitCount = 107 ID = 897
  19.891025 2  531             Rx   d 4 00 20 E0 C0  Length = 799449 BitCount = 84 ID = 1329
  19.898945 2  69E             Rx   d 4 40 00 01 02  Length = 809434 BitCount = 85 ID = 1694
  19.900384 2  397             Rx   d 8 00 00 00 00 00 00 00 00  Length = 1199426 BitCount = 124 ID = 919
  19.901434 2  4B9             Rx   d 6 00 00 00 00 00 00  Length = 1009430 BitCount = 105 ID = 1209
  19.902674 2  591             Rx   d 8 00 00 08 00 00 00 00 00  Length = 1199426 BitCount = 124 ID = 1425
  19.903914 2  5A9             Rx   d 8 00 00 03 00 00 00 00 00  Length = 1199441 BitCount = 124 ID = 1449
  19.905094 2  655             Rx   d 8 75 00 70 03 18 00 80 C0  Length = 1139430 BitCount = 118 ID = 1621
  19.906314 2  43D             Rx   d 8 00 01 03 04 00 14 00 00  Length = 1179441 BitCount = 122 ID = 1085
  19.907284 2  69E             Rx   d 2 14 42  Length = 599446 BitCount = 64 ID = 1694
  19.910154 2  4BD             Rx   d 6 01 00 00 00 00 00  Length = 999430 BitCount = 104 ID = 1213
  19.911364 2  658             Rx   d 8 50 28 00 07 00 9C 00 00  Length = 1169426 BitCount = 121 ID = 1624
  19.920193 2  3B5             Rx   d 6 00 00 00 00 00 00  Length = 1029430 BitCount = 107 ID = 949
  19.920863 2  5D1             Rx   d 2 10 00  Length = 629442 BitCount = 67 ID = 1489
  19.921853 2  6B4             Rx   d 6 8D 01 10 02 6A 55  Length = 949430 BitCount = 99 ID = 1716
  19.930343 2  470             Rx   d 8 40 08 00 00 00 00 00 15  Length = 1189426 BitCount = 123 ID = 1136
  19.933653 2  5A9             Rx   d 8 00 00 00 00 00 00 00 00  Length = 1219441 BitCount = 126 ID = 1449
  19.935703 2  67C             Rx   d 2 1C 42  Length = 609446 BitCount = 65 ID = 1660
  19.940412 2  2C1             Rx   d 6 00 00 00 00 02 00  Length = 1009430 BitCount = 105 ID = 705
  19.941272 2  531             Rx   d 4 00 20 F0 D0  Length = 809434 BitCount = 85 ID = 1329
  19.942422 2  651             Rx   d 8 80 02 50 AF 39 59 01 00  Length = 1109430 BitCount = 115 ID = 1617
  19.950292 2  359             Rx   d 8 FF 89 FF 00 10 6B 80 00  Length = 1149426 BitCount = 119 ID = 857
  19.951532 2  400             Rx   d 8 1D 01 01 04 00 04 00 00  Length = 1199441 BitCount = 124 ID = 1024
  19.960331 2  35B             Rx   d 8 0F 00 00 00 20 19 0C 00  Length = 1169426 BitCount = 121 ID = 859
  19.961071 2  457             Rx   d 3 00 47 00  Length = 699442 BitCount = 74 ID = 1111
  19.980360 2  369             Rx   d 8 3F 00 00 D0 FF 00 00 00  Length = 1189426 BitCount = 123 ID = 873
  19.981590 2  470             Rx   d 8 40 08 00 00 00 00 00 15  Length = 1189426 BitCount = 123 ID = 1136
  19.982340 2  635             Rx   d 3 00 00 15  Length = 709438 BitCount = 75 ID = 1589
  19.987270 2  69E             Rx   d 2 19 42  Length = 599446 BitCount = 64 ID = 1694
  19.988510 2  3E1             Rx   d 8 80 00 00 00 00 00 04 F8  Length = 1199441 BitCount = 124 ID = 993
  19.989780 2  3E3             Rx   d 8 00 00 FF 00 00 00 00 00  Length = 1209441 BitCount = 125 ID = 995
  19.990850 2  381             Rx   d 6 00 00 00 00 00 00  Length = 1029430 BitCount = 107 ID = 897
  19.992071 2  3E9             Rx   d 8 FE F8 DF FF 00 00 00 00  Length = 1179441 BitCount = 122 ID = 1001
  19.992921 2  531             Rx   d 4 00 20 00 20  Length = 809434 BitCount = 85 ID = 1329
  19.994160 2  40C             Rx   d 8 0C 02 01 04 00 04 00 00  Length = 1199441 BitCount = 124 ID = 1036
  19.995370 2  43D             Rx   d 8 00 01 03 04 00 16 00 00  Length = 1169426 BitCount = 121 ID = 1085
  19.996521 2  5E1             Rx   d 7 00 00 00 00 00 00 00  Length = 1109445 BitCount = 115 ID = 1505
  19.997771 2  5E8             Rx   d 8 00 00 FF FF 00 0C 00 00  Length = 1189441 BitCount = 123 ID = 1512
  20.000380 2  397             Rx   d 8 00 00 00 00 00 00 00 00  Length = 1199426 BitCount = 124 ID = 919
  20.001430 2  4B9             Rx   d 6 00 00 00 00 00 00  Length = 1009430 BitCount = 105 ID = 1209
  20.008670 CAN 1 Status:chip status error active
  20.008670 CAN 2 Status:chip status error active
  20.010140 2  4BD             Rx   d 6 01 00 00 00 00 00  Length = 999430 BitCount = 104 ID = 1213
  20.011340 2  658             Rx   d 8 50 28 00 07 00 9A 00 00  Length = 1159426 BitCount = 120 ID = 1624
  20.017799 2  621             Rx   d 8 00 3B 66 00 00 3A 15 00  Length = 1149426 BitCount = 119 ID = 1569
  20.020219 2  3B5             Rx   d 6 00 00 00 00 00 00  Length = 1029430 BitCount = 107 ID = 949
  20.021409 2  527             Rx   d 8 00 01 00 10 71 75 7E 08  Length = 1149426 BitCount = 119 ID = 1319
  20.030439 2  470             Rx   d 8 40 08 00 00 00 00 00 15  Length = 1189426 BitCount = 123 ID = 1136
  20.033649 2  5A9             Rx   d 8 00 00 00 00 00 00 00 00  Length = 1219426 BitCount = 126 ID = 1449
  20.040188 2  2C1             Rx   d 6 00 00 00 00 02 00  Length = 1009430 BitCount = 105 ID = 705
  20.041038 2  531             Rx   d 4 00 20 10 30  Length = 799438 BitCount = 84 ID = 1329
  20.042188 2  651             Rx   d 8 80 02 50 AF 39 59 01 00  Length = 1109430 BitCount = 115 ID = 1617
  20.043418 2  400             Rx   d 8 0C 01 01 04 00 04 00 00  Length = 1189426 BitCount = 123 ID = 1024
  20.047019 2  436             Rx   d 8 16 02 01 04 00 00 02 00  Length = 1169426 BitCount = 121 ID = 1078
  20.050289 2  359             Rx   d 8 FF 89 FF 00 10 6B 80 00  Length = 1149426 BitCount = 119 ID = 857
  20.056399 2  481             Rx   d 2 00 00  Length = 649442 BitCount = 69 ID = 1153
  20.057669 2  661             Rx   d 8 00 00 00 00 00 00 00 00  Length = 1199426 BitCount = 124 ID = 1633
  20.058839 2  665             Rx   d 7 00 00 00 00 00 00 00  Length = 1099430 BitCount = 114 ID = 1637
  20.059569 2  666             Rx   d 2 00 00  Length = 639442 BitCount = 68 ID = 1638
  20.060779 2  35B             Rx   d 8 0F 00 00 00 20 19 0C 00  Length = 1169426 BitCount = 121 ID = 859
  20.061519 2  457             Rx   d 3 00 47 00  Length = 699442 BitCount = 74 ID = 1111
  20.066979 2  60E             Rx   d 2 08 02  Length = 629442 BitCount = 67 ID = 1550
  20.070379 2  320             Rx   d 8 00 00 00 01 00 05 00 80  Length = 1189426 BitCount = 123 ID = 800
  20.071239 2  575             Rx   d 4 00 00 00 00  Length = 819434 BitCount = 86 ID = 1397
  20.073579 2  5A7             Rx   d 8 9C 19 00 00 00 00 00 00  Length = 1169426 BitCount = 121 ID = 1447
  20.080318 2  367             Rx   d 8 FF 00 00 00 7E EF 01 00  Length = 1159426 BitCount = 120 ID = 871
  20.081558 2  369             Rx   d 8 3F 00 00 D0 FF 00 00 00  Length = 1189426 BitCount = 123 ID = 873
  20.082788 2  470             Rx   d 8 40 08 00 00 00 00 00 15  Length = 1189426 BitCount = 123 ID = 1136
  20.086388 2  3E1             Rx   d 8 80 00 00 00 00 00 84 F8  Length = 1189426 BitCount = 123 ID = 993
  20.087638 2  40C             Rx   d 8 16 01 01 04 00 04 00 00  Length = 1189426 BitCount = 123 ID = 1036
  20.090168 2  381             Rx   d 6 00 00 00 00 00 00  Length = 1029445 BitCount = 107 ID = 897
  20.091018 2  531             Rx   d 4 00 20 20 00  Length = 799449 BitCount = 84 ID = 1329
  20.100357 2  397             Rx   d 8 00 00 00 00 00 00 00 00  Length = 1199426 BitCount = 124 ID = 919
  20.101407 2  4B9             Rx   d 6 00 00 00 00 00 00  Length = 1009430 BitCount = 105 ID = 1209
  20.102647 2  591             Rx   d 8 00 00 08 00 00 00 00 00  Length = 1199426 BitCount = 124 ID = 1425
  20.103897 2  5F5             Rx   d 8 00 10 00 00 00 00 00 00  Length = 1209426 BitCount = 125 ID = 1525
  20.110167 2  4BD             Rx   d 6 01 00 00 00 00 00  Length = 999430 BitCount = 104 ID = 1213
  20.111367 2  658             Rx   d 8 50 28 00 07 00 99 00 00  Length = 1159426 BitCount = 120 ID = 1624
  20.117746 2  65F             Rx   d 8 00 AA 8C 8E C0 00 00 00  Length = 1119430 BitCount = 116 ID = 1631
  20.118936 2  621             Rx   d 8 00 3B 66 00 00 3A 15 00  Length = 1149426 BitCount = 119 ID = 1569
  20.120226 2  3B5             Rx   d 6 00 00 00 00 00 00  Length = 1029430 BitCount = 107 ID = 949
  20.120896 2  5D1             Rx   d 2 10 00  Length = 629442 BitCount = 67 ID = 1489
  20.130346 2  470             Rx   d 8 40 08 00 00 00 00 00 15  Length = 1189426 BitCount = 123 ID = 1136
  20.131596 2  64F             Rx   d 8 3F 00 00 00 00 00 00 00  Length = 1209426 BitCount = 125 ID = 1615
  20.133636 2  5A9             Rx   d 8 00 00 00 00 00 00 00 00  Length = 1219426 BitCount = 126 ID = 1449
  20.136956 2  436             Rx   d 8 0C 01 01 04 00 00 02 00  Length = 1169441 BitCount = 121 ID = 1078
  20.140165 2  2C1             Rx   d 6 00 00 00 00 02 00  Length = 1009430 BitCount = 105 ID = 705
  20.141005 2  531             Rx   d 4 00 20 30 10  Length = 789438 BitCount = 83 ID = 1329
  20.142265 2  651             Rx   d 8 80 02 50 AF 39 59 01 00  Length = 1109430 BitCount = 115 ID = 1617
  20.143515 2  400             Rx   d 8 0C 02 01 04 00 04 00 00  Length = 1209426 BitCount = 125 ID = 1024
  20.144726 2  43D             Rx   d 8 00 02 03 04 00 16 00 00  Length = 1169441 BitCount = 121 ID = 1085
  20.150285 2  359             Rx   d 8 FF 89 FF 00 10 6B 80 00  Length = 1149426 BitCount = 119 ID = 857
  20.160355 2  35B             Rx   d 8 0F 00 00 00 20 19 0C 00  Length = 1169426 BitCount = 121 ID = 859
  20.161095 2  457             Rx   d 3 00 47 00  Length = 699442 BitCount = 74 ID = 1111
  20.167944 2  629             Rx   d 8 FF 0F FF 7F 32 27 40 00  Length = 1159426 BitCount = 120 ID = 1577
  20.180364 2  369             Rx   d 8 3F 00 00 D0 FF 00 00 00  Length = 1189441 BitCount = 123 ID = 873
  20.181594 2  470             Rx   d 8 40 08 00 00 00 00 00 15  Length = 1189426 BitCount = 123 ID = 1136
  20.182343 2  635             Rx   d 3 00 00 15  Length = 709438 BitCount = 75 ID = 1589
  20.186233 2  3E1             Rx   d 8 80 00 00 00 00 00 84 F8  Length = 1189426 BitCount = 123 ID = 993
  20.187483 2  40C             Rx   d 8 16 01 01 04 00 04 00 00  Length = 1189426 BitCount = 123 ID = 1036
  20.188653 2  5E1             Rx   d 7 00 00 00 00 00 00 00  Length = 1109430 BitCount = 115 ID = 1505
  20.190164 2  381             Rx   d 6 00 00 00 00 00 00  Length = 1029445 BitCount = 107 ID = 897
  20.191023 2  531             Rx   d 4 00 20 40 60  Length = 809434 BitCount = 85 ID = 1329
  20.192803 2  62B             Rx   d 8 00 10 00 40 03 00 FE 7F  Length = 1179426 BitCount = 122 ID = 1579
  20.196294 2  5E8             Rx   d 8 00 40 00 00 00 00 40 00  Length = 1209426 BitCount = 125 ID = 1512
  20.200353 2  397             Rx   d 8 00 00 00 00 00 00 00 00  Length = 1199426 BitCount = 124 ID = 919
  20.201403 2  4B9             Rx   d 6 00 00 00 00 00 00  Length = 1009430 BitCount = 105 ID = 1209
  20.210133 2  4BD             Rx   d 6 01 00 00 00 00 00  Length = 999430 BitCount = 104 ID = 1213
  20.211333 2  658             Rx   d 8 78 28 00 07 00 99 00 00  Length = 1159426 BitCount = 120 ID = 1624
  20.216403 2  5E1             Rx   d 7 80 00 00 00 00 00 00  Length = 1099445 BitCount = 114 ID = 1505
  20.217783 2  621             Rx   d 8 00 3B 66 00 00 3A 15 00  Length = 1149426 BitCount = 119 ID = 1569
  20.218953 2  62D             Rx   d 8 00 10 2E 41 C7 03 13 40  Length = 1129441 BitCount = 117 ID = 1581
  20.220213 2  3B5             Rx   d 6 00 00 00 00 00 00  Length = 1029430 BitCount = 107 ID = 949
  20.221403 2  527             Rx   d 8 00 01 00 10 71 75 7E 08  Length = 1149426 BitCount = 119 ID = 1319
  20.222423 2  571             Rx   d 6 94 1F 00 08 04 00  Length = 979430 BitCount = 102 ID = 1393
  20.230332 2  470             Rx   d 8 40 08 00 00 00 00 00 15  Length = 1189426 BitCount = 123 ID = 1136
  20.233632 2  5A9             Rx   d 8 00 00 00 00 00 00 00 00  Length = 1219426 BitCount = 126 ID = 1449
  20.240172 2  2C1             Rx   d 6 00 00 00 00 02 00  Length = 1009430 BitCount = 105 ID = 705
  20.241382 2  436             Rx   d 8 1D 01 01 04 00 00 02 00  Length = 1169426 BitCount = 121 ID = 1078
  20.242232 2  531             Rx   d 4 00 20 50 70  Length = 809449 BitCount = 85 ID = 1329
  20.243382 2  651             Rx   d 8 80 02 50 AF 39 59 01 00  Length = 1109430 BitCount = 115 ID = 1617
  20.250282 2  359             Rx   d 8 FF 89 FF 00 10 6B 80 00  Length = 1149426 BitCount = 119 ID = 857
  20.260331 2  35B             Rx   d 8 0F 00 00 00 20 19 0C 00  Length = 1169441 BitCount = 121 ID = 859
  20.261071 2  457             Rx   d 3 00 47 00  Length = 699442 BitCount = 74 ID = 1111
  20.270371 2  320             Rx   d 8 00 00 00 01 00 0D 00 80  Length = 1179426 BitCount = 122 ID = 800
  20.271231 2  575             Rx   d 4 00 00 00 00  Length = 819434 BitCount = 86 ID = 1397
  20.280320 2  367             Rx   d 8 FF 00 00 00 7E EF 01 00  Length = 1159426 BitCount = 120 ID = 871
  20.281560 2  369             Rx   d 8 3F 00 00 D0 FF 00 00 00  Length = 1189426 BitCount = 123 ID = 873
  20.282790 2  470             Rx   d 8 40 08 00 00 00 00 00 15  Length = 1189426 BitCount = 123 ID = 1136
  20.284000 2  43D             Rx   d 8 00 01 03 04 00 16 00 00  Length = 1169426 BitCount = 121 ID = 1085
  20.286600 2  3E1             Rx   d 8 80 00 00 00 00 00 84 F8  Length = 1189426 BitCount = 123 ID = 993
  20.290150 2  381             Rx   d 6 00 00 00 00 00 00  Length = 1029430 BitCount = 107 ID = 897
  20.291000 2  531             Rx   d 4 00 20 60 40  Length = 799438 BitCount = 84 ID = 1329
  20.292750 2  52D             Rx   d 8 FE 7F FF 0F FF 0F FF 0F  Length = 1169426 BitCount = 121 ID = 1325
  20.300349 2  397             Rx   d 8 00 00 00 00 00 00 00 00  Length = 1199426 BitCount = 124 ID = 919
  20.301399 2  4B9             Rx   d 6 00 00 00 00 00 00  Length = 1009430 BitCount = 105 ID = 1209
  20.302639 2  591             Rx   d 8 00 00 08 00 00 00 00 00  Length = 1199426 BitCount = 124 ID = 1425
  20.303469 2  653             Rx   d 4 81 01 41 01  Length = 789449 BitCount = 83 ID = 1619
  20.310149 2  4BD             Rx   d 6 01 00 00 00 00 00  Length = 999430 BitCount = 104 ID = 1213
  20.311359 2  658             Rx   d 8 78 28 00 07 00 98 00 00  Length = 1169426 BitCount = 121 ID = 1624
  20.317798 2  52F             Rx   d 8 00 00 FE 1F FE 1F FE 1F  Length = 1169426 BitCount = 121 ID = 1327
  20.318968 2  65F             Rx   d 8 01 00 00 00 00 00 00 00  Length = 1129430 BitCount = 117 ID = 1631
  20.320158 2  621             Rx   d 8 00 3B 66 00 00 3A 15 00  Length = 1149426 BitCount = 119 ID = 1569
  20.321228 2  3B5             Rx   d 6 00 00 00 00 00 00  Length = 1029430 BitCount = 107 ID = 949
  20.321908 2  481             Rx   d 2 01 00  Length = 639442 BitCount = 68 ID = 1153
  20.322578 2  5D1             Rx   d 2 10 00  Length = 629457 BitCount = 67 ID = 1489
  20.330328 2  470             Rx   d 8 40 08 00 00 00 00 00 15  Length = 1189426 BitCount = 123 ID = 1136
  20.331558 2  400             Rx   d 8 0C 01 01 04 00 04 00 00  Length = 1189441 BitCount = 123 ID = 1024
  20.333627 2  5A9             Rx   d 8 00 00 00 00 00 00 00 00  Length = 1219426 BitCount = 126 ID = 1449
  20.340157 2  2C1             Rx   d 6 00 00 00 00 02 00  Length = 1009430 BitCount = 105 ID = 705
  20.341007 2  531             Rx   d 4 00 20 70 50  Length = 799438 BitCount = 84 ID = 1329
  20.342157 2  651             Rx   d 8 80 02 50 AF 39 59 01 00  Length = 1109430 BitCount = 115 ID = 1617
  20.343327 2  532             Rx   d 8 00 00 8E 10 31 10 25 10  Length = 1129430 BitCount = 117 ID = 1330
  20.350266 2  359             Rx   d 8 FF 89 FF 00 10 6B 80 00  Length = 1149426 BitCount = 119 ID = 857
  20.360356 2  35B             Rx   d 8 0F 00 00 00 20 19 0C 00  Length = 1169426 BitCount = 121 ID = 859
  20.361096 2  457             Rx   d 3 00 47 00  Length = 699442 BitCount = 74 ID = 1111
  20.376626 2  40C             Rx   d 8 16 01 01 04 00 04 00 00  Length = 1189426 BitCount = 123 ID = 1036
  20.380336 2  369             Rx   d 8 3F 00 00 D0 FF 00 00 00  Length = 1189426 BitCount = 123 ID = 873
  20.381566 2  470             Rx   d 8 40 08 00 00 00 00 00 15  Length = 1189426 BitCount = 123 ID = 1136
  20.382316 2  635             Rx   d 3 00 00 15  Length = 709453 BitCount = 75 ID = 1589
  20.386425 2  3E1             Rx   d 8 80 00 00 00 00 00 84 F8  Length = 1189426 BitCount = 123 ID = 993
  20.387585 2  5E1             Rx   d 7 80 00 00 00 00 00 00  Length = 1099430 BitCount = 114 ID = 1505
  20.390146 2  381             Rx   d 6 00 00 00 00 00 00  Length = 1029430 BitCount = 107 ID = 897
  20.390996 2  531             Rx   d 4 00 20 80 A0  Length = 799438 BitCount = 84 ID = 1329
  20.400345 2  397             Rx   d 8 00 00 00 00 00 00 00 00  Length = 1199426 BitCount = 124 ID = 919
  20.401395 2  4B9             Rx   d 6 00 00 00 00 00 00  Length = 1009445 BitCount = 105 ID = 1209
  20.402575 2  655             Rx   d 8 75 00 70 03 18 00 80 C0  Length = 1139430 BitCount = 118 ID = 1621
  20.410114 2  4BD             Rx   d 6 01 00 00 00 00 00  Length = 999430 BitCount = 104 ID = 1213
  20.411324 2  658             Rx   d 8 78 28 00 07 00 98 00 00  Length = 1169426 BitCount = 121 ID = 1624
  20.417764 2  621             Rx   d 8 00 3B 66 00 00 3A 15 00  Length = 1149441 BitCount = 119 ID = 1569
  20.420194 2  3B5             Rx   d 6 00 00 00 00 00 00  Length = 1029430 BitCount = 107 ID = 949
  20.421403 2  436             Rx   d 8 1D 01 01 04 00 00 02 00  Length = 1169426 BitCount = 121 ID = 1078
  20.422604 2  527             Rx   d 8 10 01 00 10 71 75 7E 08  Length = 1159426 BitCount = 120 ID = 1319
  20.423594 2  6B4             Rx   d 6 8D 01 10 02 6A 55  Length = 949430 BitCount = 99 ID = 1716
  20.430323 2  470             Rx   d 8 40 08 00 00 00 00 00 15  Length = 1189426 BitCount = 123 ID = 1136
  20.435753 2  67C             Rx   d 2 1C 42  Length = 609446 BitCount = 65 ID = 1660
  20.440163 2  2C1             Rx   d 6 00 00 00 00 02 00  Length = 1009445 BitCount = 105 ID = 705
  20.440993 2  531             Rx   d 4 00 20 90 B0  Length = 779453 BitCount = 82 ID = 1329
  20.442142 2  651             Rx   d 8 80 02 50 AF 39 59 01 00  Length = 1109430 BitCount = 115 ID = 1617
  20.450262 2  359             Rx   d 8 FF 89 FF 00 10 6B 80 00  Length = 1149441 BitCount = 119 ID = 857
  20.460321 2  35B             Rx   d 8 0F 00 00 00 20 19 0C 00  Length = 1169426 BitCount = 121 ID = 859
  20.461061 2  457             Rx   d 3 00 47 00  Length = 699442 BitCount = 74 ID = 1111
  20.463632 2  43D             Rx   d 8 00 01 03 04 00 16 00 00  Length = 1169426 BitCount = 121 ID = 1085
  20.470301 2  320             Rx   d 8 00 00 00 01 00 05 00 80  Length = 1189426 BitCount = 123 ID = 800
  20.471161 2  575             Rx   d 4 00 00 00 00  Length = 819434 BitCount = 86 ID = 1397
  20.472361 2  65D             Rx   d 8 82 32 27 E0 F0 00 91 06  Length = 1159426 BitCount = 120 ID = 1629
  20.480311 2  367             Rx   d 8 FF 00 00 00 7E EF 01 00  Length = 1159426 BitCount = 120 ID = 871
  20.481551 2  369             Rx   d 8 3F 00 00 D0 FF 00 00 00  Length = 1189426 BitCount = 123 ID = 873
  20.482781 2  470             Rx   d 8 40 08 00 00 00 00 00 15  Length = 1189426 BitCount = 123 ID = 1136
  20.486531 2  3E1             Rx   d 8 80 00 00 00 00 00 84 F8  Length = 1189426 BitCount = 123 ID = 993
  20.487801 2  3E9             Rx   d 8 00 00 00 00 00 00 00 00  Length = 1209426 BitCount = 125 ID = 1001
  20.489081 2  5E8             Rx   d 8 00 40 00 00 00 00 40 00  Length = 1209426 BitCount = 125 ID = 1512
  20.490581 2  381             Rx   d 6 00 00 00 00 00 00  Length = 1029430 BitCount = 107 ID = 897
  20.491431 2  531             Rx   d 4 00 20 A0 80  Length = 799438 BitCount = 84 ID = 1329
  20.500330 2  397             Rx   d 8 00 00 00 00 00 00 00 00  Length = 1199426 BitCount = 124 ID = 919
  20.501380 2  4B9             Rx   d 6 00 00 00 00 00 00  Length = 1009445 BitCount = 105 ID = 1209
  20.502620 2  591             Rx   d 8 00 00 08 00 00 00 00 00  Length = 1199441 BitCount = 124 ID = 1425
  20.506360 2  3E1             Rx   d 8 00 00 FF 00 00 00 84 78  Length = 1179426 BitCount = 122 ID = 993
  20.508140 2  69E             Rx   d 2 14 42  Length = 599446 BitCount = 64 ID = 1694
  20.510130 2  4BD             Rx   d 6 01 00 00 00 00 00  Length = 999430 BitCount = 104 ID = 1213
  20.511330 2  658             Rx   d 8 78 28 00 07 00 97 00 00  Length = 1159426 BitCount = 120 ID = 1624
  20.512580 2  400             Rx   d 8 0C 01 01 04 00 00 00 00  Length = 1209441 BitCount = 125 ID = 1024
  20.517720 2  65F             Rx   d 8 02 00 00 00 00 00 00 00  Length = 1119441 BitCount = 116 ID = 1631
  20.518910 2  621             Rx   d 8 00 3B 66 00 00 3A 15 00  Length = 1149426 BitCount = 119 ID = 1569
  20.520200 2  3B5             Rx   d 6 00 00 00 00 00 00  Length = 1029445 BitCount = 107 ID = 949
  20.520870 2  5D1             Rx   d 2 10 00  Length = 629457 BitCount = 67 ID = 1489
  20.530329 2  470             Rx   d 8 40 08 00 00 00 00 00 15  Length = 1189441 BitCount = 123 ID = 1136
  20.534219 2  67D             Rx   d 4 40 00 01 14  Length = 799438 BitCount = 84 ID = 1661
  20.540139 2  2C1             Rx   d 6 00 00 00 00 02 00  Length = 1009445 BitCount = 105 ID = 705
  20.540979 2  531             Rx   d 4 00 20 B0 90  Length = 789438 BitCount = 83 ID = 1329
  20.542129 2  651             Rx   d 8 80 02 50 AF 39 59 01 00  Length = 1109430 BitCount = 115 ID = 1617
  20.543329 2  66C             Rx   d 8 0C 42 03 00 31 00 03 01  Length = 1159426 BitCount = 120 ID = 1644
  20.550259 2  359             Rx   d 8 FF 89 FF 00 10 6B 80 00  Length = 1149426 BitCount = 119 ID = 857
  20.556818 2  40C             Rx   d 8 16 01 01 04 00 04 00 00  Length = 1189441 BitCount = 123 ID = 1036
  20.560328 2  35B             Rx   d 8 0F 00 00 00 20 19 0C 00  Length = 1169426 BitCount = 121 ID = 859
  20.561068 2  457             Rx   d 3 00 47 00  Length = 699442 BitCount = 74 ID = 1111
  20.563528 2  69D             Rx   d 2 14 42  Length = 619442 BitCount = 66 ID = 1693
  20.573428 2  67A             Rx   d 2 17 42  Length = 599446 BitCount = 64 ID = 1658
  20.580578 2  369             Rx   d 8 3F 00 00 D0 FF 00 00 00  Length = 1189426 BitCount = 123 ID = 873
  20.581808 2  470             Rx   d 8 40 08 00 00 00 00 00 15  Length = 1189426 BitCount = 123 ID = 1136
  20.582558 2  635             Rx   d 3 00 00 15  Length = 709438 BitCount = 75 ID = 1589
  20.586417 2  3E1             Rx   d 8 00 00 FF 00 00 00 84 78  Length = 1179441 BitCount = 122 ID = 993
  20.587577 2  5E1             Rx   d 7 80 00 00 00 00 00 00  Length = 1099445 BitCount = 114 ID = 1505
  20.588218 2  69E             Rx   d 2 19 42  Length = 599446 BitCount = 64 ID = 1694
  20.590138 2  381             Rx   d 6 00 00 00 00 00 00  Length = 1029430 BitCount = 107 ID = 897
  20.590988 2  531             Rx   d 4 00 20 C0 E0  Length = 799438 BitCount = 84 ID = 1329
  20.600327 2  397             Rx   d 8 00 00 00 00 00 00 00 00  Length = 1199426 BitCount = 124 ID = 919
  20.601377 2  4B9             Rx   d 6 00 00 00 00 00 00  Length = 1009430 BitCount = 105 ID = 1209
  20.602627 2  5F5             Rx   d 8 00 10 00 00 00 00 00 00  Length = 1209426 BitCount = 125 ID = 1525
  20.607907 2  436             Rx   d 8 1D 01 01 04 00 00 02 00  Length = 1169426 BitCount = 121 ID = 1078
  20.610106 2  4BD             Rx   d 6 01 00 00 00 00 00  Length = 999430 BitCount = 104 ID = 1213
  20.611306 2  658             Rx   d 8 78 28 00 07 00 97 00 00  Length = 1159426 BitCount = 120 ID = 1624
  20.617746 2  621             Rx   d 8 00 3B 66 00 00 3A 15 00  Length = 1149426 BitCount = 119 ID = 1569
  20.620186 2  3B5             Rx   d 6 00 00 00 00 00 00  Length = 1029430 BitCount = 107 ID = 949
  20.621386 2  527             Rx   d 8 10 01 00 10 71 75 7E 08  Length = 1159426 BitCount = 120 ID = 1319
  20.626535 2  67C             Rx   d 2 1C 41  Length = 649457 BitCount = 69 ID = 1660
  20.630305 2  470             Rx   d 8 40 08 00 00 00 00 00 15  Length = 1189426 BitCount = 123 ID = 1136
  20.631555 2  64F             Rx   d 8 3F 00 00 00 00 00 00 00  Length = 1209426 BitCount = 125 ID = 1615
  20.634135 2  66C             Rx   d 8 80 2E 4C 41 03 00 31 00  Length = 1139430 BitCount = 118 ID = 1644
  20.640145 2  2C1             Rx   d 6 00 00 00 00 02 00  Length = 1009430 BitCount = 105 ID = 705
  20.640995 2  531             Rx   d 4 00 20 D0 F0  Length = 799438 BitCount = 84 ID = 1329
  20.642145 2  651             Rx   d 8 80 02 50 AF 39 59 01 00  Length = 1109445 BitCount = 115 ID = 1617
  20.643564 2  69D             Rx   d 2 19 42  Length = 609457 BitCount = 65 ID = 1693
  20.650254 2  359             Rx   d 8 FF 89 FF 00 10 6B 80 00  Length = 1149426 BitCount = 119 ID = 857
  20.653614 2  43D             Rx   d 8 00 01 03 04 00 16 00 00  Length = 1169426 BitCount = 121 ID = 1085
  20.660324 2  35B             Rx   d 8 0F 00 00 00 20 19 0C 00  Length = 1169426 BitCount = 121 ID = 859
  20.661064 2  457             Rx   d 3 00 47 00  Length = 699453 BitCount = 74 ID = 1111
  20.664134 2  66C             Rx   d 8 C0 03 01 08 00 38 03 FF  Length = 1169426 BitCount = 121 ID = 1644
  20.670514 2  320             Rx   d 8 00 00 00 01 00 0D 00 80  Length = 1179441 BitCount = 122 ID = 800
  20.671374 2  575             Rx   d 4 00 00 00 00  Length = 819434 BitCount = 86 ID = 1397
  20.680283 2  367             Rx   d 8 FF 00 00 00 7E EF 01 00  Length = 1159426 BitCount = 120 ID = 871
  20.681523 2  369             Rx   d 8 3F 00 00 D0 FF 00 00 00  Length = 1189441 BitCount = 123 ID = 873
  20.682753 2  470             Rx   d 8 40 08 00 00 00 00 00 15  Length = 1189426 BitCount = 123 ID = 1136
  20.686453 2  3E1             Rx   d 8 00 00 00 00 00 00 84 78  Length = 1199426 BitCount = 124 ID = 993
  20.690143 2  381             Rx   d 6 00 00 00 00 00 00  Length = 1029430 BitCount = 107 ID = 897
  20.690993 2  531             Rx   d 4 00 20 E0 C0  Length = 799438 BitCount = 84 ID = 1329
  20.694123 2  66C             Rx   d 8 C1 BC 00 00 00 00 0A 1E  Length = 1159426 BitCount = 120 ID = 1644
  20.700323 2  397             Rx   d 8 00 00 00 00 00 00 00 00  Length = 1199441 BitCount = 124 ID = 919
  20.701372 2  4B9             Rx   d 6 00 00 00 00 00 00  Length = 1009430 BitCount = 105 ID = 1209
  20.702612 2  591             Rx   d 8 00 00 08 00 00 00 00 00  Length = 1199426 BitCount = 124 ID = 1425
  20.703952 2  400             Rx   d 8 0C 01 01 04 00 00 00 00  Length = 1209441 BitCount = 125 ID = 1024
  20.710112 2  4BD             Rx   d 6 01 00 00 00 00 00  Length = 999445 BitCount = 104 ID = 1213
  20.711322 2  658             Rx   d 8 78 28 00 07 00 96 00 00  Length = 1169441 BitCount = 121 ID = 1624
  20.717702 2  65F             Rx   d 8 00 AA 8C 8E C0 00 00 00  Length = 1119430 BitCount = 116 ID = 1631
  20.718891 2  621             Rx   d 8 00 3B 66 00 00 3A 15 00  Length = 1149426 BitCount = 119 ID = 1569
  20.720191 2  3B5             Rx   d 6 00 00 00 00 00 00  Length = 1029430 BitCount = 107 ID = 949
  20.721211 2  571             Rx   d 6 93 1F 00 08 04 00  Length = 979430 BitCount = 102 ID = 1393
  20.721891 2  5D1             Rx   d 2 10 00  Length = 629442 BitCount = 67 ID = 1489
  20.724151 2  66C             Rx   d 8 C2 00 00 00 00 00 02 00  Length = 1179426 BitCount = 122 ID = 1644
  20.730321 2  470             Rx   d 8 40 08 00 00 00 00 00 15  Length = 1189426 BitCount = 123 ID = 1136
  20.740130 2  2C1             Rx   d 6 00 00 00 00 02 00  Length = 1009430 BitCount = 105 ID = 705
  20.740990 2  531             Rx   d 4 00 20 F0 D0  Length = 809434 BitCount = 85 ID = 1329
  20.742140 2  651             Rx   d 8 80 02 50 AF 39 59 01 00  Length = 1109445 BitCount = 115 ID = 1617
  20.746550 2  40C             Rx   d 8 16 01 01 04 00 04 00 00  Length = 1189426 BitCount = 123 ID = 1036
  20.750240 2  359             Rx   d 8 FF 89 FF 00 10 6B 80 00  Length = 1149426 BitCount = 119 ID = 857
  20.754080 2  66C             Rx   d 8 C3 00 00 00 00 00 00 06  Length = 1179426 BitCount = 122 ID = 1644
  20.760470 2  35B             Rx   d 8 0F 00 00 00 20 19 0C 00  Length = 1169441 BitCount = 121 ID = 859
  20.761210 2  457             Rx   d 3 00 47 00  Length = 699442 BitCount = 74 ID = 1111
  20.780329 2  369             Rx   d 8 3F 00 00 D0 FF 00 00 00  Length = 1189441 BitCount = 123 ID = 873
  20.781559 2  470             Rx   d 8 40 08 00 00 00 00 00 15  Length = 1189426 BitCount = 123 ID = 1136
  20.782309 2  635             Rx   d 3 00 00 15  Length = 709438 BitCount = 75 ID = 1589
  20.784158 2  66C             Rx   d 8 C4 00 00 00 00 00 00 00  Length = 1199426 BitCount = 124 ID = 1644
  20.786169 2  3E1             Rx   d 8 00 00 00 00 00 00 84 78  Length = 1199426 BitCount = 124 ID = 993
  20.787418 2  3E3             Rx   d 8 00 00 86 00 00 00 00 00  Length = 1189441 BitCount = 123 ID = 995
  20.788628 2  436             Rx   d 8 1D 01 01 04 00 00 02 00  Length = 1169426 BitCount = 121 ID = 1078
  20.789768 2  5E1             Rx   d 7 80 00 00 00 00 00 00  Length = 1099430 BitCount = 114 ID = 1505
  20.790839 2  381             Rx   d 6 00 00 00 00 00 00  Length = 1029430 BitCount = 107 ID = 897
  20.791699 2  531             Rx   d 4 00 20 00 20  Length = 809434 BitCount = 85 ID = 1329
  20.800318 2  397             Rx   d 8 00 00 00 00 00 00 00 00  Length = 1199426 BitCount = 124 ID = 919
  20.801368 2  4B9             Rx   d 6 00 00 00 00 00 00  Length = 1009430 BitCount = 105 ID = 1209
  20.802198 2  653             Rx   d 4 81 01 41 01  Length = 789438 BitCount = 83 ID = 1619
  20.810097 2  4BD             Rx   d 6 01 00 00 00 00 00  Length = 999430 BitCount = 104 ID = 1213
  20.811307 2  658             Rx   d 8 78 28 00 07 00 96 00 00  Length = 1169426 BitCount = 121 ID = 1624
  20.814127 2  66C             Rx   d 8 C5 00 02 00 00 00 16 00  Length = 1179426 BitCount = 122 ID = 1644
  20.817778 2  621             Rx   d 8 00 3B 66 00 00 3A 15 00  Length = 1149426 BitCount = 119 ID = 1569
  20.820157 2  3B5             Rx   d 6 00 00 00 00 00 00  Length = 1029430 BitCount = 107 ID = 949
  20.821357 2  527             Rx   d 8 10 01 00 10 71 75 7E 08  Length = 1159426 BitCount = 120 ID = 1319
  20.830297 2  470             Rx   d 8 40 08 00 00 00 00 00 15  Length = 1189426 BitCount = 123 ID = 1136
  20.833617 2  43D             Rx   d 8 00 01 03 04 00 16 00 00  Length = 1169426 BitCount = 121 ID = 1085
  20.840137 2  2C1             Rx   d 6 00 00 00 00 02 00  Length = 1009430 BitCount = 105 ID = 705
  20.840987 2  531             Rx   d 4 00 20 10 30  Length = 799438 BitCount = 84 ID = 1329
  20.842137 2  651             Rx   d 8 80 02 50 AF 39 59 01 00  Length = 1109430 BitCount = 115 ID = 1617
  20.850246 2  359             Rx   d 8 FF 89 FF 00 10 6B 80 00  Length = 1149426 BitCount = 119 ID = 857
  20.860305 2  35B             Rx   d 8 0F 00 00 00 20 19 0C 00  Length = 1169441 BitCount = 121 ID = 859
  20.861045 2  457             Rx   d 3 00 47 00  Length = 699442 BitCount = 74 ID = 1111
  20.863596 2  5A7             Rx   d 8 9C 19 00 00 00 00 00 00  Length = 1169426 BitCount = 121 ID = 1447
  20.864856 2  5A9             Rx   d 8 00 00 00 00 00 00 00 00  Length = 1219426 BitCount = 126 ID = 1449
  20.870285 2  320             Rx   d 8 00 00 00 01 00 05 00 80  Length = 1189426 BitCount = 123 ID = 800
  20.871145 2  575             Rx   d 4 00 00 00 00  Length = 819434 BitCount = 86 ID = 1397
  20.880285 2  367             Rx   d 8 FF 00 00 00 7E EF 01 00  Length = 1159426 BitCount = 120 ID = 871
  20.881525 2  369             Rx   d 8 3F 00 00 D0 FF 00 00 00  Length = 1189426 BitCount = 123 ID = 873
  20.882755 2  470             Rx   d 8 40 08 00 00 00 00 00 15  Length = 1189426 BitCount = 123 ID = 1136
  20.884005 2  400             Rx   d 8 0C 01 01 04 00 00 00 00  Length = 1209426 BitCount = 125 ID = 1024
  20.886485 2  3E1             Rx   d 8 00 00 00 00 00 00 84 78  Length = 1199426 BitCount = 124 ID = 993
  20.890125 2  381             Rx   d 6 00 00 00 00 00 00  Length = 1029430 BitCount = 107 ID = 897
  20.890975 2  531             Rx   d 4 00 20 20 00  Length = 799438 BitCount = 84 ID = 1329
  20.900314 2  397             Rx   d 8 00 00 00 00 00 00 00 00  Length = 1199426 BitCount = 124 ID = 919
  20.901364 2  4B9             Rx   d 6 00 00 00 00 00 00  Length = 1009430 BitCount = 105 ID = 1209
  20.902604 2  591             Rx   d 8 00 00 08 00 00 00 00 00  Length = 1199426 BitCount = 124 ID = 1425
  20.903784 2  655             Rx   d 8 75 00 70 03 18 00 80 C0  Length = 1139430 BitCount = 118 ID = 1621
  20.910133 2  4BD             Rx   d 6 01 00 00 00 00 00  Length = 999430 BitCount = 104 ID = 1213
  20.911333 2  658             Rx   d 8 78 28 00 07 00 95 00 00  Length = 1159426 BitCount = 120 ID = 1624
  20.917723 2  65F             Rx   d 8 01 00 00 00 00 00 00 00  Length = 1129430 BitCount = 117 ID = 1631
  20.918913 2  621             Rx   d 8 00 3B 66 00 00 3A 15 00  Length = 1149441 BitCount = 119 ID = 1569
  20.920193 2  3B5             Rx   d 6 00 00 00 00 00 00  Length = 1029430 BitCount = 107 ID = 949
  20.920863 2  5D1             Rx   d 2 10 00  Length = 629442 BitCount = 67 ID = 1489
  20.921853 2  6B4             Rx   d 6 8D 01 10 02 6A 55  Length = 949445 BitCount = 99 ID = 1716
  20.926553 2  40C             Rx   d 8 16 01 01 04 00 04 00 00  Length = 1189426 BitCount = 123 ID = 1036
  20.930292 2  470             Rx   d 8 40 08 00 00 00 00 00 15  Length = 1189426 BitCount = 123 ID = 1136
  20.940112 2  2C1             Rx   d 6 00 00 00 00 02 00  Length = 1009430 BitCount = 105 ID = 705
  20.940952 2  531             Rx   d 4 00 20 30 10  Length = 789438 BitCount = 83 ID = 1329
  20.942102 2  651             Rx   d 8 80 02 50 AF 39 59 01 00  Length = 1109430 BitCount = 115 ID = 1617
  20.950231 2  359             Rx   d 8 FF 89 FF 00 10 6B 80 00  Length = 1149426 BitCount = 119 ID = 857
  20.960271 2  35B             Rx   d 8 0F 00 00 00 20 19 0C 00  Length = 1169441 BitCount = 121 ID = 859
  20.961010 2  457             Rx   d 3 00 47 00  Length = 699442 BitCount = 74 ID = 1111
  20.967910 2  436             Rx   d 8 1D 01 01 04 00 00 02 00  Length = 1169426 BitCount = 121 ID = 1078
  20.980300 2  369             Rx   d 8 3F 00 00 D0 FF 00 00 00  Length = 1189426 BitCount = 123 ID = 873
  20.981530 2  470             Rx   d 8 40 08 00 00 00 00 00 15  Length = 1189426 BitCount = 123 ID = 1136
  20.982280 2  635             Rx   d 3 00 00 15  Length = 709453 BitCount = 75 ID = 1589
  20.986070 2  3E1             Rx   d 8 00 00 00 00 00 00 84 78  Length = 1199441 BitCount = 124 ID = 993
  20.987350 2  3E9             Rx   d 8 00 00 00 00 00 00 00 00  Length = 1209426 BitCount = 125 ID = 1001
  20.988509 2  5E1             Rx   d 7 80 00 00 00 00 00 00  Length = 1099430 BitCount = 114 ID = 1505
  20.989789 2  5E8             Rx   d 8 00 40 00 00 00 00 40 00  Length = 1209426 BitCount = 125 ID = 1512
  20.990860 2  381             Rx   d 6 00 00 00 00 00 00  Length = 1029430 BitCount = 107 ID = 897
  20.991720 2  531             Rx   d 4 00 20 40 60  Length = 809434 BitCount = 85 ID = 1329
  21.000299 2  397             Rx   d 8 00 00 00 00 00 00 00 00  Length = 1199426 BitCount = 124 ID = 919
  21.001349 2  4B9             Rx   d 6 00 00 00 00 00 00  Length = 1009430 BitCount = 105 ID = 1209
  21.008670 CAN 1 Status:chip status error active
  21.008670 CAN 2 Status:chip status error active
  21.010079 2  4BD             Rx   d 6 01 00 00 00 00 00  Length = 999430 BitCount = 104 ID = 1213
  21.011278 2  658             Rx   d 8 78 28 00 07 00 95 00 00  Length = 1159426 BitCount = 120 ID = 1624
  21.013608 2  43D             Rx   d 8 00 01 03 04 00 16 00 00  Length = 1169441 BitCount = 121 ID = 1085
  21.017718 2  621             Rx   d 8 00 3B 66 00 00 3A 15 00  Length = 1149441 BitCount = 119 ID = 1569
  21.020158 2  3B5             Rx   d 6 00 00 00 00 00 00  Length = 1029430 BitCount = 107 ID = 949
  21.021358 2  527             Rx   d 8 10 01 00 10 71 75 7E 08  Length = 1159426 BitCount = 120 ID = 1319
  21.030287 2  470             Rx   d 8 40 08 00 00 00 00 00 15  Length = 1189426 BitCount = 123 ID = 1136
  21.040127 2  2C1             Rx   d 6 00 00 00 00 02 00  Length = 1009445 BitCount = 105 ID = 705
  21.040987 2  531             Rx   d 4 00 20 50 70  Length = 809449 BitCount = 85 ID = 1329
  21.042137 2  651             Rx   d 8 80 02 50 AF 39 59 01 00  Length = 1109430 BitCount = 115 ID = 1617
  21.050226 2  359             Rx   d 8 FF 89 FF 00 10 6B 80 00  Length = 1149441 BitCount = 119 ID = 857
  21.060286 2  35B             Rx   d 8 0F 00 00 00 20 19 0C 00  Length = 1169426 BitCount = 121 ID = 859
  21.061025 2  457             Rx   d 3 00 47 00  Length = 699442 BitCount = 74 ID = 1111
  21.062275 2  400             Rx   d 8 0C 01 01 04 00 00 00 00  Length = 1209441 BitCount = 125 ID = 1024
  21.066885 2  60E             Rx   d 2 08 02  Length = 629442 BitCount = 67 ID = 1550
  21.067565 2  481             Rx   d 2 01 00  Length = 639442 BitCount = 68 ID = 1153
  21.068805 2  661             Rx   d 8 00 00 00 00 00 00 00 00  Length = 1199426 BitCount = 124 ID = 1633
  21.069945 2  665             Rx   d 7 00 00 00 00 00 00 00  Length = 1099430 BitCount = 114 ID = 1637
  21.071165 2  320             Rx   d 8 00 00 00 01 00 0D 00 80  Length = 1179426 BitCount = 122 ID = 800
  21.072025 2  575             Rx   d 4 00 00 00 00  Length = 819434 BitCount = 86 ID = 1397
  21.072705 2  666             Rx   d 2 00 00  Length = 639442 BitCount = 68 ID = 1638
  21.080255 2  367             Rx   d 8 FF 00 00 00 7E EF 01 00  Length = 1159426 BitCount = 120 ID = 871
  21.081495 2  369             Rx   d 8 3F 00 00 D0 FF 00 00 00  Length = 1189426 BitCount = 123 ID = 873
  21.082725 2  470             Rx   d 8 40 08 00 00 00 00 00 15  Length = 1189426 BitCount = 123 ID = 1136
  21.086435 2  3E1             Rx   d 8 00 00 00 00 00 00 84 78  Length = 1199441 BitCount = 124 ID = 993
  21.090125 2  381             Rx   d 6 00 00 00 00 00 00  Length = 1029430 BitCount = 107 ID = 897
  21.090975 2  531             Rx   d 4 00 20 60 40  Length = 799438 BitCount = 84 ID = 1329
  21.100294 2  397             Rx   d 8 00 00 00 00 00 00 00 00  Length = 1199426 BitCount = 124 ID = 919
  21.101344 2  4B9             Rx   d 6 00 00 00 00 00 00  Length = 1009445 BitCount = 105 ID = 1209
  21.102584 2  591             Rx   d 8 00 00 08 00 00 00 00 00  Length = 1199426 BitCount = 124 ID = 1425
  21.103834 2  5F5             Rx   d 8 00 10 00 00 00 00 00 00  Length = 1209426 BitCount = 125 ID = 1525
  21.106474 2  40C             Rx   d 8 16 01 01 04 00 04 00 00  Length = 1189426 BitCount = 123 ID = 1036
  21.108134 2  69E             Rx   d 2 14 42  Length = 599446 BitCount = 64 ID = 1694
  21.110114 2  4BD             Rx   d 6 01 00 00 00 00 00  Length = 999430 BitCount = 104 ID = 1213
  21.111314 2  658             Rx   d 8 78 28 00 07 00 95 00 00  Length = 1159426 BitCount = 120 ID = 1624
  21.117664 2  65F             Rx   d 8 02 00 00 00 00 00 00 00  Length = 1119441 BitCount = 116 ID = 1631
  21.118854 2  621             Rx   d 8 00 3B 66 00 00 3A 15 00  Length = 1149426 BitCount = 119 ID = 1569
  21.120163 2  3B5             Rx   d 6 00 00 00 00 00 00  Length = 1029445 BitCount = 107 ID = 949
  21.120833 2  5D1             Rx   d 2 10 00  Length = 629457 BitCount = 67 ID = 1489
  21.130293 2  470             Rx   d 8 40 08 00 00 00 00 00 15  Length = 1189441 BitCount = 123 ID = 1136
  21.131543 2  64F             Rx   d 8 3F 00 00 00 00 00 00 00  Length = 1209426 BitCount = 125 ID = 1615
  21.140102 2  2C1             Rx   d 6 00 00 00 00 02 00  Length = 1009430 BitCount = 105 ID = 705
  21.140952 2  531             Rx   d 4 00 20 70 50  Length = 799438 BitCount = 84 ID = 1329
  21.142102 2  651             Rx   d 8 80 02 50 AF 39 59 01 00  Length = 1109430 BitCount = 115 ID = 1617
  21.147912 2  436             Rx   d 8 1D 01 01 04 00 00 02 00  Length = 1169426 BitCount = 121 ID = 1078
  21.150222 2  359             Rx   d 8 FF 89 FF 00 10 6B 80 00  Length = 1149426 BitCount = 119 ID = 857
  21.160292 2  35B             Rx   d 8 0F 00 00 00 20 19 0C 00  Length = 1169426 BitCount = 121 ID = 859
  21.161031 2  457             Rx   d 3 00 47 00  Length = 699442 BitCount = 74 ID = 1111
  21.163561 2  69D             Rx   d 2 14 42  Length = 619442 BitCount = 66 ID = 1693
  21.167861 2  629             Rx   d 8 FF 0F FF 7F 32 27 40 00  Length = 1159441 BitCount = 120 ID = 1577
  21.173541 2  67A             Rx   d 2 17 42  Length = 599461 BitCount = 64 ID = 1658
  21.180311 2  369             Rx   d 8 3F 00 00 D0 FF 00 00 00  Length = 1189426 BitCount = 123 ID = 873
  21.181541 2  470             Rx   d 8 40 08 00 00 00 00 00 15  Length = 1189426 BitCount = 123 ID = 1136
  21.182291 2  635             Rx   d 3 00 00 15  Length = 709438 BitCount = 75 ID = 1589
  21.186581 2  3E1             Rx   d 8 00 00 00 00 00 00 84 78  Length = 1199426 BitCount = 124 ID = 993
  21.187741 2  5E1             Rx   d 7 80 00 00 00 00 00 00  Length = 1099430 BitCount = 114 ID = 1505
  21.188380 2  69E             Rx   d 2 19 42  Length = 599446 BitCount = 64 ID = 1694
  21.190100 2  381             Rx   d 6 00 00 00 00 00 00  Length = 1029430 BitCount = 107 ID = 897
  21.190950 2  531             Rx   d 4 00 20 80 A0  Length = 799438 BitCount = 84 ID = 1329
  21.192720 2  62B             Rx   d 8 00 10 00 40 03 00 FE 7F  Length = 1179426 BitCount = 122 ID = 1579
  21.193930 2  43D             Rx   d 8 00 01 03 04 00 16 00 00  Length = 1169426 BitCount = 121 ID = 1085
  21.200290 2  397             Rx   d 8 00 00 00 00 00 00 00 00  Length = 1199441 BitCount = 124 ID = 919
  21.201340 2  4B9             Rx   d 6 00 00 00 00 00 00  Length = 1009430 BitCount = 105 ID = 1209
  21.210070 2  4BD             Rx   d 6 01 00 00 00 00 00  Length = 999445 BitCount = 104 ID = 1213
  21.211280 2  658             Rx   d 8 78 28 00 07 00 94 00 00  Length = 1169441 BitCount = 121 ID = 1624
  21.217699 2  621             Rx   d 8 00 3B 66 00 00 3A 15 00  Length = 1149426 BitCount = 119 ID = 1569
  21.218869 2  62D             Rx   d 8 00 10 2E 41 C7 03 13 40  Length = 1129430 BitCount = 117 ID = 1581
  21.220159 2  3B5             Rx   d 6 00 00 00 00 00 00  Length = 1029430 BitCount = 107 ID = 949
  21.221359 2  527             Rx   d 8 10 01 00 10 71 75 7E 08  Length = 1159426 BitCount = 120 ID = 1319
  21.222379 2  571             Rx   d 6 93 1F 00 08 04 00  Length = 979430 BitCount = 102 ID = 1393
  21.230268 2  470             Rx   d 8 40 08 00 00 00 00 00 15  Length = 1189426 BitCount = 123 ID = 1136
  21.240108 2  2C1             Rx   d 6 00 00 00 00 02 00  Length = 1009430 BitCount = 105 ID = 705
  21.240938 2  531             Rx   d 4 00 20 90 B0  Length = 779438 BitCount = 82 ID = 1329
  21.242088 2  651             Rx   d 8 80 02 50 AF 39 59 01 00  Length = 1109445 BitCount = 115 ID = 1617
  21.243358 2  400             Rx   d 8 0C 01 01 04 00 00 00 00  Length = 1209426 BitCount = 125 ID = 1024
  21.244008 2  69D             Rx   d 2 19 42  Length = 609446 BitCount = 65 ID = 1693
  21.250218 2  359             Rx   d 8 FF 89 FF 00 10 6B 80 00  Length = 1149426 BitCount = 119 ID = 857
  21.260277 2  35B             Rx   d 8 0F 00 00 00 20 19 0C 00  Length = 1169426 BitCount = 121 ID = 859
  21.261017 2  457             Rx   d 3 00 47 00  Length = 699453 BitCount = 74 ID = 1111
  21.270256 2  320             Rx   d 8 00 00 00 01 00 05 00 80  Length = 1189426 BitCount = 123 ID = 800
  21.271116 2  575             Rx   d 4 00 00 00 00  Length = 819449 BitCount = 86 ID = 1397
  21.280256 2  367             Rx   d 8 FF 00 00 00 7E EF 01 00  Length = 1159441 BitCount = 120 ID = 871
  21.281496 2  369             Rx   d 8 3F 00 00 D0 FF 00 00 00  Length = 1189426 BitCount = 123 ID = 873
  21.282726 2  470             Rx   d 8 40 08 00 00 00 00 00 15  Length = 1189426 BitCount = 123 ID = 1136
  21.286536 2  3E1             Rx   d 8 00 00 00 00 00 00 84 78  Length = 1199426 BitCount = 124 ID = 993
  21.287786 2  40C             Rx   d 8 16 01 01 04 00 04 00 00  Length = 1189426 BitCount = 123 ID = 1036
  21.290106 2  381             Rx   d 6 00 00 00 00 00 00  Length = 1029445 BitCount = 107 ID = 897
  21.290956 2  531             Rx   d 4 00 20 A0 80  Length = 799449 BitCount = 84 ID = 1329
  21.292696 2  52D             Rx   d 8 FE 7F FF 0F FF 0F FF 0F  Length = 1169426 BitCount = 121 ID = 1325
  21.300285 2  397             Rx   d 8 00 00 00 00 00 00 00 00  Length = 1199426 BitCount = 124 ID = 919
  21.301335 2  4B9             Rx   d 6 00 00 00 00 00 00  Length = 1009430 BitCount = 105 ID = 1209
  21.302575 2  591             Rx   d 8 00 00 08 00 00 00 00 00  Length = 1199426 BitCount = 124 ID = 1425
  21.303405 2  653             Rx   d 4 81 01 41 01  Length = 789438 BitCount = 83 ID = 1619
  21.310075 2  4BD             Rx   d 6 01 00 00 00 00 00  Length = 999430 BitCount = 104 ID = 1213
  21.311285 2  658             Rx   d 8 78 28 00 07 00 94 00 00  Length = 1169426 BitCount = 121 ID = 1624
  21.317714 2  52F             Rx   d 8 00 00 FE 1F FE 1F FE 1F  Length = 1169426 BitCount = 121 ID = 1327
  21.318874 2  65F             Rx   d 8 00 AA 8C 8E C0 00 00 00  Length = 1119430 BitCount = 116 ID = 1631
  21.320064 2  621             Rx   d 8 00 3B 66 00 00 3A 15 00  Length = 1149441 BitCount = 119 ID = 1569
  21.321134 2  3B5             Rx   d 6 00 00 00 00 00 00  Length = 1029430 BitCount = 107 ID = 949
  21.321804 2  5D1             Rx   d 2 10 00  Length = 629442 BitCount = 67 ID = 1489
  21.330273 2  470             Rx   d 8 40 08 00 00 00 00 00 15  Length = 1189426 BitCount = 123 ID = 1136
  21.337903 2  436             Rx   d 8 1D 01 01 04 00 00 02 00  Length = 1169426 BitCount = 121 ID = 1078
  21.340093 2  2C1             Rx   d 6 00 00 00 00 02 00  Length = 1009430 BitCount = 105 ID = 705
  21.340933 2  531             Rx   d 4 00 20 B0 90  Length = 789438 BitCount = 83 ID = 1329
  21.342083 2  651             Rx   d 8 80 02 50 AF 39 59 01 00  Length = 1109430 BitCount = 115 ID = 1617
  21.343253 2  532             Rx   d 8 00 00 8E 10 31 10 25 10  Length = 1129430 BitCount = 117 ID = 1330
  21.350213 2  359             Rx   d 8 FF 89 FF 00 10 6B 80 00  Length = 1149426 BitCount = 119 ID = 857
  21.360282 2  35B             Rx   d 8 0F 00 00 00 20 19 0C 00  Length = 1169441 BitCount = 121 ID = 859
  21.361022 2  457             Rx   d 3 00 47 00  Length = 699442 BitCount = 74 ID = 1111
  21.380291 2  369             Rx   d 8 3F 00 00 D0 FF 00 00 00  Length = 1189426 BitCount = 123 ID = 873
  21.381521 2  470             Rx   d 8 40 08 00 00 00 00 00 15  Length = 1189426 BitCount = 123 ID = 1136
  21.382271 2  635             Rx   d 3 00 00 15  Length = 709438 BitCount = 75 ID = 1589
  21.383611 2  43D             Rx   d 8 00 01 03 04 00 16 00 00  Length = 1169426 BitCount = 121 ID = 1085
  21.386301 2  3E1             Rx   d 8 00 00 00 00 00 00 84 78  Length = 1199426 BitCount = 124 ID = 993
  21.387461 2  5E1             Rx   d 7 80 00 00 00 00 00 00  Length = 1099445 BitCount = 114 ID = 1505
  21.390091 2  381             Rx   d 6 00 00 00 00 00 00  Length = 1029430 BitCount = 107 ID = 897
  21.390941 2  531             Rx   d 4 00 20 C0 E0  Length = 799438 BitCount = 84 ID = 1329
  21.400280 2  397             Rx   d 8 00 00 00 00 00 00 00 00  Length = 1199426 BitCount = 124 ID = 919
  21.401330 2  4B9             Rx   d 6 00 00 00 00 00 00  Length = 1009430 BitCount = 105 ID = 1209
  21.402510 2  655             Rx   d 8 75 00 70 03 18 00 80 C0  Length = 1139430 BitCount = 118 ID = 1621
  21.410060 2  4BD             Rx   d 6 01 00 00 00 00 00  Length = 999430 BitCount = 104 ID = 1213
  21.411270 2  658             Rx   d 8 78 28 00 07 00 94 00 00  Length = 1169426 BitCount = 121 ID = 1624
  21.417689 2  621             Rx   d 8 00 3B 66 00 00 3A 15 00  Length = 1149426 BitCount = 119 ID = 1569
  21.420139 2  3B5             Rx   d 6 00 00 00 00 00 00  Length = 1029430 BitCount = 107 ID = 949
  21.421339 2  527             Rx   d 8 10 01 00 10 71 75 7E 08  Length = 1159426 BitCount = 120 ID = 1319
  21.422329 2  6B4             Rx   d 6 8D 01 10 02 6A 55  Length = 949445 BitCount = 99 ID = 1716
  21.430258 2  470             Rx   d 8 40 08 00 00 00 00 00 15  Length = 1189426 BitCount = 123 ID = 1136
  21.431508 2  400             Rx   d 8 0C 01 01 04 00 00 00 00  Length = 1209441 BitCount = 125 ID = 1024
  21.440098 2  2C1             Rx   d 6 00 00 00 00 02 00  Length = 1009430 BitCount = 105 ID = 705
  21.440948 2  531             Rx   d 4 00 20 D0 F0  Length = 799438 BitCount = 84 ID = 1329
  21.442098 2  651             Rx   d 8 80 02 50 AF 39 59 01 00  Length = 1109430 BitCount = 115 ID = 1617
  21.450207 2  359             Rx   d 8 FF 89 FF 00 10 6B 80 00  Length = 1149426 BitCount = 119 ID = 857
  21.460277 2  35B             Rx   d 8 0F 00 00 00 20 19 0C 00  Length = 1169441 BitCount = 121 ID = 859
  21.461017 2  457             Rx   d 3 00 47 00  Length = 699442 BitCount = 74 ID = 1111
  21.470236 2  320             Rx   d 8 00 00 00 01 00 0D 00 80  Length = 1179426 BitCount = 122 ID = 800
  21.471096 2  575             Rx   d 4 00 00 00 00  Length = 819434 BitCount = 86 ID = 1397
  21.472296 2  65D             Rx   d 8 82 32 27 E0 F0 00 11 07  Length = 1159426 BitCount = 120 ID = 1629
  21.476496 2  40C             Rx   d 8 16 01 01 04 00 04 00 00  Length = 1189441 BitCount = 123 ID = 1036
  21.480236 2  367             Rx   d 8 FF 00 00 00 7E EF 01 00  Length = 1159426 BitCount = 120 ID = 871
  21.481476 2  369             Rx   d 8 3F 00 00 D0 FF 00 00 00  Length = 1189426 BitCount = 123 ID = 873
  21.482706 2  470             Rx   d 8 40 08 00 00 00 00 00 15  Length = 1189441 BitCount = 123 ID = 1136
  21.486276 2  3E1             Rx   d 8 00 00 00 00 00 00 84 78  Length = 1199426 BitCount = 124 ID = 993
  21.487546 2  3E9             Rx   d 8 00 00 00 00 00 00 00 00  Length = 1209426 BitCount = 125 ID = 1001
  21.488816 2  5E8             Rx   d 8 00 40 00 00 00 00 40 00  Length = 1209426 BitCount = 125 ID = 1512
  21.490496 2  381             Rx   d 6 00 00 00 00 00 00  Length = 1029430 BitCount = 107 ID = 897
  21.491346 2  531             Rx   d 4 00 20 E0 C0  Length = 799438 BitCount = 84 ID = 1329
  21.500275 2  397             Rx   d 8 00 00 00 00 00 00 00 00  Length = 1199426 BitCount = 124 ID = 919
  21.501325 2  4B9             Rx   d 6 00 00 00 00 00 00  Length = 1009445 BitCount = 105 ID = 1209
  21.502565 2  591             Rx   d 8 00 00 08 00 00 00 00 00  Length = 1199441 BitCount = 124 ID = 1425
  21.510085 2  4BD             Rx   d 6 01 00 00 00 00 00  Length = 999430 BitCount = 104 ID = 1213
  21.511295 2  658             Rx   d 8 78 28 00 07 00 94 00 00  Length = 1169426 BitCount = 121 ID = 1624
  21.517644 2  65F             Rx   d 8 01 00 00 00 00 00 00 00  Length = 1129441 BitCount = 117 ID = 1631
  21.518854 2  436             Rx   d 8 1D 01 01 04 00 00 02 00  Length = 1169426 BitCount = 121 ID = 1078
  21.520044 2  621             Rx   d 8 00 3B 66 00 00 3A 15 00  Length = 1149426 BitCount = 119 ID = 1569
  21.521114 2  3B5             Rx   d 6 00 00 00 00 00 00  Length = 1029430 BitCount = 107 ID = 949
  21.521784 2  5D1             Rx   d 2 10 00  Length = 629442 BitCount = 67 ID = 1489
  21.530253 2  470             Rx   d 8 40 08 00 00 00 00 00 15  Length = 1189441 BitCount = 123 ID = 1136
  21.540083 2  2C1             Rx   d 6 00 00 00 00 02 00  Length = 1009445 BitCount = 105 ID = 705
  21.540943 2  531             Rx   d 4 00 20 F0 D0  Length = 809449 BitCount = 85 ID = 1329
  21.542113 2  651             Rx   d 8 80 02 50 AF 39 59 01 00  Length = 1109430 BitCount = 115 ID = 1617
  21.550192 2  359             Rx   d 8 FF 89 FF 00 10 6B 80 00  Length = 1149426 BitCount = 119 ID = 857
  21.560252 2  35B             Rx   d 8 0F 00 00 00 20 19 0C 00  Length = 1169426 BitCount = 121 ID = 859
  21.561002 2  457             Rx   d 3 00 47 00  Length = 699442 BitCount = 74 ID = 1111
  21.563602 2  43D             Rx   d 8 00 01 03 04 00 16 00 00  Length = 1169426 BitCount = 121 ID = 1085
  21.580781 2  369             Rx   d 8 3F 00 00 D0 FF 00 00 00  Length = 1189426 BitCount = 123 ID = 873
  21.582011 2  470             Rx   d 8 40 08 00 00 00 00 00 15  Length = 1189426 BitCount = 123 ID = 1136
  21.582761 2  635             Rx   d 3 00 00 15  Length = 709438 BitCount = 75 ID = 1589
  21.586231 2  3E1             Rx   d 8 00 00 FF 00 00 00 84 78  Length = 1179426 BitCount = 122 ID = 993
  21.587521 2  3E3             Rx   d 8 00 00 86 00 00 00 00 00  Length = 1189426 BitCount = 123 ID = 995
  21.588681 2  5E1             Rx   d 7 80 00 00 00 00 00 00  Length = 1099430 BitCount = 114 ID = 1505
  21.590101 2  381             Rx   d 6 00 00 00 00 00 00  Length = 1029430 BitCount = 107 ID = 897
  21.590961 2  531             Rx   d 4 00 20 00 20  Length = 809434 BitCount = 85 ID = 1329
  21.600270 2  397             Rx   d 8 00 00 00 00 00 00 00 00  Length = 1199426 BitCount = 124 ID = 919
  21.601320 2  4B9             Rx   d 6 00 00 00 00 00 00  Length = 1009430 BitCount = 105 ID = 1209
  21.602570 2  5F5             Rx   d 8 00 10 00 00 00 00 00 00  Length = 1209426 BitCount = 125 ID = 1525
  21.610050 2  4BD             Rx   d 6 01 00 00 00 00 00  Length = 999430 BitCount = 104 ID = 1213
  21.611260 2  658             Rx   d 8 78 28 00 07 00 94 00 00  Length = 1169426 BitCount = 121 ID = 1624
  21.612510 2  400             Rx   d 8 0C 01 01 04 00 00 00 00  Length = 1209426 BitCount = 125 ID = 1024
  21.617659 2  621             Rx   d 8 00 3B 66 00 00 3A 15 00  Length = 1149426 BitCount = 119 ID = 1569
  21.620129 2  3B5             Rx   d 6 00 00 00 00 00 00  Length = 1029445 BitCount = 107 ID = 949
  21.621329 2  527             Rx   d 8 10 01 00 10 71 75 7E 08  Length = 1159441 BitCount = 120 ID = 1319
  21.630248 2  470             Rx   d 8 40 08 00 00 00 00 00 15  Length = 1189426 BitCount = 123 ID = 1136
  21.631498 2  64F             Rx   d 8 3F 00 00 00 00 00 00 00  Length = 1209426 BitCount = 125 ID = 1615
  21.634108 2  66C             Rx   d 8 3C 42 03 00 31 00 03 01  Length = 1159426 BitCount = 120 ID = 1644
  21.640088 2  2C1             Rx   d 6 00 00 00 00 02 00  Length = 1009430 BitCount = 105 ID = 705
  21.640938 2  531             Rx   d 4 00 20 10 30  Length = 799438 BitCount = 84 ID = 1329
  21.642098 2  651             Rx   d 8 80 02 50 AF 39 59 01 00  Length = 1109445 BitCount = 115 ID = 1617
  21.650197 2  359             Rx   d 8 FF 89 FF 00 10 6B 80 00  Length = 1149426 BitCount = 119 ID = 857
  21.656607 2  40C             Rx   d 8 16 01 01 04 00 04 00 00  Length = 1189426 BitCount = 123 ID = 1036
  21.660247 2  35B             Rx   d 8 0F 00 00 00 20 19 0C 00  Length = 1169426 BitCount = 121 ID = 859
  21.660987 2  457             Rx   d 3 00 47 00  Length = 699442 BitCount = 74 ID = 1111
  21.670467 2  320             Rx   d 8 00 00 00 01 00 05 00 80  Length = 1189441 BitCount = 123 ID = 800
  21.671327 2  575             Rx   d 4 00 00 00 00  Length = 819434 BitCount = 86 ID = 1397
  21.680226 2  367             Rx   d 8 FF 00 00 00 7E EF 01 00  Length = 1159426 BitCount = 120 ID = 871
  21.681466 2  369             Rx   d 8 3F 00 00 D0 FF 00 00 00  Length = 1189426 BitCount = 123 ID = 873
  21.682696 2  470             Rx   d 8 40 08 00 00 00 00 00 15  Length = 1189426 BitCount = 123 ID = 1136
  21.686466 2  3E1             Rx   d 8 00 00 FF 00 00 00 84 78  Length = 1179441 BitCount = 122 ID = 993
  21.690066 2  381             Rx   d 6 00 00 00 00 00 00  Length = 1029430 BitCount = 107 ID = 897
  21.690916 2  531             Rx   d 4 00 20 20 00  Length = 799449 BitCount = 84 ID = 1329
  21.697916 2  436             Rx   d 8 1D 01 01 04 00 00 02 00  Length = 1169426 BitCount = 121 ID = 1078
  21.700266 2  397             Rx   d 8 00 00 00 00 00 00 00 00  Length = 1199441 BitCount = 124 ID = 919
  21.701316 2  4B9             Rx   d 6 00 00 00 00 00 00  Length = 1009430 BitCount = 105 ID = 1209
  21.702556 2  591             Rx   d 8 00 00 08 00 00 00 00 00  Length = 1199426 BitCount = 124 ID = 1425
  21.708126 2  69E             Rx   d 2 14 42  Length = 599446 BitCount = 64 ID = 1694
  21.710066 2  4BD             Rx   d 6 01 00 00 00 00 00  Length = 999430 BitCount = 104 ID = 1213
  21.711266 2  658             Rx   d 8 78 28 00 07 00 93 00 00  Length = 1159426 BitCount = 120 ID = 1624
  21.717615 2  65F             Rx   d 8 02 00 00 00 00 00 00 00  Length = 1119430 BitCount = 116 ID = 1631
  21.718805 2  621             Rx   d 8 00 3B 66 00 00 3A 15 00  Length = 1149426 BitCount = 119 ID = 1569
  21.720125 2  3B5             Rx   d 6 00 00 00 00 00 00  Length = 1029430 BitCount = 107 ID = 949
  21.721145 2  571             Rx   d 6 93 1F 00 08 04 00  Length = 979430 BitCount = 102 ID = 1393
  21.721815 2  5D1             Rx   d 2 10 00  Length = 629442 BitCount = 67 ID = 1489
  21.730245 2  470             Rx   d 8 40 08 00 00 00 00 00 15  Length = 1189426 BitCount = 123 ID = 1136
  21.740064 2  2C1             Rx   d 6 00 00 00 00 02 00  Length = 1009430 BitCount = 105 ID = 705
  21.740904 2  531             Rx   d 4 00 20 30 10  Length = 789438 BitCount = 83 ID = 1329
  21.742054 2  651             Rx   d 8 80 02 50 AF 39 59 01 00  Length = 1109430 BitCount = 115 ID = 1617
  21.743614 2  43D             Rx   d 8 00 01 03 04 00 16 00 00  Length = 1169426 BitCount = 121 ID = 1085
  21.750184 2  359             Rx   d 8 FF 89 FF 00 10 6B 80 00  Length = 1149426 BitCount = 119 ID = 857
  21.760433 2  35B             Rx   d 8 0F 00 00 00 20 19 0C 00  Length = 1169426 BitCount = 121 ID = 859
  21.761173 2  457             Rx   d 3 00 47 00  Length = 699442 BitCount = 74 ID = 1111
  21.763573 2  69D             Rx   d 2 14 42  Length = 619442 BitCount = 66 ID = 1693
  21.773543 2  67A             Rx   d 2 17 42  Length = 599446 BitCount = 64 ID = 1658
  21.780273 2  369             Rx   d 8 3F 00 00 D0 FF 00 00 00  Length = 1189441 BitCount = 123 ID = 873
  21.781502 2  470             Rx   d 8 40 08 00 00 00 00 00 15  Length = 1189426 BitCount = 123 ID = 1136
  21.782252 2  635             Rx   d 3 00 00 15  Length = 709438 BitCount = 75 ID = 1589
  21.786553 2  3E1             Rx   d 8 00 00 FF 00 00 00 84 78  Length = 1179426 BitCount = 122 ID = 993
  21.787713 2  5E1             Rx   d 7 80 00 00 00 00 00 00  Length = 1099445 BitCount = 114 ID = 1505
  21.788353 2  69E             Rx   d 2 19 42  Length = 599446 BitCount = 64 ID = 1694
  21.790062 2  381             Rx   d 6 00 00 00 00 00 00  Length = 1029445 BitCount = 107 ID = 897
  21.790922 2  531             Rx   d 4 00 20 40 60  Length = 809434 BitCount = 85 ID = 1329
  21.792172 2  400             Rx   d 8 0C 01 01 04 00 00 00 00  Length = 1209426 BitCount = 125 ID = 1024
  21.800252 2  397             Rx   d 8 00 00 00 00 00 00 00 00  Length = 1199426 BitCount = 124 ID = 919
  21.801302 2  4B9             Rx   d 6 00 00 00 00 00 00  Length = 1009430 BitCount = 105 ID = 1209
  21.802132 2  653             Rx   d 4 81 01 41 01  Length = 789438 BitCount = 83 ID = 1619
  21.810031 2  4BD             Rx   d 6 01 00 00 00 00 00  Length = 999430 BitCount = 104 ID = 1213
  21.811231 2  658             Rx   d 8 78 28 00 07 00 93 00 00  Length = 1159426 BitCount = 120 ID = 1624
  21.817651 2  621             Rx   d 8 00 3B 66 00 00 3A 15 00  Length = 1149426 BitCount = 119 ID = 1569
  21.820101 2  3B5             Rx   d 6 00 00 00 00 00 00  Length = 1029430 BitCount = 107 ID = 949
  21.821301 2  527             Rx   d 8 10 01 00 10 71 75 7E 08  Length = 1159426 BitCount = 120 ID = 1319
  21.830220 2  470             Rx   d 8 40 08 00 00 00 00 00 15  Length = 1189426 BitCount = 123 ID = 1136
  21.836570 2  40C             Rx   d 8 16 01 01 04 00 04 00 00  Length = 1189426 BitCount = 123 ID = 1036
  21.840080 2  2C1             Rx   d 6 00 00 00 00 02 00  Length = 1009430 BitCount = 105 ID = 705
  21.840940 2  531             Rx   d 4 00 20 50 70  Length = 809434 BitCount = 85 ID = 1329
  21.842100 2  651             Rx   d 8 80 02 50 AF 39 59 01 00  Length = 1109430 BitCount = 115 ID = 1617
  21.843560 2  69D             Rx   d 2 19 42  Length = 609446 BitCount = 65 ID = 1693
  21.850219 2  359             Rx   d 8 FF 89 FF 00 10 6B 80 00  Length = 1149426 BitCount = 119 ID = 857
  21.860249 2  35B             Rx   d 8 0F 00 00 00 20 19 0C 00  Length = 1169441 BitCount = 121 ID = 859
  21.860989 2  457             Rx   d 3 00 47 00  Length = 699442 BitCount = 74 ID = 1111
  21.863559 2  5A7             Rx   d 8 9C 19 00 00 00 00 00 00  Length = 1169426 BitCount = 121 ID = 1447
  21.864819 2  5A9             Rx   d 8 00 00 00 00 00 00 00 00  Length = 1219426 BitCount = 126 ID = 1449
  21.870229 2  320             Rx   d 8 00 00 00 01 00 0D 00 80  Length = 1179426 BitCount = 122 ID = 800
  21.871089 2  575             Rx   d 4 00 00 00 00  Length = 819434 BitCount = 86 ID = 1397
  21.877909 2  436             Rx   d 8 1D 01 01 04 00 00 02 00  Length = 1169441 BitCount = 121 ID = 1078
  21.880209 2  367             Rx   d 8 FF 00 00 00 7E EF 01 00  Length = 1159426 BitCount = 120 ID = 871
  21.881448 2  369             Rx   d 8 3F 00 00 D0 FF 00 00 00  Length = 1189426 BitCount = 123 ID = 873
  21.882678 2  470             Rx   d 8 40 08 00 00 00 00 00 15  Length = 1189426 BitCount = 123 ID = 1136
  21.886338 2  3E1             Rx   d 8 00 00 FF 00 00 00 84 78  Length = 1179426 BitCount = 122 ID = 993
  21.890058 2  381             Rx   d 6 00 00 00 00 00 00  Length = 1029430 BitCount = 107 ID = 897
  21.890908 2  531             Rx   d 4 00 20 60 40  Length = 799438 BitCount = 84 ID = 1329
  21.900248 2  397             Rx   d 8 00 00 00 00 00 00 00 00  Length = 1199426 BitCount = 124 ID = 919
  21.901298 2  4B9             Rx   d 6 00 00 00 00 00 00  Length = 1009430 BitCount = 105 ID = 1209
  21.902538 2  591             Rx   d 8 00 00 08 00 00 00 00 00  Length = 1199426 BitCount = 124 ID = 1425
  21.903718 2  655             Rx   d 8 75 00 70 03 18 00 80 C0  Length = 1139430 BitCount = 118 ID = 1621
  21.910057 2  4BD             Rx   d 6 01 00 00 00 00 00  Length = 999430 BitCount = 104 ID = 1213
  21.911257 2  658             Rx   d 8 78 28 00 07 00 93 00 00  Length = 1159426 BitCount = 120 ID = 1624
  21.917597 2  65F             Rx   d 8 00 AA 8C 8E C0 00 00 00  Length = 1119430 BitCount = 116 ID = 1631
  21.918787 2  621             Rx   d 8 00 3B 66 00 00 3A 15 00  Length = 1149441 BitCount = 119 ID = 1569
  21.920117 2  3B5             Rx   d 6 00 00 00 00 00 00  Length = 1029430 BitCount = 107 ID = 949
  21.920787 2  5D1             Rx   d 2 10 00  Length = 629442 BitCount = 67 ID = 1489
  21.921777 2  6B4             Rx   d 6 8D 01 10 02 6A 55  Length = 949430 BitCount = 99 ID = 1716
  21.923597 2  43D             Rx   d 8 00 01 03 04 00 16 00 00  Length = 1169441 BitCount = 121 ID = 1085
  21.930237 2  470             Rx   d 8 40 08 00 00 00 00 00 15  Length = 1189426 BitCount = 123 ID = 1136
  21.940056 2  2C1             Rx   d 6 00 00 00 00 02 00  Length = 1009445 BitCount = 105 ID = 705
  21.940906 2  531             Rx   d 4 00 20 70 50  Length = 799449 BitCount = 84 ID = 1329
  21.942056 2  651             Rx   d 8 80 02 50 AF 39 59 01 00  Length = 1109430 BitCount = 115 ID = 1617
  21.950175 2  359             Rx   d 8 FF 89 FF 00 10 6B 80 00  Length = 1149441 BitCount = 119 ID = 857
  21.960255 2  35B             Rx   d 8 0F 00 00 00 20 19 0C 00  Length = 1169426 BitCount = 121 ID = 859
  21.960995 2  457             Rx   d 3 00 47 00  Length = 699442 BitCount = 74 ID = 1111
  21.970924 2  400             Rx   d 8 0C 01 01 04 00 00 00 00  Length = 1209426 BitCount = 125 ID = 1024
  21.980254 2  369             Rx   d 8 3F 00 00 D0 FF 00 00 00  Length = 1189426 BitCount = 123 ID = 873
  21.981483 2  470             Rx   d 8 40 08 00 00 00 00 00 15  Length = 1189441 BitCount = 123 ID = 1136
  21.982233 2  635             Rx   d 3 00 00 15  Length = 709438 BitCount = 75 ID = 1589
  21.986324 2  3E1             Rx   d 8 00 00 FF 00 00 00 84 78  Length = 1179441 BitCount = 122 ID = 993
  21.987594 2  3E9             Rx   d 8 00 00 00 00 00 00 00 00  Length = 1209426 BitCount = 125 ID = 1001
  21.988754 2  5E1             Rx   d 7 80 00 00 00 00 00 00  Length = 1099430 BitCount = 114 ID = 1505
  21.990034 2  5E8             Rx   d 8 00 40 00 00 00 00 40 00  Length = 1209426 BitCount = 125 ID = 1512
  21.991103 2  381             Rx   d 6 00 00 00 00 00 00  Length = 1029430 BitCount = 107 ID = 897
  21.991953 2  531             Rx   d 4 00 20 80 A0  Length = 799438 BitCount = 84 ID = 1329
  22.000243 2  397             Rx   d 8 00 00 00 00 00 00 00 00  Length = 1199426 BitCount = 124 ID = 919
  22.001293 2  4B9             Rx   d 6 00 00 00 00 00 00  Length = 1009430 BitCount = 105 ID = 1209
  22.008670 CAN 1 Status:chip status error active
  22.008670 CAN 2 Status:chip status error active
  22.010022 2  4BD             Rx   d 6 01 00 00 00 00 00  Length = 999430 BitCount = 104 ID = 1213
  22.011222 2  658             Rx   d 8 78 28 00 07 00 93 00 00  Length = 1159426 BitCount = 120 ID = 1624
  22.016562 2  40C             Rx   d 8 16 01 01 04 00 04 00 00  Length = 1189426 BitCount = 123 ID = 1036
  22.017752 2  621             Rx   d 8 00 3B 66 00 00 3A 15 00  Length = 1149426 BitCount = 119 ID = 1569
  22.020102 2  3B5             Rx   d 6 00 00 00 00 00 00  Length = 1029445 BitCount = 107 ID = 949
  22.021302 2  527             Rx   d 8 10 01 00 10 71 75 7E 08  Length = 1159426 BitCount = 120 ID = 1319
  22.030242 2  470             Rx   d 8 40 08 00 00 00 00 00 15  Length = 1189441 BitCount = 123 ID = 1136
  22.040061 2  2C1             Rx   d 6 00 00 00 00 02 00  Length = 1009430 BitCount = 105 ID = 705
  22.040891 2  531             Rx   d 4 00 20 90 B0  Length = 779438 BitCount = 82 ID = 1329
  22.042041 2  651             Rx   d 8 80 02 50 AF 39 59 01 00  Length = 1109445 BitCount = 115 ID = 1617
  22.050170 2  359             Rx   d 8 FF 89 FF 00 10 6B 80 00  Length = 1149426 BitCount = 119 ID = 857
  22.057920 2  436             Rx   d 8 1D 01 01 04 00 00 02 00  Length = 1169426 BitCount = 121 ID = 1078
  22.060250 2  35B             Rx   d 8 0F 00 00 00 20 19 0C 00  Length = 1169426 BitCount = 121 ID = 859
  22.060990 2  457             Rx   d 3 00 47 00  Length = 699453 BitCount = 74 ID = 1111
  22.066810 2  60E             Rx   d 2 08 02  Length = 629442 BitCount = 67 ID = 1550
  22.067490 2  481             Rx   d 2 01 00  Length = 639442 BitCount = 68 ID = 1153
  22.068730 2  661             Rx   d 8 00 00 00 00 00 00 00 00  Length = 1199426 BitCount = 124 ID = 1633
  22.069870 2  665             Rx   d 7 00 00 00 00 00 00 00  Length = 1099445 BitCount = 114 ID = 1637
  22.071100 2  320             Rx   d 8 00 00 00 01 00 05 00 80  Length = 1189426 BitCount = 123 ID = 800
  22.071960 2  575             Rx   d 4 00 00 00 00  Length = 819434 BitCount = 86 ID = 1397
  22.072640 2  666             Rx   d 2 00 00  Length = 639442 BitCount = 68 ID = 1638
  22.080199 2  367             Rx   d 8 FF 00 00 00 7E EF 01 00  Length = 1159426 BitCount = 120 ID = 871
  22.081439 2  369             Rx   d 8 3F 00 00 D0 FF 00 00 00  Length = 1189441 BitCount = 123 ID = 873
  22.082669 2  470             Rx   d 8 40 08 00 00 00 00 00 15  Length = 1189426 BitCount = 123 ID = 1136
  22.086519 2  3E1             Rx   d 8 00 00 FF 00 00 00 84 78  Length = 1179441 BitCount = 122 ID = 993
  22.090049 2  381             Rx   d 6 00 00 00 00 00 00  Length = 1029430 BitCount = 107 ID = 897
  22.090899 2  531             Rx   d 4 00 20 A0 80  Length = 799449 BitCount = 84 ID = 1329
  22.100238 2  397             Rx   d 8 00 00 00 00 00 00 00 00  Length = 1199441 BitCount = 124 ID = 919
  22.101288 2  4B9             Rx   d 6 00 00 00 00 00 00  Length = 1009430 BitCount = 105 ID = 1209
  22.102528 2  591             Rx   d 8 00 00 08 00 00 00 00 00  Length = 1199426 BitCount = 124 ID = 1425
  22.103738 2  43D             Rx   d 8 00 01 03 04 00 16 00 00  Length = 1169426 BitCount = 121 ID = 1085
  22.104988 2  5F5             Rx   d 8 00 10 00 00 00 00 00 00  Length = 1209441 BitCount = 125 ID = 1525
  22.110038 2  4BD             Rx   d 6 01 00 00 00 00 00  Length = 999430 BitCount = 104 ID = 1213
  22.111238 2  658             Rx   d 8 78 28 00 07 00 93 00 00  Length = 1159441 BitCount = 120 ID = 1624
  22.117597 2  65F             Rx   d 8 01 00 00 00 00 00 00 00  Length = 1129430 BitCount = 117 ID = 1631
  22.118787 2  621             Rx   d 8 00 3B 66 00 00 3A 15 00  Length = 1149426 BitCount = 119 ID = 1569
  22.120107 2  3B5             Rx   d 6 00 00 00 00 00 00  Length = 1029430 BitCount = 107 ID = 949
  22.120777 2  5D1             Rx   d 2 10 00  Length = 629442 BitCount = 67 ID = 1489
  22.130217 2  470             Rx   d 8 40 08 00 00 00 00 00 15  Length = 1189426 BitCount = 123 ID = 1136
  22.131467 2  64F             Rx   d 8 3F 00 00 00 00 00 00 00  Length = 1209426 BitCount = 125 ID = 1615
  22.140046 2  2C1             Rx   d 6 00 00 00 00 02 00  Length = 1009430 BitCount = 105 ID = 705
  22.140886 2  531             Rx   d 4 00 20 B0 90  Length = 789438 BitCount = 83 ID = 1329
  22.142056 2  651             Rx   d 8 80 02 50 AF 39 59 01 00  Length = 1109430 BitCount = 115 ID = 1617
  22.150155 2  359             Rx   d 8 FF 89 FF 00 10 6B 80 00  Length = 1149426 BitCount = 119 ID = 857
  22.151405 2  400             Rx   d 8 0C 01 01 04 00 00 00 00  Length = 1209426 BitCount = 125 ID = 1024
  22.160225 2  35B             Rx   d 8 0F 00 00 00 20 19 0C 00  Length = 1169426 BitCount = 121 ID = 859
  22.160965 2  457             Rx   d 3 00 47 00  Length = 699442 BitCount = 74 ID = 1111
  22.167774 2  629             Rx   d 8 FF 0F FF 7F 32 27 40 00  Length = 1159426 BitCount = 120 ID = 1577
  22.180244 2  369             Rx   d 8 3F 00 00 D0 FF 00 00 00  Length = 1189441 BitCount = 123 ID = 873
  22.181474 2  470             Rx   d 8 40 08 00 00 00 00 00 15  Length = 1189426 BitCount = 123 ID = 1136
  22.182223 2  635             Rx   d 3 00 00 15  Length = 709438 BitCount = 75 ID = 1589
  22.186404 2  3E1             Rx   d 8 00 00 FF 00 00 00 84 78  Length = 1179426 BitCount = 122 ID = 993
  22.187564 2  5E1             Rx   d 7 80 00 00 00 00 00 00  Length = 1099430 BitCount = 114 ID = 1505
  22.190034 2  381             Rx   d 6 00 00 00 00 00 00  Length = 1029445 BitCount = 107 ID = 897
  22.190883 2  531             Rx   d 4 00 20 C0 E0  Length = 799438 BitCount = 84 ID = 1329
  22.192663 2  62B             Rx   d 8 00 10 00 40 03 00 FE 7F  Length = 1179426 BitCount = 122 ID = 1579
  22.196763 2  40C             Rx   d 8 16 01 01 04 00 04 00 00  Length = 1189426 BitCount = 123 ID = 1036
  22.200233 2  397             Rx   d 8 00 00 00 00 00 00 00 00  Length = 1199426 BitCount = 124 ID = 919
  22.201283 2  4B9             Rx   d 6 00 00 00 00 00 00  Length = 1009430 BitCount = 105 ID = 1209
  22.210013 2  4BD             Rx   d 6 01 00 00 00 00 00  Length = 999430 BitCount = 104 ID = 1213
  22.211213 2  658             Rx   d 8 78 28 00 07 00 93 00 00  Length = 1159426 BitCount = 120 ID = 1624
  22.217642 2  621             Rx   d 8 00 3B 66 00 00 3A 15 00  Length = 1149426 BitCount = 119 ID = 1569
  22.218812 2  62D             Rx   d 8 00 10 2E 41 C7 03 13 40  Length = 1129441 BitCount = 117 ID = 1581
  22.220092 2  3B5             Rx   d 6 00 00 00 00 00 00  Length = 1029430 BitCount = 107 ID = 949
  22.221292 2  527             Rx   d 8 10 01 00 10 71 75 7E 08  Length = 1159426 BitCount = 120 ID = 1319
  22.222312 2  571             Rx   d 6 93 1F 00 08 04 00  Length = 979445 BitCount = 102 ID = 1393
  22.230212 2  470             Rx   d 8 40 08 00 00 00 00 00 15  Length = 1189426 BitCount = 123 ID = 1136
  22.240051 2  2C1             Rx   d 6 00 00 00 00 02 00  Length = 1009430 BitCount = 105 ID = 705
  22.240901 2  531             Rx   d 4 00 20 D0 F0  Length = 799438 BitCount = 84 ID = 1329
  22.242061 2  651             Rx   d 8 80 02 50 AF 39 59 01 00  Length = 1109430 BitCount = 115 ID = 1617
  22.247921 2  436             Rx   d 8 1D 01 01 04 00 00 02 00  Length = 1169426 BitCount = 121 ID = 1078
  22.250151 2  359             Rx   d 8 FF 89 FF 00 10 6B 80 00  Length = 1149426 BitCount = 119 ID = 857
  22.260240 2  35B             Rx   d 8 0F 00 00 00 20 19 0C 00  Length = 1169441 BitCount = 121 ID = 859
  22.260980 2  457             Rx   d 3 00 47 00  Length = 699442 BitCount = 74 ID = 1111
  22.270180 2  320             Rx   d 8 00 00 00 01 00 0D 00 80  Length = 1179426 BitCount = 122 ID = 800
  22.271040 2  575             Rx   d 4 00 00 00 00  Length = 819434 BitCount = 86 ID = 1397
  22.280199 2  367             Rx   d 8 FF 00 00 00 7E EF 01 00  Length = 1159426 BitCount = 120 ID = 871
  22.281439 2  369             Rx   d 8 3F 00 00 D0 FF 00 00 00  Length = 1189426 BitCount = 123 ID = 873
  22.282669 2  470             Rx   d 8 40 08 00 00 00 00 00 15  Length = 1189441 BitCount = 123 ID = 1136
  22.286329 2  3E1             Rx   d 8 00 00 FF 00 00 00 84 78  Length = 1179426 BitCount = 122 ID = 993
  22.290029 2  381             Rx   d 6 00 00 00 00 00 00  Length = 1029430 BitCount = 107 ID = 897
  22.290878 2  531             Rx   d 4 00 20 E0 C0  Length = 799438 BitCount = 84 ID = 1329
  22.292628 2  52D             Rx   d 8 FE 7F FF 0F FF 0F FF 0F  Length = 1169441 BitCount = 121 ID = 1325
  22.293838 2  43D             Rx   d 8 00 01 03 04 00 16 00 00  Length = 1169426 BitCount = 121 ID = 1085
  22.300228 2  397             Rx   d 8 00 00 00 00 00 00 00 00  Length = 1199426 BitCount = 124 ID = 919
  22.301278 2  4B9             Rx   d 6 00 00 00 00 00 00  Length = 1009430 BitCount = 105 ID = 1209
  22.302518 2  591             Rx   d 8 00 00 08 00 00 00 00 00  Length = 1199441 BitCount = 124 ID = 1425
  22.303348 2  653             Rx   d 4 81 01 41 01  Length = 789438 BitCount = 83 ID = 1619
  22.308118 2  69E             Rx   d 2 14 42  Length = 599446 BitCount = 64 ID = 1694
  22.310428 2  4BD             Rx   d 6 01 00 00 00 00 00  Length = 999430 BitCount = 104 ID = 1213
  22.311628 2  658             Rx   d 8 78 28 00 07 00 93 00 00  Length = 1159426 BitCount = 120 ID = 1624
  22.317627 2  52F             Rx   d 8 00 00 FE 1F FE 1F FE 1F  Length = 1169426 BitCount = 121 ID = 1327
  22.318787 2  65F             Rx   d 8 02 00 00 00 00 00 00 00  Length = 1119430 BitCount = 116 ID = 1631
  22.319977 2  621             Rx   d 8 00 3B 66 00 00 3A 15 00  Length = 1149426 BitCount = 119 ID = 1569
  22.321047 2  3B5             Rx   d 6 00 00 00 00 00 00  Length = 1029430 BitCount = 107 ID = 949
  22.321717 2  5D1             Rx   d 2 10 00  Length = 629442 BitCount = 67 ID = 1489
  22.330207 2  470             Rx   d 8 40 08 00 00 00 00 00 15  Length = 1189441 BitCount = 123 ID = 1136
  22.340026 2  2C1             Rx   d 6 00 00 00 00 02 00  Length = 1009445 BitCount = 105 ID = 705
  22.340886 2  531             Rx   d 4 00 20 F0 D0  Length = 809449 BitCount = 85 ID = 1329
  22.342056 2  651             Rx   d 8 80 02 50 AF 39 59 01 00  Length = 1109430 BitCount = 115 ID = 1617
  22.343306 2  400             Rx   d 8 0C 01 01 04 00 00 00 00  Length = 1209441 BitCount = 125 ID = 1024
  22.344476 2  532             Rx   d 8 00 00 8E 10 31 10 25 10  Length = 1129430 BitCount = 117 ID = 1330
  22.350145 2  359             Rx   d 8 FF 89 FF 00 10 6B 80 00  Length = 1149426 BitCount = 119 ID = 857
  22.360205 2  35B             Rx   d 8 0F 00 00 00 20 19 0C 00  Length = 1169426 BitCount = 121 ID = 859
  22.360945 2  457             Rx   d 3 00 47 00  Length = 699442 BitCount = 74 ID = 1111
  22.363565 2  69D             Rx   d 2 14 42  Length = 619442 BitCount = 66 ID = 1693
  22.373535 2  67A             Rx   d 2 17 42  Length = 599446 BitCount = 64 ID = 1658
  22.380235 2  369             Rx   d 8 3F 00 00 D0 FF 00 00 00  Length = 1189426 BitCount = 123 ID = 873
  22.381465 2  470             Rx   d 8 40 08 00 00 00 00 00 15  Length = 1189441 BitCount = 123 ID = 1136
  22.382215 2  635             Rx   d 3 00 00 15  Length = 709438 BitCount = 75 ID = 1589
  22.386215 2  3E1             Rx   d 8 00 00 FF 00 00 00 84 78  Length = 1179426 BitCount = 122 ID = 993
  22.387465 2  3E3             Rx   d 8 00 00 86 00 00 00 00 00  Length = 1189441 BitCount = 123 ID = 995
  22.388715 2  40C             Rx   d 8 16 01 01 04 00 04 00 00  Length = 1189426 BitCount = 123 ID = 1036
  22.389355 2  69E             Rx   d 2 19 42  Length = 599446 BitCount = 64 ID = 1694
  22.390425 2  381             Rx   d 6 00 00 00 00 00 00  Length = 1029430 BitCount = 107 ID = 897
  22.391565 2  5E1             Rx   d 7 80 00 00 00 00 00 00  Length = 1099430 BitCount = 114 ID = 1505
  22.392414 2  531             Rx   d 4 00 20 00 20  Length = 809434 BitCount = 85 ID = 1329
  22.400604 2  397             Rx   d 8 00 00 00 00 00 00 00 00  Length = 1199426 BitCount = 124 ID = 919
  22.401654 2  4B9             Rx   d 6 00 00 00 00 00 00  Length = 1009445 BitCount = 105 ID = 1209
  22.402834 2  655             Rx   d 8 75 00 70 03 18 00 80 C0  Length = 1139441 BitCount = 118 ID = 1621
  22.409993 2  4BD             Rx   d 6 01 00 00 00 00 00  Length = 999430 BitCount = 104 ID = 1213
  22.411193 2  658             Rx   d 8 78 28 00 07 00 92 00 00  Length = 1159426 BitCount = 120 ID = 1624
  22.417593 2  621             Rx   d 8 00 3B 66 00 00 3A 15 00  Length = 1149441 BitCount = 119 ID = 1569
  22.420083 2  3B5             Rx   d 6 00 00 00 00 00 00  Length = 1029430 BitCount = 107 ID = 949
  22.421283 2  527             Rx   d 8 10 01 00 10 71 75 7E 08  Length = 1159426 BitCount = 120 ID = 1319
  22.422273 2  6B4             Rx   d 6 8D 01 10 02 6A 55  Length = 949430 BitCount = 99 ID = 1716
  22.430202 2  470             Rx   d 8 40 08 00 00 00 00 00 15  Length = 1189426 BitCount = 123 ID = 1136
  22.437912 2  436             Rx   d 8 1D 01 01 04 00 00 02 00  Length = 1169426 BitCount = 121 ID = 1078
  22.440042 2  2C1             Rx   d 6 00 00 00 00 02 00  Length = 1009430 BitCount = 105 ID = 705
  22.440892 2  531             Rx   d 4 00 20 10 30  Length = 799438 BitCount = 84 ID = 1329
  22.442042 2  651             Rx   d 8 80 02 50 AF 39 59 01 00  Length = 1109445 BitCount = 115 ID = 1617
  22.443572 2  69D             Rx   d 2 19 42  Length = 609446 BitCount = 65 ID = 1693
  22.450142 2  359             Rx   d 8 FF 89 FF 00 10 6B 80 00  Length = 1149426 BitCount = 119 ID = 857
  22.460211 2  35B             Rx   d 8 0F 00 00 00 20 19 0C 00  Length = 1169426 BitCount = 121 ID = 859
  22.460951 2  457             Rx   d 3 00 47 00  Length = 699453 BitCount = 74 ID = 1111
  22.470181 2  320             Rx   d 8 00 00 00 01 00 05 00 80  Length = 1189426 BitCount = 123 ID = 800
  22.471041 2  575             Rx   d 4 00 00 00 00  Length = 819449 BitCount = 86 ID = 1397
  22.472231 2  65D             Rx   d 8 82 32 27 E0 F0 00 91 07  Length = 1149426 BitCount = 119 ID = 1629
  22.480190 2  367             Rx   d 8 FF 00 00 00 7E EF 01 00  Length = 1159426 BitCount = 120 ID = 871
  22.481430 2  369             Rx   d 8 3F 00 00 D0 FF 00 00 00  Length = 1189426 BitCount = 123 ID = 873
  22.482660 2  470             Rx   d 8 40 08 00 00 00 00 00 15  Length = 1189426 BitCount = 123 ID = 1136
  22.483870 2  43D             Rx   d 8 00 01 03 04 00 16 00 00  Length = 1169426 BitCount = 121 ID = 1085
  22.486540 2  3E1             Rx   d 8 00 00 FF 00 00 00 84 78  Length = 1179441 BitCount = 122 ID = 993
  22.487810 2  3E9             Rx   d 8 00 00 00 00 00 00 00 00  Length = 1209441 BitCount = 125 ID = 1001
  22.489090 2  5E8             Rx   d 8 00 40 00 00 00 00 40 00  Length = 1209426 BitCount = 125 ID = 1512
  22.490300 2  381             Rx   d 6 00 00 00 00 00 00  Length = 1029430 BitCount = 107 ID = 897
  22.491150 2  531             Rx   d 4 00 20 20 00  Length = 799438 BitCount = 84 ID = 1329
  22.500209 2  397             Rx   d 8 00 00 00 00 00 00 00 00  Length = 1199441 BitCount = 124 ID = 919
  22.501259 2  4B9             Rx   d 6 00 00 00 00 00 00  Length = 1009430 BitCount = 105 ID = 1209
  22.502499 2  591             Rx   d 8 00 00 08 00 00 00 00 00  Length = 1199426 BitCount = 124 ID = 1425
  22.510019 2  4BD             Rx   d 6 01 00 00 00 00 00  Length = 999430 BitCount = 104 ID = 1213
  22.511219 2  658             Rx   d 8 78 28 00 07 00 92 00 00  Length = 1159426 BitCount = 120 ID = 1624
  22.517548 2  65F             Rx   d 8 00 AA 8C 8E C0 00 00 00  Length = 1119430 BitCount = 116 ID = 1631
  22.518738 2  621             Rx   d 8 00 3B 66 00 00 3A 15 00  Length = 1149426 BitCount = 119 ID = 1569
  22.520098 2  3B5             Rx   d 6 00 00 00 00 00 00  Length = 1029430 BitCount = 107 ID = 949
  22.520768 2  5D1             Rx   d 2 10 00  Length = 629442 BitCount = 67 ID = 1489
  22.530198 2  470             Rx   d 8 40 08 00 00 00 00 00 15  Length = 1189426 BitCount = 123 ID = 1136
  22.531448 2  400             Rx   d 8 0C 01 01 04 00 00 00 00  Length = 1209426 BitCount = 125 ID = 1024
  22.540017 2  2C1             Rx   d 6 00 00 00 00 02 00  Length = 1009430 BitCount = 105 ID = 705
  22.540857 2  531             Rx   d 4 00 20 30 10  Length = 789438 BitCount = 83 ID = 1329
  22.542007 2  651             Rx   d 8 80 02 50 AF 39 59 01 00  Length = 1109430 BitCount = 115 ID = 1617
  22.550136 2  359             Rx   d 8 FF 89 FF 00 10 6B 80 00  Length = 1149426 BitCount = 119 ID = 857
  22.560206 2  35B             Rx   d 8 0F 00 00 00 20 19 0C 00  Length = 1169441 BitCount = 121 ID = 859
  22.560946 2  457             Rx   d 3 00 47 00  Length = 699442 BitCount = 74 ID = 1111
  22.576525 2  40C             Rx   d 8 16 01 01 04 00 04 00 00  Length = 1189441 BitCount = 123 ID = 1036
  22.580405 2  369             Rx   d 8 3F 00 00 D0 FF 00 00 00  Length = 1189426 BitCount = 123 ID = 873
  22.581635 2  470             Rx   d 8 40 08 00 00 00 00 00 15  Length = 1189426 BitCount = 123 ID = 1136
  22.582385 2  635             Rx   d 3 00 00 15  Length = 709438 BitCount = 75 ID = 1589
  22.586315 2  3E1             Rx   d 8 00 00 FF 00 00 00 84 78  Length = 1179426 BitCount = 122 ID = 993
  22.587475 2  5E1             Rx   d 7 80 00 00 00 00 00 00  Length = 1099430 BitCount = 114 ID = 1505
  22.590015 2  381             Rx   d 6 00 00 00 00 00 00  Length = 1029430 BitCount = 107 ID = 897
  22.590875 2  531             Rx   d 4 00 20 40 60  Length = 809434 BitCount = 85 ID = 1329
  22.600205 2  397             Rx   d 8 00 00 00 00 00 00 00 00  Length = 1199426 BitCount = 124 ID = 919
  22.601254 2  4B9             Rx   d 6 00 00 00 00 00 00  Length = 1009430 BitCount = 105 ID = 1209
  22.602504 2  5F5             Rx   d 8 00 10 00 00 00 00 00 00  Length = 1209426 BitCount = 125 ID = 1525
  22.609984 2  4BD             Rx   d 6 01 00 00 00 00 00  Length = 999430 BitCount = 104 ID = 1213
  22.611184 2  658             Rx   d 8 78 28 00 07 00 92 00 00  Length = 1159426 BitCount = 120 ID = 1624
  22.617583 2  621             Rx   d 8 00 3B 66 00 00 3A 15 00  Length = 1149426 BitCount = 119 ID = 1569
  22.618793 2  436             Rx   d 8 1D 01 01 04 00 00 02 00  Length = 1169426 BitCount = 121 ID = 1078
  22.620073 2  3B5             Rx   d 6 00 00 00 00 00 00  Length = 1029430 BitCount = 107 ID = 949
  22.621273 2  527             Rx   d 8 10 01 00 10 71 75 7E 08  Length = 1159426 BitCount = 120 ID = 1319
  22.630193 2  470             Rx   d 8 40 08 00 00 00 00 00 15  Length = 1189426 BitCount = 123 ID = 1136
  22.631443 2  64F             Rx   d 8 3F 00 00 00 00 00 00 00  Length = 1209426 BitCount = 125 ID = 1615
  22.634123 2  66C             Rx   d 8 80 08 3C 43 38 03 FF BC  Length = 1159426 BitCount = 120 ID = 1644
  22.640022 2  2C1             Rx   d 6 00 00 00 00 02 00  Length = 1009445 BitCount = 105 ID = 705
  22.640882 2  531             Rx   d 4 00 20 50 70  Length = 809449 BitCount = 85 ID = 1329
  22.642032 2  651             Rx   d 8 80 02 50 AF 39 59 01 00  Length = 1109430 BitCount = 115 ID = 1617
  22.650132 2  359             Rx   d 8 FF 89 FF 00 10 6B 80 00  Length = 1149441 BitCount = 119 ID = 857
  22.660201 2  35B             Rx   d 8 0F 00 00 00 20 19 0C 00  Length = 1169426 BitCount = 121 ID = 859
  22.660941 2  457             Rx   d 3 00 47 00  Length = 699442 BitCount = 74 ID = 1111
  22.663591 2  43D             Rx   d 8 00 01 03 04 00 16 00 00  Length = 1169426 BitCount = 121 ID = 1085
  22.664541 2  66C             Rx   d 5 C0 00 00 00 00  Length = 909434 BitCount = 95 ID = 1644
  22.670181 2  320             Rx   d 8 00 00 00 01 00 0D 00 80  Length = 1179426 BitCount = 122 ID = 800
  22.671041 2  575             Rx   d 4 00 00 00 00  Length = 819434 BitCount = 86 ID = 1397
  22.680170 2  367             Rx   d 8 FF 00 00 00 7E EF 01 00  Length = 1159426 BitCount = 120 ID = 871
  22.681410 2  369             Rx   d 8 3F 00 00 D0 FF 00 00 00  Length = 1189426 BitCount = 123 ID = 873
  22.682640 2  470             Rx   d 8 40 08 00 00 00 00 00 15  Length = 1189426 BitCount = 123 ID = 1136
  22.686510 2  3E1             Rx   d 8 00 00 FF 00 00 00 84 78  Length = 1179426 BitCount = 122 ID = 993
  22.690010 2  381             Rx   d 6 00 00 00 00 00 00  Length = 1029430 BitCount = 107 ID = 897
  22.690860 2  531             Rx   d 4 00 20 60 40  Length = 799438 BitCount = 84 ID = 1329
  22.700199 2  397             Rx   d 8 00 00 00 00 00 00 00 00  Length = 1199426 BitCount = 124 ID = 919
  22.701249 2  4B9             Rx   d 6 00 00 00 00 00 00  Length = 1009445 BitCount = 105 ID = 1209
  22.702489 2  591             Rx   d 8 00 00 08 00 00 00 00 00  Length = 1199441 BitCount = 124 ID = 1425
  22.710008 2  4BD             Rx   d 6 01 00 00 00 00 00  Length = 999430 BitCount = 104 ID = 1213
  22.711208 2  658             Rx   d 8 78 28 00 07 00 92 00 00  Length = 1159426 BitCount = 120 ID = 1624
  22.712458 2  400             Rx   d 8 0C 01 01 04 00 00 00 00  Length = 1209426 BitCount = 125 ID = 1024
  22.717548 2  65F             Rx   d 8 01 00 00 00 00 00 00 00  Length = 1129441 BitCount = 117 ID = 1631
  22.718738 2  621             Rx   d 8 00 3B 66 00 00 3A 15 00  Length = 1149426 BitCount = 119 ID = 1569
  22.720088 2  3B5             Rx   d 6 00 00 00 00 00 00  Length = 1029445 BitCount = 107 ID = 949
  22.721108 2  571             Rx   d 6 93 1F 00 08 04 00  Length = 979445 BitCount = 102 ID = 1393
  22.721778 2  5D1             Rx   d 2 10 00  Length = 629457 BitCount = 67 ID = 1489
  22.730167 2  470             Rx   d 8 40 08 00 00 00 00 00 15  Length = 1189441 BitCount = 123 ID = 1136
  22.740007 2  2C1             Rx   d 6 00 00 00 00 02 00  Length = 1009430 BitCount = 105 ID = 705
  22.740857 2  531             Rx   d 4 00 20 70 50  Length = 799438 BitCount = 84 ID = 1329
  22.742017 2  651             Rx   d 8 80 02 50 AF 39 59 01 00  Length = 1109430 BitCount = 115 ID = 1617
  22.750126 2  359             Rx   d 8 FF 89 FF 00 10 6B 80 00  Length = 1149426 BitCount = 119 ID = 857
  22.756256 2  40C             Rx   d 8 16 01 01 04 00 04 00 00  Length = 1189426 BitCount = 123 ID = 1036
  22.760186 2  35B             Rx   d 8 0F 00 00 00 20 19 0C 00  Length = 1169426 BitCount = 121 ID = 859
  22.760926 2  457             Rx   d 3 00 47 00  Length = 699442 BitCount = 74 ID = 1111
  22.780205 2  369             Rx   d 8 3F 00 00 D0 FF 00 00 00  Length = 1189426 BitCount = 123 ID = 873
  22.781435 2  470             Rx   d 8 40 08 00 00 00 00 00 15  Length = 1189426 BitCount = 123 ID = 1136
  22.782185 2  635             Rx   d 3 00 00 15  Length = 709438 BitCount = 75 ID = 1589
  22.786035 2  3E1             Rx   d 8 00 00 FF 00 00 00 84 78  Length = 1179426 BitCount = 122 ID = 993
  22.787195 2  5E1             Rx   d 7 80 00 00 00 00 00 00  Length = 1099445 BitCount = 114 ID = 1505
  22.790005 2  381             Rx   d 6 00 00 00 00 00 00  Length = 1029430 BitCount = 107 ID = 897
  22.790855 2  531             Rx   d 4 00 20 80 A0  Length = 799438 BitCount = 84 ID = 1329
  22.797915 2  436             Rx   d 8 1D 01 01 04 00 00 02 00  Length = 1169426 BitCount = 121 ID = 1078
  22.800195 2  397             Rx   d 8 00 00 00 00 00 00 00 00  Length = 1199441 BitCount = 124 ID = 919
  22.801244 2  4B9             Rx   d 6 00 00 00 00 00 00  Length = 1009430 BitCount = 105 ID = 1209
  22.802074 2  653             Rx   d 4 81 01 41 01  Length = 789438 BitCount = 83 ID = 1619
  22.809974 2  4BD             Rx   d 6 01 00 00 00 00 00  Length = 999430 BitCount = 104 ID = 1213
  22.811174 2  658             Rx   d 8 78 28 00 07 00 92 00 00  Length = 1159426 BitCount = 120 ID = 1624
  22.817564 2  621             Rx   d 8 00 3B 66 00 00 3A 15 00  Length = 1149426 BitCount = 119 ID = 1569
  22.820033 2  3B5             Rx   d 6 00 00 00 00 00 00  Length = 1029430 BitCount = 107 ID = 949
  22.821233 2  527             Rx   d 8 10 01 00 10 71 75 7E 08  Length = 1159426 BitCount = 120 ID = 1319
  22.830173 2  470             Rx   d 8 40 08 00 00 00 00 00 15  Length = 1189426 BitCount = 123 ID = 1136
  22.840012 2  2C1             Rx   d 6 00 00 00 00 02 00  Length = 1009430 BitCount = 105 ID = 705
  22.840842 2  531             Rx   d 4 00 20 90 B0  Length = 779438 BitCount = 82 ID = 1329
  22.842002 2  651             Rx   d 8 80 02 50 AF 39 59 01 00  Length = 1109430 BitCount = 115 ID = 1617
  22.843612 2  43D             Rx   d 8 00 01 03 04 00 16 00 00  Length = 1169441 BitCount = 121 ID = 1085
  22.850122 2  359             Rx   d 8 FF 89 FF 00 10 6B 80 00  Length = 1149426 BitCount = 119 ID = 857
  22.860191 2  35B             Rx   d 8 0F 00 00 00 20 19 0C 00  Length = 1169426 BitCount = 121 ID = 859
  22.860931 2  457             Rx   d 3 00 47 00  Length = 699442 BitCount = 74 ID = 1111
  22.863551 2  5A7             Rx   d 8 9C 19 00 00 00 00 00 00  Length = 1169426 BitCount = 121 ID = 1447
  22.864811 2  5A9             Rx   d 8 00 00 00 00 00 00 00 00  Length = 1219441 BitCount = 126 ID = 1449
  22.870150 2  320             Rx   d 8 00 00 00 01 00 05 00 80  Length = 1189426 BitCount = 123 ID = 800
  22.871010 2  575             Rx   d 4 00 00 00 00  Length = 819434 BitCount = 86 ID = 1397
  22.880160 2  367             Rx   d 8 FF 00 00 00 7E EF 01 00  Length = 1159441 BitCount = 120 ID = 871
  22.881400 2  369             Rx   d 8 3F 00 00 D0 FF 00 00 00  Length = 1189426 BitCount = 123 ID = 873
  22.882630 2  470             Rx   d 8 40 08 00 00 00 00 00 15  Length = 1189426 BitCount = 123 ID = 1136
  22.886159 2  3E1             Rx   d 8 00 00 FF 00 00 00 84 78  Length = 1179426 BitCount = 122 ID = 993
  22.889999 2  381             Rx   d 6 00 00 00 00 00 00  Length = 1029430 BitCount = 107 ID = 897
  22.890849 2  531             Rx   d 4 00 20 A0 80  Length = 799438 BitCount = 84 ID = 1329
  22.892099 2  400             Rx   d 8 0C 01 01 04 00 00 00 00  Length = 1209426 BitCount = 125 ID = 1024
  22.900189 2  397             Rx   d 8 00 00 00 00 00 00 00 00  Length = 1199426 BitCount = 124 ID = 919
  22.901238 2  4B9             Rx   d 6 00 00 00 00 00 00  Length = 1009430 BitCount = 105 ID = 1209
  22.902478 2  591             Rx   d 8 00 00 08 00 00 00 00 00  Length = 1199426 BitCount = 124 ID = 1425
  22.903658 2  655             Rx   d 8 75 00 70 03 18 00 80 C0  Length = 1139441 BitCount = 118 ID = 1621
  22.909998 2  4BD             Rx   d 6 01 00 00 00 00 00  Length = 999430 BitCount = 104 ID = 1213
  22.911198 2  658             Rx   d 8 78 28 00 07 00 92 00 00  Length = 1159426 BitCount = 120 ID = 1624
  22.917518 2  65F             Rx   d 8 02 00 00 00 00 00 00 00  Length = 1119430 BitCount = 116 ID = 1631
  22.918707 2  621             Rx   d 8 00 3B 66 00 00 3A 15 00  Length = 1149426 BitCount = 119 ID = 1569
  22.920067 2  3B5             Rx   d 6 00 00 00 00 00 00  Length = 1029430 BitCount = 107 ID = 949
  22.920737 2  5D1             Rx   d 2 10 00  Length = 629442 BitCount = 67 ID = 1489
  22.921727 2  6B4             Rx   d 6 8D 01 10 02 6A 55  Length = 949445 BitCount = 99 ID = 1716
  22.930177 2  470             Rx   d 8 40 08 00 00 00 00 00 15  Length = 1189426 BitCount = 123 ID = 1136
  22.936537 2  40C             Rx   d 8 16 01 01 04 00 04 00 00  Length = 1189441 BitCount = 123 ID = 1036
  22.939997 2  2C1             Rx   d 6 00 00 00 00 02 00  Length = 1009430 BitCount = 105 ID = 705
  22.940837 2  531             Rx   d 4 00 20 B0 90  Length = 789438 BitCount = 83 ID = 1329
  22.941987 2  651             Rx   d 8 80 02 50 AF 39 59 01 00  Length = 1109430 BitCount = 115 ID = 1617
  22.950116 2  359             Rx   d 8 FF 89 FF 00 10 6B 80 00  Length = 1149426 BitCount = 119 ID = 857
  22.960165 2  35B             Rx   d 8 0F 00 00 00 20 19 0C 00  Length = 1169426 BitCount = 121 ID = 859
  22.960905 2  457             Rx   d 3 00 47 00  Length = 699442 BitCount = 74 ID = 1111
  22.963566 2  69D             Rx   d 2 14 42  Length = 619457 BitCount = 66 ID = 1693
  22.973565 2  67A             Rx   d 2 17 42  Length = 599446 BitCount = 64 ID = 1658
  22.977915 2  436             Rx   d 8 1D 01 01 04 00 00 02 00  Length = 1169426 BitCount = 121 ID = 1078
  22.980185 2  369             Rx   d 8 3F 00 00 D0 FF 00 00 00  Length = 1189426 BitCount = 123 ID = 873
  22.981415 2  470             Rx   d 8 40 08 00 00 00 00 00 15  Length = 1189426 BitCount = 123 ID = 1136
  22.982165 2  635             Rx   d 3 00 00 15  Length = 709453 BitCount = 75 ID = 1589
  22.986325 2  3E1             Rx   d 8 00 00 FF 00 00 00 84 78  Length = 1179426 BitCount = 122 ID = 993
  22.987595 2  3E9             Rx   d 8 00 00 00 00 00 00 00 00  Length = 1209426 BitCount = 125 ID = 1001
  22.988755 2  5E1             Rx   d 7 80 00 00 00 00 00 00  Length = 1099430 BitCount = 114 ID = 1505
  22.990055 2  5E8             Rx   d 8 00 40 00 00 00 00 40 00  Length = 1209441 BitCount = 125 ID = 1512
  22.991125 2  381             Rx   d 6 00 00 00 00 00 00  Length = 1029430 BitCount = 107 ID = 897
  22.991975 2  531             Rx   d 4 00 20 C0 E0  Length = 799438 BitCount = 84 ID = 1329
  23.000185 2  397             Rx   d 8 00 00 00 00 00 00 00 00  Length = 1199426 BitCount = 124 ID = 919
  23.001235 2  4B9             Rx   d 6 00 00 00 00 00 00  Length = 1009445 BitCount = 105 ID = 1209
  23.008671 CAN 1 Status:chip status error active
  23.008671 CAN 2 Status:chip status error active
  23.009964 2  4BD             Rx   d 6 01 00 00 00 00 00  Length = 999430 BitCount = 104 ID = 1213
  23.011164 2  658             Rx   d 8 78 28 00 07 00 92 00 00  Length = 1159426 BitCount = 120 ID = 1624
  23.017544 2  621             Rx   d 8 00 3B 66 00 00 3A 15 00  Length = 1149441 BitCount = 119 ID = 1569
  23.020013 2  3B5             Rx   d 6 00 00 00 00 00 00  Length = 1029445 BitCount = 107 ID = 949
  23.021213 2  527             Rx   d 8 10 01 00 10 71 75 7E 08  Length = 1159441 BitCount = 120 ID = 1319
  23.023593 2  43D             Rx   d 8 00 01 03 04 00 12 00 00  Length = 1169426 BitCount = 121 ID = 1085
  23.030163 2  470             Rx   d 8 40 08 00 00 00 00 00 15  Length = 1189441 BitCount = 123 ID = 1136
  23.040002 2  2C1             Rx   d 6 00 00 00 00 02 00  Length = 1009430 BitCount = 105 ID = 705
  23.040852 2  531             Rx   d 4 00 20 D0 F0  Length = 799438 BitCount = 84 ID = 1329
  23.042002 2  651             Rx   d 8 80 02 50 AF 39 59 01 00  Length = 1109430 BitCount = 115 ID = 1617
